(1675525874.915698) vcan0 1B5#FF83B01258E0FFEF
(1675525874.915765) vcan0 1D8#363339343234E143
(1675525874.915841) vcan0 1E0#0004E30300B917E0
(1675525874.915940) vcan0 2C3#4F9E00FFFF845450
(1675525874.916738) vcan0 008#3D803C9200800080
(1675525874.917754) vcan0 055#F9F71538B2949E80
(1675525874.918771) vcan0 065#76E614F8FEED6002
(1675525874.918851) vcan0 070#000005F861E20D00
(1675525874.918999) vcan0 075#0000000000005458
(1675525874.919077) vcan0 080#38508000C2002C00
(1675525874.919805) vcan0 0B0#528319A3E4C152E3
(1675525874.919881) vcan0 145#F9C2D380FC4810A1
(1675525874.919960) vcan0 0E0#627303F80080F800
(1675525874.925091) vcan0 010#008000002FB031F8
(1675525874.925168) vcan0 072#F000FF3F00788038
(1675525874.925319) vcan0 0F5#43A953A97F6F4236
(1675525874.925397) vcan0 120#63A984A97FFA5589
(1675525874.926195) vcan0 125#E51280E4C1D0D735
(1675525874.926274) vcan0 130#DFFF1D6B29AFFF11
(1675525874.926359) vcan0 008#3D804C8200800080
(1675525874.926438) vcan0 150#4B2917B8FBF7CFC0
(1675525874.927235) vcan0 1D0#0000000000000061
(1675525874.928321) vcan0 350#A200000000000080
(1675525874.929341) vcan0 288#3BE050AF00000080
(1675525874.929418) vcan0 210#0AE080A0C469C545
(1675525874.930438) vcan0 010#008000002FB031F8
(1675525874.931455) vcan0 291#0000000000000000
(1675525874.932543) vcan0 1B0#00C0000002B000FC
(1675525874.933560) vcan0 1B5#FF9ECB2065E0FFEF
(1675525874.934648) vcan0 1D8#363339343234E143
(1675525874.935951) vcan0 1E0#0008D34300B917E0
(1675525874.936102) vcan0 2A9#8C260082C0000084
(1675525874.936180) vcan0 008#3D805C7200800080
(1675525874.938924) vcan0 055#F9F71538B2949E80
(1675525874.939003) vcan0 065#79E615F8FEED6102
(1675525874.939089) vcan0 070#000005F861E20D00
(1675525874.939168) vcan0 075#0000000000005458
(1675525874.939318) vcan0 080#38508000C2002C00
(1675525874.940045) vcan0 0B0#528319A3E4C152E3
(1675525874.940123) vcan0 072#F000FF3F0078A038
(1675525874.940276) vcan0 0E0#627305C00080D600
(1675525874.940354) vcan0 145#F9B2D480FC4810A1
(1675525874.940430) vcan0 28C#00000000002CFEA9
(1675525874.941084) vcan0 290#0000000000000000
(1675525874.941163) vcan0 2B5#4BE2166293A67D70
(1675525874.941240) vcan0 2C0#4F9E00010000A0F1
(1675525874.941318) vcan0 2C5#30DF8DBF76E6D470
(1675525874.942118) vcan0 340#9F00000000000000
(1675525874.944938) vcan0 360#5F9E0075BB51A001
(1675525874.945016) vcan0 3AF#0000000000000020
(1675525874.945167) vcan0 260#D0FF0055497487B0
(1675525874.945253) vcan0 125#E51280E4C1D0D735
(1675525874.945328) vcan0 010#008000002FB031F8
(1675525874.945410) vcan0 0F5#53A94BA97F733239
(1675525874.945993) vcan0 120#8CA973A97FFC5589
(1675525874.946141) vcan0 130#E7FF1D6B299FFF11
(1675525874.946220) vcan0 150#4F2914C8FBF7BBC0
(1675525874.946298) vcan0 008#3D806C6200800080
(1675525874.947098) vcan0 1D0#0000000000000061
(1675525874.947175) vcan0 390#80FF050002065E4F
(1675525874.948119) vcan0 288#3BE050AF00000080
(1675525874.949206) vcan0 010#008000002FB031F8
(1675525874.950368) vcan0 072#F000FF3F00788038
(1675525874.954199) vcan0 1B0#00C0000002B000FC
(1675525874.955287) vcan0 1B5#FFB8E62D72E0FFEF
(1675525874.955438) vcan0 1D8#363339343234E143
(1675525874.955516) vcan0 1E0#000CC34300B917E0
(1675525874.956396) vcan0 210#0AE08020C469C54D
(1675525874.956546) vcan0 008#3D807C5200800080
(1675525874.956623) vcan0 2C3#4F9E00FFFF845450
(1675525874.956701) vcan0 330#2800000000000000
(1675525874.957428) vcan0 3D0#9A0F6100641B80C3
(1675525874.958517) vcan0 055#F9F71538B2949E80
(1675525874.958595) vcan0 065#7DE615F804EE6102
(1675525874.958745) vcan0 070#000005F861E20D00
(1675525874.958825) vcan0 075#0000000000005458
(1675525874.959550) vcan0 080#38508000C2002C00
(1675525874.962442) vcan0 0B0#528319A3E4C152E3
(1675525874.962593) vcan0 0E0#627306C80080B500
(1675525874.962670) vcan0 145#F9A2D580FC4810A1
(1675525874.963540) vcan0 010#008000002FB031F8
(1675525874.964628) vcan0 0F5#4FA957A97F77223C
(1675525874.965645) vcan0 120#93A977A97FFB5589
(1675525874.965732) vcan0 125#E51280E4C1D0D735
(1675525874.965810) vcan0 130#EFFF1D6B298FFF11
(1675525874.965887) vcan0 150#4D2914D8FBF7ADC0
(1675525874.966687) vcan0 008#3D808C4200800080
(1675525874.966838) vcan0 1D0#0000000000000861
(1675525874.966916) vcan0 291#0000000000000000
(1675525874.967786) vcan0 290#0000000000000000
(1675525874.968802) vcan0 072#F000FF3F0078A038
(1675525874.971220) vcan0 260#D0FF0055497487B0
(1675525874.972382) vcan0 1B0#00C0000002B000FC
(1675525874.973399) vcan0 1B5#FFD3013A80E0FFEF
(1675525874.976218) vcan0 010#008000002FB031F8
(1675525874.976297) vcan0 1D8#363339343234E143
(1675525874.976373) vcan0 1E0#000CC30300B917E0
(1675525874.976451) vcan0 008#3D809C3200800080
(1675525874.976602) vcan0 2A9#8C26009BC0000084
(1675525874.977266) vcan0 055#F9F71538B2929E80
(1675525874.978356) vcan0 065#77E615F801EE6102
(1675525874.978435) vcan0 070#000005F861E20D00
(1675525874.979375) vcan0 075#0000000000005458
(1675525874.979454) vcan0 080#38508000C2002C00
(1675525874.979531) vcan0 0B0#528319A3E4C152E3
(1675525874.979609) vcan0 0E0#62730CD000808F00
(1675525874.980413) vcan0 145#F992D680FC4810A1
(1675525874.980564) vcan0 210#0AE080A0C469C545
(1675525874.980641) vcan0 288#4BE050AF00000080
(1675525874.983313) vcan0 28C#00000000002CFEA9
(1675525874.983463) vcan0 2B5#4BE2166293A67D70
(1675525874.984407) vcan0 125#E51280E4C1D0D735
(1675525874.985495) vcan0 0F5#43A94FA97F7B1240
(1675525874.985573) vcan0 010#008000002FB031F9
(1675525874.985650) vcan0 072#F000FF3F00788038
(1675525874.985738) vcan0 120#6FA973A97FFA5589
(1675525874.986536) vcan0 130#F7FF1D6B297FFF11
(1675525874.986615) vcan0 008#3B80AC2400800080
(1675525874.986691) vcan0 150#4F2917E8FAF79BC0
(1675525874.986769) vcan0 1D0#0000000000000261
(1675525874.987567) vcan0 3CA#00000000520000C8
(1675525874.988585) vcan0 3C8#4F9E008E882C008E
(1675525874.992507) vcan0 1B0#00C0000002B000FC
(1675525874.993523) vcan0 010#008000002FB031F8
(1675525874.994612) vcan0 1B5#FFEE1C488DE0FFEF
(1675525874.995625) vcan0 1D8#363339343234E143
(1675525874.995704) vcan0 1E0#0010B34300B917E0
(1675525874.995783) vcan0 008#3B80BC1400800080
(1675525874.996725) vcan0 291#0000000000000000
(1675525874.996803) vcan0 2C3#4F9E00FFFF855450
(1675525874.997745) vcan0 055#F9F71538B2949E80
(1675525874.998783) vcan0 065#74E615F8FEED6102
(1675525874.999870) vcan0 070#000005F861E20D00
(1675525874.999948) vcan0 072#F000FF3F0078A038
(1675525875.002692) vcan0 075#0000000000005458
(1675525875.002771) vcan0 080#38508000C2002C00
(1675525875.002849) vcan0 0B0#528319A3E4C152E3
(1675525875.002925) vcan0 0E0#627310D800806B00
(1675525875.003003) vcan0 145#F982D780FC4810A1
(1675525875.003082) vcan0 290#0000000000000000
(1675525875.003160) vcan0 2C0#4F9E00000000A0F1
(1675525875.003309) vcan0 2C5#30DF8DBF79E6D470
(1675525875.003386) vcan0 370#0726C0008D03CF1F
(1675525875.003464) vcan0 3E0#000000D933808092
(1675525875.003832) vcan0 288#43E050AF00000080
(1675525875.003911) vcan0 260#D0FF00AA497487B0
(1675525875.004779) vcan0 125#E51280E4C1D0D735
(1675525875.004866) vcan0 010#008000002FB031F8
(1675525875.005811) vcan0 0F5#57A947A97F7F0243
(1675525875.008700) vcan0 120#80A973A97FF95589
(1675525875.008777) vcan0 130#FFFF1D6B296FFF11
(1675525875.008856) vcan0 150#4F291BF8FAF78BC0
(1675525875.008932) vcan0 008#3B80CC0400800080
(1675525875.009010) vcan0 1D0#0000000000000061
(1675525875.009161) vcan0 210#0AE080A0C469C54D
(1675525875.009743) vcan0 010#008000002FB031F8
(1675525875.010762) vcan0 072#F000FF3F00788038
(1675525875.011777) vcan0 1B0#00C0000003B000FC
(1675525875.012863) vcan0 1B5#FF0936559AE0FFEF
(1675525875.013878) vcan0 1D8#363339343234E143
(1675525875.014895) vcan0 1E0#0014A34300B917E0
(1675525875.015910) vcan0 008#3B80DCF400800080
(1675525875.015988) vcan0 2A9#8C260082C0000084
(1675525875.016940) vcan0 400#0101030705010207
(1675525875.019828) vcan0 405#0000000000000000
(1675525875.019907) vcan0 055#F9F71538B2949E80
(1675525875.019984) vcan0 065#7AE615F8FFED6102
(1675525875.020061) vcan0 070#000005F861E20D00
(1675525875.020139) vcan0 075#0000000000005458
(1675525875.020292) vcan0 080#38508000C2002C00
(1675525875.020370) vcan0 0B0#528319A3E4C152E3
(1675525875.020446) vcan0 145#F972D880FC4810A1
(1675525875.020525) vcan0 0E0#627313E000804800
(1675525875.020601) vcan0 28C#00000000002CFEA9
(1675525875.020896) vcan0 2B5#4BE2166293A67D70
(1675525875.020975) vcan0 340#9F00000000000000
(1675525875.021053) vcan0 350#A200000000000080
(1675525875.021852) vcan0 125#E51280E4C1D0D735
(1675525875.022941) vcan0 010#008000002FB031F8
(1675525875.025478) vcan0 0F5#47A953A97F43F246
(1675525875.025556) vcan0 120#90A984A97FF65589
(1675525875.025635) vcan0 130#87FF1D6B295FFF11
(1675525875.026578) vcan0 150#4B291708FAF77FC0
(1675525875.026656) vcan0 008#3880E46700800080
(1675525875.026734) vcan0 1D0#0000000000000061
(1675525875.026812) vcan0 291#0000000000000000
(1675525875.027541) vcan0 290#0000000000000000
(1675525875.028555) vcan0 288#47E0609F00000080
(1675525875.029642) vcan0 072#F000FF3F0078A038
(1675525875.033831) vcan0 210#0AE080A0C469C54D
(1675525875.033909) vcan0 3B0#00D864386AB8C400
(1675525875.033986) vcan0 260#D0FF00AA497487B0
(1675525875.034930) vcan0 010#008000002FB031F8
(1675525875.035008) vcan0 330#2800000000000000
(1675525875.035085) vcan0 1B0#00C0000002B000FC
(1675525875.035892) vcan0 1B5#FF245162A8E0FFEF
(1675525875.036042) vcan0 1D8#363339343234E143
(1675525875.036121) vcan0 1E0#0014A30300B917E0
(1675525875.036197) vcan0 008#3880F45700800080
(1675525875.036275) vcan0 2C3#4F9E00FFFF855450
(1675525875.036929) vcan0 055#F9F71538B2949E80
(1675525875.038019) vcan0 065#7BE615F804EE6102
(1675525875.039034) vcan0 070#000005F861E20D00
(1675525875.039111) vcan0 075#0000000000005458
(1675525875.039261) vcan0 080#38508000C2002C00
(1675525875.040060) vcan0 0B0#528319A3E4C152E3
(1675525875.040137) vcan0 0E0#62731BE800802000
(1675525875.040290) vcan0 145#F962D980FC4810A1
(1675525875.040367) vcan0 360#5F9E0074BB51A001
(1675525875.043974) vcan0 010#008000002FB031F8
(1675525875.045061) vcan0 072#F000FF3F00788038
(1675525875.045148) vcan0 0F5#4FA953A97F47E24A
(1675525875.045225) vcan0 120#77A973A97FFB5589
(1675525875.046097) vcan0 125#E51280E4C1D0D735
(1675525875.046175) vcan0 130#8FFF1D6B294FFF11
(1675525875.046252) vcan0 008#3680043B0E800080
(1675525875.046329) vcan0 150#4F291818FAF76BC0
(1675525875.047128) vcan0 1D0#0000000000000061
(1675525875.047279) vcan0 390#80FF050002065E4F
(1675525875.048221) vcan0 288#58E0609F00000080
(1675525875.050703) vcan0 010#008000002FB031F8
(1675525875.051718) vcan0 1B0#00C0000001B000FC
(1675525875.052806) vcan0 1B5#FF3F6C70B5E0FFEF
(1675525875.053821) vcan0 1D8#363339343234E143
(1675525875.054908) vcan0 1E0#0018934300B917E0
(1675525875.057652) vcan0 210#0AE080A0C469C545
(1675525875.057730) vcan0 008#3480142D0E800080
(1675525875.057817) vcan0 291#0000000000000000
(1675525875.057967) vcan0 2A9#8C26009BC0000084
(1675525875.058767) vcan0 055#F9F71538B2949E80
(1675525875.058846) vcan0 065#75E615F8FEED6102
(1675525875.058924) vcan0 070#000005F861E20D00
(1675525875.059072) vcan0 075#0000000000005458
(1675525875.059153) vcan0 080#38508000C2002C00
(1675525875.059805) vcan0 0B0#528319A3E4C152E3
(1675525875.059883) vcan0 072#F000FF3F0078A038
(1675525875.059960) vcan0 0E0#627324F00080F700
(1675525875.060038) vcan0 145#F952DA80FC4810A1
(1675525875.060917) vcan0 28C#00000000002CFEA9
(1675525875.060995) vcan0 290#0000000000000000
(1675525875.063744) vcan0 2B5#4BE2166293A67D70
(1675525875.063822) vcan0 2C0#4F9E00000000A0F1
(1675525875.063899) vcan0 2C5#30DF8DBF76E6D470
(1675525875.063987) vcan0 3AF#0000000000000020
(1675525875.064064) vcan0 260#D0FF00AA497487B0
(1675525875.064792) vcan0 125#E51480E4C1D0D735
(1675525875.064870) vcan0 010#008000002FB031F9
(1675525875.065814) vcan0 0F5#57A94BA97F4BD24D
(1675525875.065962) vcan0 120#7BA97BA97FFC5589
(1675525875.066040) vcan0 130#97FF1D6B293FFF11
(1675525875.066118) vcan0 150#4B291E28FBF75FC0
(1675525875.066196) vcan0 008#3480240F1C800080
(1675525875.066922) vcan0 1D0#0000000000000A61
(1675525875.067937) vcan0 1B0#00C0000001B000FC
(1675525875.069025) vcan0 1B5#FF5A877DC2E0FFEF
(1675525875.072863) vcan0 1D8#363339343234E143
(1675525875.073950) vcan0 1E0#001C834300B917E0
(1675525875.074966) vcan0 2C3#4F9E00FFFF865450
(1675525875.076052) vcan0 010#008000002FB031F8
(1675525875.076136) vcan0 008#328034011C800080
(1675525875.076216) vcan0 072#F000FF3F00788038
(1675525875.077086) vcan0 055#F9F71538B2949E80
(1675525875.078102) vcan0 065#75E615F8FDED6002
(1675525875.079189) vcan0 070#000005F861E20D00
(1675525875.079267) vcan0 075#0000000000005458
(1675525875.079342) vcan0 080#38508000C2002C00
(1675525875.080505) vcan0 0B0#528319A3E4C152E3
(1675525875.080656) vcan0 0E0#62732BF80080D000
(1675525875.080734) vcan0 145#F942DB80FC4810A1
(1675525875.080811) vcan0 288#58E0609F00000080
(1675525875.080889) vcan0 210#05E080A0C469C545
(1675525875.084571) vcan0 125#E51480E4C1D0D735
(1675525875.084649) vcan0 010#008000002FB031F8
(1675525875.085665) vcan0 0F5#47A94BA97F4FC250
(1675525875.085742) vcan0 120#93A973A97FFC5589
(1675525875.085828) vcan0 130#9FFF1D6B292FFF11
(1675525875.085907) vcan0 150#49291E38FBF751C0
(1675525875.086705) vcan0 008#328044DB32800080
(1675525875.086783) vcan0 1D0#0000000000000061
(1675525875.086934) vcan0 291#0000000000000000
(1675525875.087804) vcan0 290#0000000000000000
(1675525875.088820) vcan0 072#F000FF3F0078A038
(1675525875.089909) vcan0 260#D0FF0055497487B0
(1675525875.090926) vcan0 010#008000002FB031F8
(1675525875.091941) vcan0 1B0#00C0000002B000FC
(1675525875.094400) vcan0 1B5#FF74A28BD0E0FFEF
(1675525875.095414) vcan0 1D8#363339343234E143
(1675525875.095493) vcan0 1E0#001C830300B917E0
(1675525875.095569) vcan0 2A9#8C260082C0000084
(1675525875.096514) vcan0 008#2F8054CE32800080
(1675525875.099329) vcan0 055#F9F71538B2949E80
(1675525875.099417) vcan0 065#7DE615F802EE6102
(1675525875.099568) vcan0 070#000005F861E20D00
(1675525875.099645) vcan0 075#0000000000005458
(1675525875.099725) vcan0 080#38508000C2002C00
(1675525875.099802) vcan0 0B0#528319A3E4C152E3
(1675525875.099878) vcan0 0E0#627331C00080AA00
(1675525875.100341) vcan0 145#F932DC80FC4810A1
(1675525875.100419) vcan0 28C#00000000002CFEA9
(1675525875.100568) vcan0 2B5#4BE3166293A67D70
(1675525875.100646) vcan0 340#9F00000000000000
(1675525875.101446) vcan0 370#0726C0008D03CF1F
(1675525875.102460) vcan0 288#54E0609F00000080
(1675525875.103548) vcan0 125#E51780E4C1D0D735
(1675525875.104563) vcan0 0F5#53A94BA97F53B254
(1675525875.107523) vcan0 010#008000002FB031F8
(1675525875.107601) vcan0 072#F000FF3F00788038
(1675525875.107687) vcan0 120#90A96FA97FFA5589
(1675525875.107766) vcan0 130#A7FF1D6B291FFF11
(1675525875.107842) vcan0 008#2F8064B040800080
(1675525875.107922) vcan0 150#4F291B48FCF73BC0
(1675525875.108000) vcan0 1D0#0000000000000061
(1675525875.108148) vcan0 210#05E08020C469C54D
(1675525875.108226) vcan0 3CA#00000000530000C8
(1675525875.108448) vcan0 350#A200000000000080
(1675525875.109536) vcan0 3C8#4F9E008E882C008E
(1675525875.110557) vcan0 010#008000002FB031F8
(1675525875.111644) vcan0 1B0#00C0000002B000FC
(1675525875.112657) vcan0 1B5#FF8FBC98DDE0FFEF
(1675525875.113819) vcan0 1D8#363339343234E143
(1675525875.116567) vcan0 1E0#0020734300B917E0
(1675525875.116645) vcan0 291#0000000000000000
(1675525875.116722) vcan0 008#2D8074934F800080
(1675525875.116809) vcan0 2C3#4F9E00FFFF875450
(1675525875.116885) vcan0 330#2800000000000000
(1675525875.117036) vcan0 425#0000000000000000
(1675525875.117620) vcan0 055#F9F71538B2949E80
(1675525875.118709) vcan0 065#79E615F802EE6102
(1675525875.118788) vcan0 070#000005F861E20D00
(1675525875.118865) vcan0 075#0000000000005458
(1675525875.119736) vcan0 080#38508000C2002C00
(1675525875.119815) vcan0 0B0#528319A3E4C152E3
(1675525875.119891) vcan0 072#F000FF3F0078A038
(1675525875.119969) vcan0 0E0#627330C800808B00
(1675525875.120045) vcan0 145#F922DD80FC4810A1
(1675525875.122578) vcan0 290#0000000000000000
(1675525875.122656) vcan0 2C0#4F9E00000000A0F1
(1675525875.122733) vcan0 2C5#30DF8DBF7CE6D470
(1675525875.123605) vcan0 260#D0FF0055497487B0
(1675525875.124702) vcan0 125#E51780E4C1D0D735
(1675525875.124779) vcan0 010#008000002FB031F8
(1675525875.125721) vcan0 0F5#53A953A97F57A257
(1675525875.125800) vcan0 120#6FA977A97FFB5589
(1675525875.125878) vcan0 130#AFFF1D6B290FFF11
(1675525875.126029) vcan0 150#4F291D58FCF72BC0
(1675525875.126106) vcan0 008#2D8084834F800080
(1675525875.126833) vcan0 1D0#0000000000000861
(1675525875.127849) vcan0 288#54E0708F00000080
(1675525875.128935) vcan0 210#05E080A0C469C545
(1675525875.131234) vcan0 010#008000002FB031F8
(1675525875.132268) vcan0 072#F000FF3F00788038
(1675525875.133370) vcan0 1B0#00C0000002B000FC
(1675525875.134406) vcan0 1B5#FFAAD7A5EBE0FFEF
(1675525875.137223) vcan0 1D8#363339343234E143
(1675525875.137296) vcan0 1E0#0024634300B917E0
(1675525875.137393) vcan0 2A9#8C26008AC0000084
(1675525875.137466) vcan0 008#2D8094734F800080
(1675525875.138294) vcan0 055#F9F71538B2949E80
(1675525875.138367) vcan0 065#76E615F8FEED6102
(1675525875.139265) vcan0 070#000005F861E20D00
(1675525875.139339) vcan0 075#0000000000005458
(1675525875.139482) vcan0 080#38508000C2002C00
(1675525875.139556) vcan0 0B0#528319A3E4C152E3
(1675525875.139630) vcan0 0E0#627332D000806900
(1675525875.140355) vcan0 145#F912DE80FC4810A1
(1675525875.140433) vcan0 28C#00000000002CFEA9
(1675525875.140511) vcan0 2B5#4BE3166293A67D70
(1675525875.140591) vcan0 360#5F9E0074BB51A001
(1675525875.144199) vcan0 125#E51980E4C1D0D735
(1675525875.145287) vcan0 010#008000002FB031F9
(1675525875.145365) vcan0 0F5#4BA947A97F5B925A
(1675525875.145452) vcan0 120#90A96FA97FFF5589
(1675525875.145529) vcan0 130#B7FF1D6B29FFFF11
(1675525875.146329) vcan0 150#51291D68FCF719C0
(1675525875.146406) vcan0 008#2B80A47440800080
(1675525875.146556) vcan0 1D0#0000000000000261
(1675525875.146634) vcan0 291#0000000000000000
(1675525875.147432) vcan0 390#80FF0500023E504F
(1675525875.148591) vcan0 290#0000000000000000
(1675525875.149608) vcan0 072#F000FF3F0078A038
(1675525875.149685) vcan0 3B0#00D864386AB8C600
(1675525875.150701) vcan0 288#60E0708F00000080
(1675525875.151716) vcan0 260#D0FF0055497487B0
(1675525875.154532) vcan0 010#008000002FB031F8
(1675525875.154610) vcan0 1B0#00C0000002B000FC
(1675525875.155624) vcan0 1B5#FFC5F2B3F8E0FFEF
(1675525875.155701) vcan0 1D8#363339343234E143
(1675525875.155788) vcan0 1E0#0024630300B917E0
(1675525875.155939) vcan0 210#05E080A0C469C54D
(1675525875.156739) vcan0 008#2B80B44E56800080
(1675525875.156817) vcan0 2C3#4F9E00FFFF875450
(1675525875.156894) vcan0 3D0#9A0F6100641B80C3
(1675525875.157838) vcan0 055#F9F71538B2949E80
(1675525875.158851) vcan0 065#7AE615F8FFED6102
(1675525875.158929) vcan0 070#000005F861E20D00
(1675525875.161676) vcan0 075#0000000000005458
(1675525875.161753) vcan0 080#38508000C2002C00
(1675525875.161829) vcan0 0B0#52831AA3E4C152E3
(1675525875.161981) vcan0 0E0#627331D800804A00
(1675525875.162059) vcan0 145#F902DF80FC4810A1
(1675525875.162136) vcan0 430#2E082E0000002CC6
(1675525875.162719) vcan0 125#E51980E4C1D0D735
(1675525875.163880) vcan0 010#008000002FB031F8
(1675525875.164977) vcan0 072#F000FF3F00788038
(1675525875.165994) vcan0 0F5#4FA94FA97F5F825E
(1675525875.166071) vcan0 120#9CA96FA97FFC5589
(1675525875.166148) vcan0 130#BFFF1D6B29EFFF11
(1675525875.166300) vcan0 008#2B80C44D47800080
(1675525875.166375) vcan0 150#4D292178FDF70DC0
(1675525875.167104) vcan0 1D0#0000000000000061
(1675525875.169561) vcan0 1B0#00C0000002B000FC
(1675525875.173389) vcan0 1B5#FFE00DC005E0FFEF
(1675525875.174476) vcan0 010#008000002FB031F8
(1675525875.175562) vcan0 1D8#363339343234E143
(1675525875.175641) vcan0 1E0#0028534300B917E0
(1675525875.176658) vcan0 008#2B80D43D47800080
(1675525875.176736) vcan0 291#0000000000000000
(1675525875.176814) vcan0 2A9#8C260093C0000084
(1675525875.177684) vcan0 055#F9F71538B2949E80
(1675525875.178780) vcan0 065#7DE615F804EE6102
(1675525875.178858) vcan0 070#000005F861E20D00
(1675525875.178936) vcan0 075#0000000000005458
(1675525875.179807) vcan0 080#38508000C2002C00
(1675525875.179885) vcan0 0B0#528319A3E4C152E3
(1675525875.179963) vcan0 0E0#627336E000802500
(1675525875.180041) vcan0 072#F000FF3F0078A038
(1675525875.182718) vcan0 145#F9F2D080FC4810A1
(1675525875.182797) vcan0 210#05E080A0C469C545
(1675525875.182875) vcan0 288#43E0708F00000080
(1675525875.183025) vcan0 28C#00000000002CFEA9
(1675525875.183102) vcan0 290#0000000000000000
(1675525875.183180) vcan0 2B5#4BE3166293A67D70
(1675525875.183258) vcan0 2C0#4F9E00000000A0F1
(1675525875.183336) vcan0 2C5#31DF8DBF7DE6D470
(1675525875.183414) vcan0 340#9F00000000000000
(1675525875.183572) vcan0 3AF#0000000000000020
(1675525875.183793) vcan0 260#D0FF00AA497487B0
(1675525875.184882) vcan0 125#E51980E4C1D0D735
(1675525875.184960) vcan0 010#008000002FB031F8
(1675525875.185038) vcan0 0F5#4BA953A97F637261
(1675525875.185909) vcan0 120#7BA977A97FFF5589
(1675525875.188797) vcan0 130#C7FF1D6B29DFFF11
(1675525875.188949) vcan0 150#53291788FEF7F7C0
(1675525875.189024) vcan0 008#2880E43740800080
(1675525875.189104) vcan0 1D0#0000000000000061
(1675525875.189903) vcan0 010#008000002FB031F8
(1675525875.190991) vcan0 072#F000FF3F00788038
(1675525875.192006) vcan0 1B0#00C0000000B000FC
(1675525875.193095) vcan0 1B5#FFFB28CD13E0FFEF
(1675525875.194179) vcan0 1D8#363339343234E143
(1675525875.195195) vcan0 008#2880F42740800080
(1675525875.196362) vcan0 1E0#002C434300B917E0
(1675525875.196441) vcan0 2C3#4F9E00FFFF885450
(1675525875.196518) vcan0 330#2800000000000000
(1675525875.197317) vcan0 055#F9F71538B2949E80
(1675525875.198839) vcan0 065#77E615F800EE6102
(1675525875.198990) vcan0 070#000005F861E20D00
(1675525875.199068) vcan0 075#0000000000005458
(1675525875.199869) vcan0 080#38508000C2002C00
(1675525875.199946) vcan0 0B0#528319A3E4C152E3
(1675525875.200098) vcan0 0E0#627338E800800300
(1675525875.200206) vcan0 145#F9E2D180FC4810A1
(1675525875.200286) vcan0 350#A200000000000080
(1675525875.201014) vcan0 370#0726C0008D03CF1F
(1675525875.205202) vcan0 288#4FE0708F00000080
(1675525875.205280) vcan0 125#E51C80E4C1D0D735
(1675525875.205359) vcan0 010#008000002FB031F8
(1675525875.205452) vcan0 0F5#5BA94FA97F676265
(1675525875.205602) vcan0 120#90A96BA97FFF5589
(1675525875.206259) vcan0 130#CFFF1D6B29CFFF11
(1675525875.206336) vcan0 150#57291A98FFF7E3C0
(1675525875.206486) vcan0 008#2880042532800080
(1675525875.206563) vcan0 1D0#0000000000000861
(1675525875.206641) vcan0 210#05E080A0C469C54D
(1675525875.207367) vcan0 291#0000000000000000
(1675525875.208384) vcan0 290#0000000000000000
(1675525875.209470) vcan0 072#F000FF3F0078A038
(1675525875.210563) vcan0 260#D0FF00AA497487B0
(1675525875.211651) vcan0 010#008000002FB031F8
(1675525875.212736) vcan0 1B0#00C0000002B000FC
(1675525875.213824) vcan0 1B5#FF1643DB20E0FFEF
(1675525875.214839) vcan0 1D8#363339343234E143
(1675525875.215926) vcan0 1E0#002C430300B917E0
(1675525875.216015) vcan0 2A9#8C26008AC0000084
(1675525875.217175) vcan0 008#2880142423800080
(1675525875.220283) vcan0 055#F9F71538B2949E80
(1675525875.220362) vcan0 065#77E615F8FEED6102
(1675525875.220439) vcan0 070#000005F861E20D00
(1675525875.220590) vcan0 075#0000000000005458
(1675525875.220667) vcan0 080#38508000C2002C00
(1675525875.220745) vcan0 0B0#528319A3E4C152E3
(1675525875.220822) vcan0 0E0#627338F00080E300
(1675525875.220901) vcan0 145#F9D2D280FC4810A1
(1675525875.221051) vcan0 28C#00000000002CFEA9
(1675525875.221135) vcan0 2B5#4BE3166293A67D70
(1675525875.221279) vcan0 125#E51C80E4C1D0D735
(1675525875.222365) vcan0 010#008000002FB031F9
(1675525875.223382) vcan0 072#F000FF3F00788038
(1675525875.224469) vcan0 0F5#4FA957A97F6B5268
(1675525875.225505) vcan0 120#A0A977A97FFF5589
(1675525875.226954) vcan0 130#D7FF1D6B29BFFF11
(1675525875.227032) vcan0 008#2880241423800080
(1675525875.227110) vcan0 150#4B2916A8FFF7DFC0
(1675525875.227188) vcan0 1D0#0000000000000261
(1675525875.227265) vcan0 3CA#00000000540000C8
(1675525875.227993) vcan0 288#3FE0807F00000080
(1675525875.229081) vcan0 210#05E080A0C469C54D
(1675525875.234390) vcan0 3C8#4F9E008E882C008E
(1675525875.234467) vcan0 010#008000002FB031F8
(1675525875.235413) vcan0 1B0#00C0000002B000FC
(1675525875.235490) vcan0 1B5#FF305DE82DE0FFEF
(1675525875.235640) vcan0 1D8#363339343234E143
(1675525875.235719) vcan0 1E0#0030334300B917E0
(1675525875.236518) vcan0 291#0000000000000000
(1675525875.236597) vcan0 008#2880340423800080
(1675525875.236683) vcan0 2C3#4F9E00FFFF885450
(1675525875.237556) vcan0 055#F9F71438B2949E80
(1675525875.238643) vcan0 065#7BE615F800EE6102
(1675525875.238720) vcan0 070#000005F860E20D00
(1675525875.238799) vcan0 075#0000000000005458
(1675525875.239742) vcan0 080#38508000C2002C00
(1675525875.239820) vcan0 0B0#528319A3E4C152E3
(1675525875.239971) vcan0 0E0#627338F80080C300
(1675525875.240048) vcan0 072#F000FF3F0078A038
(1675525875.240778) vcan0 145#F9C2D380FC4810A1
(1675525875.240928) vcan0 290#0000000000000000
(1675525875.241007) vcan0 2C0#4F9E00000000A0F1
(1675525875.243679) vcan0 2C5#31DF8DBF77E6D470
(1675525875.243829) vcan0 360#5F9E0074BB51A001
(1675525875.243907) vcan0 260#D0FF00AA497487B0
(1675525875.244776) vcan0 125#E51C80E4C1D0D735
(1675525875.244865) vcan0 010#008000002FB031F8
(1675525875.244942) vcan0 0F5#57A95BA97F6F426B
(1675525875.245812) vcan0 120#77A96FA97F045689
(1675525875.245964) vcan0 130#DFFF1D6B29AFFF11
(1675525875.246041) vcan0 150#4F2916B8FFF7CBC0
(1675525875.246118) vcan0 008#288044F423800080
(1675525875.246918) vcan0 1D0#0000000000000061
(1675525875.246995) vcan0 390#80FF0500023A514F
(1675525875.247938) vcan0 288#43E0807F00000080
(1675525875.249025) vcan0 010#008000002FB031F8
(1675525875.250112) vcan0 072#F000FF3F00788038
(1675525875.252646) vcan0 1B0#00C0000001B000FC
(1675525875.253732) vcan0 1B5#FF4B78F53BE0FFEF
(1675525875.254821) vcan0 1D8#363339343234E143
(1675525875.255837) vcan0 1E0#0034234300B917E0
(1675525875.255915) vcan0 008#268054ED1C800080
(1675525875.256939) vcan0 210#05E08020C469C545
(1675525875.257019) vcan0 2A9#8C260093C0000084
(1675525875.261208) vcan0 055#F9F71438B2949E80
(1675525875.261284) vcan0 065#78E615F802EE6002
(1675525875.261433) vcan0 070#000005F860E20D00
(1675525875.261513) vcan0 075#0000000000005458
(1675525875.261590) vcan0 080#38508000C2002C00
(1675525875.261668) vcan0 0B0#528319A3E4C152E3
(1675525875.261746) vcan0 0E0#627339C00080A200
(1675525875.261895) vcan0 145#F9B2D480FC4810A1
(1675525875.261973) vcan0 28C#00000000002CFEA9
(1675525875.262050) vcan0 2B5#4BE4176293A67D70
(1675525875.262127) vcan0 340#9F00000000000000
(1675525875.262278) vcan0 125#E51C80E4C1D0D735
(1675525875.263367) vcan0 0F5#67A95BA97F73326F
(1675525875.264455) vcan0 120#84A980A97FFD5589
(1675525875.265479) vcan0 130#E7FF1D6B299FFF11
(1675525875.265557) vcan0 150#532917C800F8B7C0
(1675525875.265635) vcan0 581#FFFFFFFFFFFF0081
(1675525875.266578) vcan0 008#268064DD1C800080
(1675525875.266655) vcan0 010#008000002FB031F8
(1675525875.266732) vcan0 1D0#0000000000000061
(1675525875.269478) vcan0 291#0000000000000000
(1675525875.269557) vcan0 400#0101010101590108
(1675525875.269634) vcan0 405#0000000000000000
(1675525875.269712) vcan0 290#0000000000000000
(1675525875.270510) vcan0 072#F000FF3F0078A038
(1675525875.271600) vcan0 3B0#00FC643C6AB8C400
(1675525875.272614) vcan0 260#D0FF00AA497487B0
(1675525875.273702) vcan0 1B0#00C0000003B000FC
(1675525875.274790) vcan0 1B5#FF66930348E0FFEF
(1675525875.275805) vcan0 1D8#363339343234E143
(1675525875.275905) vcan0 1E0#0034230300B917E0
(1675525875.275983) vcan0 2C3#4F9E00FFFF895450
(1675525875.278728) vcan0 008#268074CD1C800080
(1675525875.278805) vcan0 010#008000002FB031F8
(1675525875.278884) vcan0 330#2800000000000000
(1675525875.278960) vcan0 055#F9F71538B2949E80
(1675525875.279038) vcan0 065#77E614F8FFED6002
(1675525875.279116) vcan0 070#000005F860E20D00
(1675525875.279195) vcan0 075#0000000000005458
(1675525875.279848) vcan0 080#38508000C2002C00
(1675525875.279927) vcan0 0B0#528319A3E4C152E3
(1675525875.280003) vcan0 0E0#627339C800808200
(1675525875.280082) vcan0 145#F9A2D580FC4810A1
(1675525875.280160) vcan0 288#47E0807F00000080
(1675525875.280859) vcan0 210#05E080A0C469C545
(1675525875.281947) vcan0 125#E51C80E4C1D0D735
(1675525875.284846) vcan0 0F5#53A957A97F772272
(1675525875.284926) vcan0 120#98A98CA97F035689
(1675525875.285941) vcan0 130#EFFF1D6B298FFF11
(1675525875.286018) vcan0 150#532913D801F8A7C0
(1675525875.286096) vcan0 010#008000002FB031F8
(1675525875.286173) vcan0 008#268084CB0E800080
(1675525875.286251) vcan0 072#F000FF3F00788038
(1675525875.286978) vcan0 1D0#0000000000000861
(1675525875.288066) vcan0 350#A200000000000080
(1675525875.289081) vcan0 010#008000002FB031F8
(1675525875.290169) vcan0 1B0#00C0000003B000FC
(1675525875.291204) vcan0 1B5#FF81AE1055E0FFEF
(1675525875.292295) vcan0 1D8#363339343234E143
(1675525875.293309) vcan0 1E0#0038134300B917E0
(1675525875.295767) vcan0 291#0000000000000000
(1675525875.295843) vcan0 008#268094BB0E800080
(1675525875.296804) vcan0 2A9#8C26008AC0000084
(1675525875.299691) vcan0 055#F9F71538B2949E80
(1675525875.299768) vcan0 065#79E615F8FFED6002
(1675525875.299845) vcan0 070#000005F860E20D00
(1675525875.299996) vcan0 075#0000000000005458
(1675525875.300075) vcan0 080#38508000C2002C00
(1675525875.300152) vcan0 0B0#528319A3E4C152E3
(1675525875.300304) vcan0 072#F000FF3F0078A038
(1675525875.300382) vcan0 0E0#62733AD000806100
(1675525875.300822) vcan0 145#F992D680FC4810A1
(1675525875.300899) vcan0 28C#00000000002CFEA9
(1675525875.300977) vcan0 290#0000000000000000
(1675525875.301055) vcan0 2B5#4BE4176293A67C70
(1675525875.301205) vcan0 2C0#4F9E00000000A0F1
(1675525875.301861) vcan0 2C5#30DF8DBF78E6D470
(1675525875.301938) vcan0 370#0726C0008D03CF1F
(1675525875.304693) vcan0 3AF#0000000000000020
(1675525875.304770) vcan0 3E0#000000D933808092
(1675525875.304849) vcan0 288#4FE0807F00000080
(1675525875.304998) vcan0 260#D0FF0055497487B0
(1675525875.305075) vcan0 125#E51F80E4C1D0D735
(1675525875.305154) vcan0 0F5#57A957A97F7B1275
(1675525875.305737) vcan0 010#008000002FB031F9
(1675525875.305885) vcan0 120#7BA97BA97FFF5589
(1675525875.305965) vcan0 130#F7FF1D6B297FFF11
(1675525875.306043) vcan0 150#57291BE801F893C0
(1675525875.306119) vcan0 008#2680A4AB0E800080
(1675525875.306848) vcan0 1D0#0000000000000261
(1675525875.306924) vcan0 210#05E080A0C469C54D
(1675525875.307866) vcan0 010#008000002FB031F8
(1675525875.308954) vcan0 072#F000FF3F00788038
(1675525875.312856) vcan0 1B0#00C0000002B000FC
(1675525875.313953) vcan0 1B5#FF9CC91E63E0FFEF
(1675525875.314969) vcan0 1D8#363339343234E143
(1675525875.316055) vcan0 1E0#003C034300B917E0
(1675525875.316209) vcan0 2C3#4F9E00FFFF8A5450
(1675525875.316287) vcan0 008#2680B49B0E800080
(1675525875.317085) vcan0 055#F9F71438B2949E80
(1675525875.318170) vcan0 065#7FE615F804EE6102
(1675525875.319187) vcan0 070#000005F860E20D00
(1675525875.319265) vcan0 075#0000000000005458
(1675525875.319416) vcan0 080#37508000C2002C00
(1675525875.320504) vcan0 0B0#528319A3E4C152E3
(1675525875.320654) vcan0 0E0#62733AD800804100
(1675525875.320732) vcan0 145#F982D780FC4810A1
(1675525875.321604) vcan0 125#E51F80E4C1D0D735
(1675525875.325428) vcan0 010#008000002FB031F8
(1675525875.325579) vcan0 0F5#5BA957A97F7F0279
(1675525875.325667) vcan0 120#77A96FA97FFF5589
(1675525875.325745) vcan0 130#FFFF1D6B296FFF11
(1675525875.325823) vcan0 150#5B291BF802F87FC0
(1675525875.326551) vcan0 008#2480C48D0E800080
(1675525875.326628) vcan0 1D0#0000000000000061
(1675525875.326706) vcan0 291#0000000000000000
(1675525875.327578) vcan0 290#0000000000000000
(1675525875.328663) vcan0 288#47E0906F00000080
(1675525875.329680) vcan0 072#F000FF3F0078A038
(1675525875.329829) vcan0 210#05E080A0C469C545
(1675525875.330774) vcan0 260#D0FF0055497487B0
(1675525875.331789) vcan0 010#008000002FB031F8
(1675525875.332875) vcan0 1B0#00C0000002B000FC
(1675525875.335261) vcan0 1B5#FFB7E32B70E0FFEF
(1675525875.335339) vcan0 1D8#363339343234E143
(1675525875.336352) vcan0 1E0#003C030300B917E0
(1675525875.336441) vcan0 2A9#8C260082C0000084
(1675525875.336520) vcan0 008#2480D47D0E800080
(1675525875.339192) vcan0 055#F9F71438B2949E80
(1675525875.339270) vcan0 065#7AE614F801EE6002
(1675525875.339347) vcan0 070#000005F860E20D00
(1675525875.339424) vcan0 075#0000000000005458
(1675525875.339577) vcan0 080#37508000C2002C00
(1675525875.339654) vcan0 0B0#528319A3E4C152E3
(1675525875.340238) vcan0 0E0#627336E000802500
(1675525875.340389) vcan0 145#F972D880FC4810A1
(1675525875.340466) vcan0 28C#00000000002CFEA9
(1675525875.340545) vcan0 2B5#4BE4176293A67C6F
(1675525875.340622) vcan0 340#9F00000000000000
(1675525875.341349) vcan0 360#5F9E0074BB51A001
(1675525875.342435) vcan0 125#E51F80E4C1D0D735
(1675525875.343451) vcan0 0F5#57A95BA97F43F27C
(1675525875.344546) vcan0 010#008000002FB031F8
(1675525875.345922) vcan0 072#F000FF3F00788038
(1675525875.345999) vcan0 120#88A984A97F065689
(1675525875.346078) vcan0 130#87FF1D6B295FFF11
(1675525875.346229) vcan0 008#2480E46D0E800080
(1675525875.346306) vcan0 150#5B29180803F86FC0
(1675525875.347032) vcan0 1D0#0000000000000061
(1675525875.347110) vcan0 390#80FF05000236526F
(1675525875.347187) vcan0 3CA#00000000550000C8
(1675525875.350870) vcan0 288#47E0906F00000080
(1675525875.351958) vcan0 3C8#4F9E008E882C008E
(1675525875.352973) vcan0 010#008000002FB031F8
(1675525875.354058) vcan0 1B0#00C0000001B000FC
(1675525875.355072) vcan0 1B5#FFD2FE387EE0FFEF
(1675525875.355150) vcan0 1D8#363339343234E143
(1675525875.356167) vcan0 1E0#0000F34300B917E0
(1675525875.356254) vcan0 210#07E080A0C469C54D
(1675525875.356330) vcan0 008#2480F46B00800080
(1675525875.356408) vcan0 291#0000000000000000
(1675525875.357208) vcan0 2C3#4F9E00FFFF8A5450
(1675525875.357285) vcan0 330#2800000000000000
(1675525875.357364) vcan0 3D0#9A0F6100641B80C3
(1675525875.358307) vcan0 055#F9F71438B2949E80
(1675525875.358384) vcan0 065#78E614F8FEED6002
(1675525875.362434) vcan0 070#000005F85FE20D00
(1675525875.362584) vcan0 075#0000000000005458
(1675525875.362661) vcan0 080#37508000C2002C00
(1675525875.362740) vcan0 0B0#528319A3E4C152E3
(1675525875.362818) vcan0 0E0#627333E800800800
(1675525875.362895) vcan0 072#F000FF3F0078A038
(1675525875.363045) vcan0 145#F962D980FC4810A1
(1675525875.363124) vcan0 290#0000000000000000
(1675525875.363209) vcan0 2C0#4F9E00000000A0F1
(1675525875.363286) vcan0 2C5#30DF8DBF7BE6D470
(1675525875.363582) vcan0 260#D0FF0055497487B0
(1675525875.364597) vcan0 125#E51F80E4C1D0D735
(1675525875.364675) vcan0 0F5#57A953A97F47E27F
(1675525875.365692) vcan0 010#008000002FB031F8
(1675525875.365770) vcan0 120#98A97BA97FFD5589
(1675525875.365848) vcan0 130#8FFF1D6B294FFF11
(1675525875.365926) vcan0 150#5929181803F861C0
(1675525875.366003) vcan0 1D0#0000000000000861
(1675525875.366731) vcan0 008#2480045B00800080
(1675525875.369117) vcan0 1B0#00C0000001B000FC
(1675525875.370131) vcan0 1B5#FFED19468BE0FFEF
(1675525875.374103) vcan0 1D8#363339343234E143
(1675525875.375262) vcan0 1E0#0004E34300B917E0
(1675525875.376277) vcan0 010#008000002FB031F8
(1675525875.376363) vcan0 008#2480144B00800080
(1675525875.376441) vcan0 072#F000FF3F00788038
(1675525875.376519) vcan0 2A9#8C26009BC0000084
(1675525875.377319) vcan0 055#F9F71438B2949E80
(1675525875.378333) vcan0 065#7BE614F800EE5F02
(1675525875.378484) vcan0 070#000005F85EE20D00
(1675525875.379498) vcan0 075#0000000000005458
(1675525875.379577) vcan0 080#37508000C2002C00
(1675525875.379654) vcan0 0B0#528319A3E4C152E3
(1675525875.379732) vcan0 0E0#627333F00080E800
(1675525875.380540) vcan0 145#F952DA80FC4810A1
(1675525875.380615) vcan0 288#37E0906F00000080
(1675525875.383364) vcan0 210#07E080A0C469C545
(1675525875.383439) vcan0 28C#00000000002CFEA9
(1675525875.383512) vcan0 2B5#4BE4176293A67C6E
(1675525875.383588) vcan0 350#A200000000000080
(1675525875.384427) vcan0 125#E51F80E4C1D0D735
(1675525875.385462) vcan0 0F5#53A95BA97F4BD283
(1675525875.385536) vcan0 010#008000002FB031F9
(1675525875.385679) vcan0 120#73A984A97F035689
(1675525875.385752) vcan0 130#97FF1D6B293FFF11
(1675525875.385826) vcan0 150#5329122804F857C0
(1675525875.386519) vcan0 008#2480243B00800080
(1675525875.386661) vcan0 1D0#0000000000000261
(1675525875.386735) vcan0 291#0000000000000000
(1675525875.387633) vcan0 290#0000000000000000
(1675525875.388669) vcan0 072#F000FF3F0078A038
(1675525875.391432) vcan0 3B0#00D864386AB8C400
(1675525875.392522) vcan0 260#D0FF00AA497487B0
(1675525875.393538) vcan0 010#008000002FB031F8
(1675525875.394625) vcan0 1B0#00C0000002B000FC
(1675525875.395715) vcan0 1B5#FF07345398E0FFEF
(1675525875.395804) vcan0 1D8#363339343234E143
(1675525875.395881) vcan0 1E0#0004E30300B917E0
(1675525875.396029) vcan0 2C3#4F9E00FFFF8B5450
(1675525875.396109) vcan0 008#2480342B00800080
(1675525875.396765) vcan0 055#F9F71438B2949E80
(1675525875.397853) vcan0 065#7AE614F802EE5E02
(1675525875.398868) vcan0 070#000005F85DE20D00
(1675525875.398946) vcan0 075#0000000000005458
(1675525875.399025) vcan0 080#36508000C2002C00
(1675525875.400259) vcan0 0B0#528319A3E4C152E3
(1675525875.400339) vcan0 0E0#627330F80080CB00
(1675525875.400488) vcan0 145#F942DB80FC4810A1
(1675525875.400567) vcan0 370#0726C0008D03CF1F
(1675525875.401221) vcan0 288#3BE0906F00000080
(1675525875.405122) vcan0 125#E51F80E4C1D0D735
(1675525875.405200) vcan0 010#008000002FB031F8
(1675525875.405287) vcan0 072#F000FF3F00788038
(1675525875.405366) vcan0 0F5#5BA95BA97F4FC286
(1675525875.406165) vcan0 120#90A977A97FFF5589
(1675525875.406315) vcan0 130#9FFF1D6B292FFF11
(1675525875.406393) vcan0 008#2480441B00800080
(1675525875.406470) vcan0 150#5729173805F843C0
(1675525875.406549) vcan0 1D0#0000000000000061
(1675525875.407276) vcan0 210#07E08020C469C54D
(1675525875.408291) vcan0 010#008000002FB031F8
(1675525875.409379) vcan0 1B0#00C0000003B000FC
(1675525875.410548) vcan0 1B5#FF224F60A6E0FFEF
(1675525875.411562) vcan0 1D8#363339343234E143
(1675525875.413950) vcan0 1E0#0008D34300B917E0
(1675525875.415036) vcan0 291#0000000000000000
(1675525875.416196) vcan0 008#2480540B00800080
(1675525875.416274) vcan0 2A9#8C260082C0000084
(1675525875.418969) vcan0 055#F9F71438B2949E80
(1675525875.419049) vcan0 065#76E614F8FEED5D02
(1675525875.419125) vcan0 070#000005F85DE20D00
(1675525875.419204) vcan0 075#0000000000005458
(1675525875.419280) vcan0 080#36508000C2002C00
(1675525875.420080) vcan0 072#F000FF3F0078A038
(1675525875.420157) vcan0 0B0#528319A3E4C152E3
(1675525875.420239) vcan0 0E0#62732EC00080AD00
(1675525875.420387) vcan0 145#F932DC80FC4810A1
(1675525875.421115) vcan0 28C#00000000002CFEA9
(1675525875.421193) vcan0 290#0000000000000000
(1675525875.421270) vcan0 2B5#4BE5176293A67C6D
(1675525875.421349) vcan0 2C0#4F9E00000000A0F1
(1675525875.421497) vcan0 2C5#30DF8DBF77E6D470
(1675525875.422150) vcan0 340#9F00000000000000
(1675525875.424897) vcan0 3AF#0000000000000020
(1675525875.424983) vcan0 260#D0FF00AA497487B0
(1675525875.425136) vcan0 125#E51F80E4C1D0D735
(1675525875.425212) vcan0 010#008000002FB031F8
(1675525875.425289) vcan0 0F5#53A957A97F53B289
(1675525875.425367) vcan0 120#9CA988A97FFF5589
(1675525875.426021) vcan0 130#A7FF1D6B291FFF11
(1675525875.426099) vcan0 150#4F29124805F83BC0
(1675525875.426177) vcan0 008#248064FB00800080
(1675525875.426327) vcan0 1D0#0000000000000061
(1675525875.427126) vcan0 288#47E0A05F00000080
(1675525875.428143) vcan0 210#07E080A0C469C54D
(1675525875.429229) vcan0 010#008000002FB031F8
(1675525875.430274) vcan0 072#F000FF3F00788038
(1675525875.431360) vcan0 1B0#00C0000001B000FC
(1675525875.435259) vcan0 1B5#FF3D6A6EB3E0FFEF
(1675525875.436349) vcan0 1D8#363339343234E143
(1675525875.436435) vcan0 1E0#000CC34300B917E0
(1675525875.436513) vcan0 008#248074EB00800080
(1675525875.436590) vcan0 2C3#4F9E00FFFF8C5450
(1675525875.436668) vcan0 330#2800000000000000
(1675525875.437397) vcan0 055#F9F71438B2949E80
(1675525875.438485) vcan0 065#75E614F8FEED5D02
(1675525875.438563) vcan0 070#000005F85DE20D00
(1675525875.439507) vcan0 075#0000000000005458
(1675525875.439585) vcan0 080#36508000C2002C00
(1675525875.442292) vcan0 0B0#528319A3E4C152E3
(1675525875.442371) vcan0 0E0#62732DC800808E00
(1675525875.442449) vcan0 145#F922DD80FC4810A1
(1675525875.442598) vcan0 360#5F9E0074BB51A001
(1675525875.443471) vcan0 125#E51F80E4C1D0D735
(1675525875.444486) vcan0 010#008000002FB031F8
(1675525875.445574) vcan0 0F5#4BA94FA97F57A28D
(1675525875.445662) vcan0 120#6FA97BA97FFE5589
(1675525875.445740) vcan0 130#AFFF1D6B290FFF11
(1675525875.445817) vcan0 150#4D29185805F82DC0
(1675525875.446617) vcan0 008#248084DB00800080
(1675525875.446696) vcan0 1D0#0000000000000061
(1675525875.446771) vcan0 291#0000000000000000
(1675525875.446924) vcan0 390#80FF05000232534F
(1675525875.447720) vcan0 290#0000000000000000
(1675525875.450264) vcan0 072#F000FF3F0078A038
(1675525875.451353) vcan0 288#43E0A05F00000080
(1675525875.452442) vcan0 260#D0FF00AA497487B0
(1675525875.453527) vcan0 010#008000002FB031F8
(1675525875.454543) vcan0 210#07E080A0C469C545
(1675525875.455631) vcan0 1B0#00C0000001B000FC
(1675525875.455708) vcan0 1B5#FF58847BC0E0FFEF
(1675525875.458452) vcan0 1D8#363339343234E143
(1675525875.458538) vcan0 1E0#000CC30300B917E0
(1675525875.458616) vcan0 008#248094CB00800080
(1675525875.458694) vcan0 2A9#8C26009BC0000084
(1675525875.458772) vcan0 055#F9F71438B2949E80
(1675525875.458851) vcan0 065#7BE614F801EE5D02
(1675525875.458928) vcan0 070#000005F85DE20D00
(1675525875.459585) vcan0 075#0000000000005458
(1675525875.459662) vcan0 080#36508000C2002C00
(1675525875.459740) vcan0 0B0#528319A3E4C152E3
(1675525875.459817) vcan0 0E0#62732ED000806D00
(1675525875.459896) vcan0 145#F912DE80FC4810A1
(1675525875.460611) vcan0 28C#00000000002CFEA9
(1675525875.460683) vcan0 2B5#4BE5176293A67B6D
(1675525875.461717) vcan0 125#E51F80E4C1D0D735
(1675525875.465972) vcan0 010#008000002FB031F9
(1675525875.466114) vcan0 072#F000FF3F00788038
(1675525875.466198) vcan0 0F5#5EA94BA97F5B9290
(1675525875.466271) vcan0 120#93A977A97FFD5589
(1675525875.466346) vcan0 130#B7FF1D6B29FFFF11
(1675525875.466420) vcan0 008#2480A4BB00800080
(1675525875.466563) vcan0 150#4F29176806F81BC0
(1675525875.467049) vcan0 1D0#0000000000000A61
(1675525875.467125) vcan0 3CA#00000000560000C8
(1675525875.468158) vcan0 350#A200000000000080
(1675525875.469194) vcan0 3C8#4F9E008E882C008E
(1675525875.470310) vcan0 1B0#00C0000003B000FC
(1675525875.471330) vcan0 1B5#FF739F88CEE0FFEF
(1675525875.472345) vcan0 1D8#363339343234E143
(1675525875.473433) vcan0 1E0#0010B34300B917E0
(1675525875.474449) vcan0 010#008000002FB031F8
(1675525875.475540) vcan0 008#2480B4AB00800080
(1675525875.476626) vcan0 291#0000000000000000
(1675525875.476714) vcan0 2C3#4F9E00FFFF8C5450
(1675525875.477946) vcan0 055#F9F71438B2949E80
(1675525875.479034) vcan0 065#79E614F803EE5D02
(1675525875.479111) vcan0 070#000005F85EE20D00
(1675525875.481861) vcan0 075#0000000000005458
(1675525875.481938) vcan0 080#36508000C2002C00
(1675525875.482016) vcan0 0B0#528319A3E4C152E3
(1675525875.482166) vcan0 0E0#62732ED800804D00
(1675525875.482243) vcan0 145#F902DF80FC4810A1
(1675525875.482322) vcan0 072#F000FF3F0078A038
(1675525875.482398) vcan0 210#07E080A0C469C545
(1675525875.482476) vcan0 288#43E0A05F00000080
(1675525875.482626) vcan0 290#0000000000000000
(1675525875.482704) vcan0 2C0#4F9E00010000A0F1
(1675525875.482782) vcan0 2C5#30DF8DBF7BE6D470
(1675525875.482860) vcan0 260#D0FF0055497487B0
(1675525875.483959) vcan0 125#E51F80E4C1D0D735
(1675525875.484975) vcan0 0F5#4BA953A97F5F8293
(1675525875.485053) vcan0 010#008000002FB031F8
(1675525875.487797) vcan0 120#93A98CA97FFD5589
(1675525875.487876) vcan0 130#BFFF1D6B29EFFF11
(1675525875.487956) vcan0 150#4D291B7806F80DC0
(1675525875.488033) vcan0 008#2480C49B00800080
(1675525875.488183) vcan0 1D0#0000000000000061
(1675525875.488837) vcan0 010#008000002FB031F8
(1675525875.489923) vcan0 072#F000FF3F00788038
(1675525875.491012) vcan0 1B0#00C0000003B000FC
(1675525875.492027) vcan0 1B5#FF8EBA96DBE0FFEF
(1675525875.493043) vcan0 1D8#363339343234E143
(1675525875.494131) vcan0 1E0#0014A34300B917E0
(1675525875.495147) vcan0 008#2480D48B00800080
(1675525875.498033) vcan0 2A9#8C260082C0000084
(1675525875.498118) vcan0 055#F9F71438B2949E80
(1675525875.498195) vcan0 065#77E614F8FFED5E02
(1675525875.499142) vcan0 070#000005F85EE20D00
(1675525875.499220) vcan0 075#0000000000005458
(1675525875.499297) vcan0 080#36508000C2002C00
(1675525875.499375) vcan0 0B0#528319A3E4C152E3
(1675525875.500197) vcan0 0E0#627331E000802A00
(1675525875.500276) vcan0 145#F9F2D080FC4810A1
(1675525875.500354) vcan0 28C#00000000002CFEA9
(1675525875.500432) vcan0 2B5#4BE5176293A67A6D
(1675525875.500582) vcan0 340#9F00000000000000
(1675525875.501237) vcan0 370#0726C0008D03CF1F
(1675525875.502325) vcan0 288#54E0A05F00000080
(1675525875.503339) vcan0 125#E51F80E4C1D0D735
(1675525875.506153) vcan0 0F5#4FA94BA97F637297
(1675525875.506302) vcan0 010#008000002FB031F8
(1675525875.506390) vcan0 120#80A973A97FFC5589
(1675525875.506467) vcan0 130#C7FF1D6B29DFFF11
(1675525875.506545) vcan0 150#5129188806F8F9C0
(1675525875.506622) vcan0 1D0#0000000000000061
(1675525875.506700) vcan0 008#2480E47B00800080
(1675525875.506850) vcan0 210#07E080A0C469C54D
(1675525875.507288) vcan0 291#0000000000000000
(1675525875.508303) vcan0 290#0000000000000000
(1675525875.509389) vcan0 072#F000FF3F0078A038
(1675525875.509466) vcan0 3B0#00D864386AB8C402
(1675525875.510415) vcan0 260#D0FF0055497487B0
(1675525875.511430) vcan0 010#008000002FB031F8
(1675525875.512515) vcan0 1B0#00C0000002B000FC
(1675525875.514970) vcan0 1B5#FFA9D5A3E9E0FFEF
(1675525875.515047) vcan0 1D8#363339343234E143
(1675525875.516063) vcan0 1E0#0014A30300B917E0
(1675525875.516149) vcan0 2C3#4F9E00FFFF8D5450
(1675525875.516227) vcan0 008#2480F46B00800080
(1675525875.516376) vcan0 330#2800000000000000
(1675525875.517103) vcan0 400#2401100101010309
(1675525875.517181) vcan0 405#2AF85909591B6701
(1675525875.518123) vcan0 055#F9F71438B2949E80
(1675525875.518201) vcan0 065#79E614F8FFED5E02
(1675525875.520951) vcan0 070#000005F85EE20D00
(1675525875.521029) vcan0 075#0000000000005458
(1675525875.521178) vcan0 080#36508000C2002C00
(1675525875.521256) vcan0 0B0#528319A3E4C152E3
(1675525875.521335) vcan0 0E0#627332E800800900
(1675525875.521412) vcan0 145#F9E2D180FC4810A1
(1675525875.522068) vcan0 125#E51F80E4C1D0D735
(1675525875.523084) vcan0 010#008000002FB031F8
(1675525875.524100) vcan0 072#F000FF3F00788038
(1675525875.525135) vcan0 0F5#53A947A97F67629A
(1675525875.525203) vcan0 120#90A977A97FFD5589
(1675525875.526216) vcan0 130#CFFF1D6B29CFFF11
(1675525875.526294) vcan0 008#2480045B00800080
(1675525875.526371) vcan0 150#4D291D9806F8EDC0
(1675525875.526449) vcan0 1D0#0000000000000861
(1675525875.528904) vcan0 288#54E0B04F00000080
(1675525875.529992) vcan0 210#07E080A0C469C545
(1675525875.531009) vcan0 010#008000002FB031F8
(1675525875.532096) vcan0 1B0#00C0000002B000FC
(1675525875.533110) vcan0 1B5#FFC4F0B1F6E0FFEF
(1675525875.534196) vcan0 1D8#363339343234E143
(1675525875.535211) vcan0 1E0#0018934300B917E0
(1675525875.538100) vcan0 291#0000000000000000
(1675525875.538177) vcan0 008#2480144B00800080
(1675525875.538254) vcan0 2A9#8C26008AC0000084
(1675525875.538352) vcan0 055#F9F71438B2949E80
(1675525875.539078) vcan0 065#7CE614F802EE5E02
(1675525875.539228) vcan0 070#000005F85EE20D00
(1675525875.539307) vcan0 075#0000000000005458
