(1675526020.949477) vcan0 008#8F8098BBA5800080
(1675526020.953477) vcan0 288#4FE040BF00000080
(1675526020.956434) vcan0 055#E8F7B228B26F9D80
(1675526020.956515) vcan0 010#008800002FB031F8
(1675526020.956615) vcan0 065#C2E5BDF8098EC402
(1675526020.956692) vcan0 070#00001FF8B9E23700
(1675526020.956769) vcan0 072#F000FF3F00848038
(1675526020.956844) vcan0 075#0000000000005458
(1675526020.956922) vcan0 080#CF518000C2002C00
(1675526020.957000) vcan0 0B0#6B8312A3E7C16BA3
(1675526020.957150) vcan0 145#FD72D880FC4810A1
(1675526020.957227) vcan0 210#91DE8020A869C645
(1675526020.957303) vcan0 0E0#62732FF80080CC00
(1675526020.957380) vcan0 260#D0FF0055497487B0
(1675526020.959385) vcan0 28C#000000000016FEA6
(1675526020.959468) vcan0 290#0000000000000000
(1675526020.959545) vcan0 2A9#8C260082C0000084
(1675526020.959695) vcan0 1B0#00C0000003B000FC
(1675526020.959772) vcan0 1B5#FF8473A2AEE0FFEF
(1675526020.959848) vcan0 1D8#363339343234DA43
(1675526020.959934) vcan0 1E0#0014A34300B917E0
(1675526020.960014) vcan0 2B5#4BE0006293A6B1D2
(1675526020.960090) vcan0 2C0#4687000E0100A0F1
(1675526020.960167) vcan0 2C3#468700FFFFC05450
(1675526020.960244) vcan0 2C5#3AEF7576C0E50070
(1675526020.960394) vcan0 008#8D80A8B49E800080
(1675526020.960471) vcan0 3AF#0000000000000020
(1675526020.960980) vcan0 125#E5CF80E4C1D0D735
(1675526020.962494) vcan0 3C8#4687008E882C008E
(1675526020.963936) vcan0 010#008800002FB031F8
(1675526020.965465) vcan0 1D0#0000000000000061
(1675526020.965541) vcan0 291#0000000000000000
(1675526020.966987) vcan0 0F5#408931897F47E2AF
(1675526020.968494) vcan0 120#1E8905897FFA5589
(1675526020.968571) vcan0 130#8F421E2109B94512
(1675526020.968648) vcan0 150#390919182AF8A1C0
(1675526020.970023) vcan0 008#8A80B8B68F800080
(1675526020.970099) vcan0 072#F000FF3F0084A038
(1675526020.970175) vcan0 3B0#00D8193843C0C400
(1675526020.971468) vcan0 350#A200000000000080
(1675526020.972976) vcan0 055#E8F7B028B26F9D80
(1675526020.974488) vcan0 065#D3E5B9F80E8EC002
(1675526020.974568) vcan0 070#00001FF8B9E23600
(1675526020.974645) vcan0 075#0000000000005458
(1675526020.977451) vcan0 010#008800002FB031F9
(1675526020.977528) vcan0 080#CC518000C2002C00
(1675526020.977605) vcan0 0B0#6B8314A3E7C16BA3
(1675526020.977682) vcan0 145#FD62D980FC4810A1
(1675526020.977761) vcan0 330#C900000000000000
(1675526020.977910) vcan0 0E0#62732AC00080B100
(1675526020.977987) vcan0 1B0#00C0000004B000FC
(1675526020.978065) vcan0 1B5#FF8A79A5B1E0FFEF
(1675526020.978951) vcan0 1D8#363339343234DA43
(1675526020.979099) vcan0 1E0#0018934300B917E0
(1675526020.979176) vcan0 288#64E050AF00000080
(1675526020.979253) vcan0 210#91DE80A0A869C64D
(1675526020.979328) vcan0 008#8A80C89E97800080
(1675526020.980410) vcan0 125#E5CD80E4C1D0D735
(1675526020.983246) vcan0 290#0000000000000000
(1675526020.984718) vcan0 010#008800002FB031F8
(1675526020.984794) vcan0 072#F000FF3F00848038
(1675526020.984872) vcan0 1D0#0000000000000A61
(1675526020.985022) vcan0 260#D0FF0055497487B0
(1675526020.986170) vcan0 0F5#4E8945897F4BD2AF
(1675526020.987645) vcan0 120#3E892A897FFB5589
(1675526020.987795) vcan0 130#973F1E3E098C4A12
(1675526020.989163) vcan0 150#49091D2829F881C0
(1675526020.989311) vcan0 008#8880D8B473800080
(1675526020.993271) vcan0 055#E8F7AF28B26F9D80
(1675526020.994711) vcan0 065#DDE5B6F80E8EBD02
(1675526020.994789) vcan0 010#008800002FB031F8
(1675526020.994865) vcan0 070#00001FF8B8E23600
(1675526020.994945) vcan0 075#0000000000005458
(1675526020.995022) vcan0 080#C9518000C2002C00
(1675526020.996345) vcan0 0B0#6B8316A3E7C16BA3
(1675526020.996423) vcan0 145#FD52DA80FC4810A1
(1675526020.996500) vcan0 28C#000000000016FEA7
(1675526020.996651) vcan0 291#0000000000000000
(1675526020.996727) vcan0 0E0#627336C800808500
(1675526020.996804) vcan0 2A9#8C26009BC0000084
(1675526020.996878) vcan0 2B5#4BE0006293A6ADC8
(1675526020.999252) vcan0 340#7900000000000000
(1675526020.999330) vcan0 370#071FC000731BC71F
(1675526020.999406) vcan0 1B0#00C0000003B000FC
(1675526020.999508) vcan0 1B5#FF907FA8B4E0FFEF
(1675526020.999585) vcan0 1D8#363339343234DA43
(1675526020.999662) vcan0 1E0#0018930300B917E0
(1675526020.999739) vcan0 2C3#468700FFFFC15450
(1675526020.999884) vcan0 072#F000FF3F0084A038
(1675526020.999966) vcan0 008#8880E8A473800080
(1675526021.000696) vcan0 125#E5CA80E4C1D0D735
(1675526021.003490) vcan0 288#68E050AF00000080
(1675526021.004930) vcan0 010#008800002FB031F8
(1675526021.005007) vcan0 1D0#0000000000000061
(1675526021.005083) vcan0 210#91DE80A0A869C645
(1675526021.006386) vcan0 0F5#62895B897F4FC2B0
(1675526021.007896) vcan0 120#4F8945897F005689
(1675526021.008043) vcan0 130#9F421E4F096B5012
(1675526021.008203) vcan0 150#5E09233828F85CC0
(1675526021.009415) vcan0 008#8880F8A364800080
(1675526021.013507) vcan0 055#E8F7AE28B26F9D80
(1675526021.016521) vcan0 065#E3E5B3F8098EBB02
(1675526021.016537) vcan0 010#008800002FB031F8
(1675526021.016616) vcan0 070#00001FF8B8E23600
(1675526021.016693) vcan0 072#F000FF3F00848038
(1675526021.016770) vcan0 075#0000000000005458
(1675526021.016847) vcan0 080#C7518000C2002C00
(1675526021.016924) vcan0 0B0#6B8318A3E7C16BA3
(1675526021.017074) vcan0 145#FD42DB80FC4810A1
(1675526021.017150) vcan0 260#D0FF0055497487B0
(1675526021.017227) vcan0 0E0#627333D000806800
(1675526021.017304) vcan0 290#0000000000000000
(1675526021.017381) vcan0 2C0#468700080100A0F1
(1675526021.017962) vcan0 2C5#3DEF7677DCE50070
(1675526021.018039) vcan0 1B0#00C0000003B000FC
(1675526021.018189) vcan0 1B5#FF9685ABB7E0FFEF
(1675526021.018208) vcan0 1D8#363339343234DA43
(1675526021.018356) vcan0 1E0#001C834300B917E0
(1675526021.019448) vcan0 008#888008A84F800080
(1675526021.020963) vcan0 125#E5CA80E4C1D0D735
(1675526021.023687) vcan0 010#008800002FB031F8
(1675526021.025198) vcan0 1D0#0000000000000061
(1675526021.025277) vcan0 291#0000000000000000
(1675526021.026654) vcan0 0F5#6C8966897F53B2B1
(1675526021.028169) vcan0 120#61895B897FFF5589
(1675526021.028246) vcan0 130#A7421E6109494A12
(1675526021.028397) vcan0 150#69091F4828F841C0
(1675526021.028475) vcan0 3CA#00000000D40000C8
(1675526021.029702) vcan0 288#4BE050AF00000080
(1675526021.029781) vcan0 072#F000FF3F0084A038
(1675526021.029859) vcan0 008#888018984F800080
(1675526021.030007) vcan0 210#91DE80A0A869C64D
(1675526021.033679) vcan0 055#E8F7AD28B26F9D80
(1675526021.036705) vcan0 065#F0E5B1F8088EBA02
(1675526021.036781) vcan0 010#008800002FB031F8
(1675526021.036858) vcan0 070#00001EF8B7E23600
(1675526021.036935) vcan0 075#0000000000005458
(1675526021.037084) vcan0 080#C4518000C2002C00
(1675526021.037162) vcan0 0B0#6B8319A3E7C16BA3
(1675526021.037239) vcan0 145#FD32DC80FC4810A1
(1675526021.037315) vcan0 28C#000000000016FEA7
(1675526021.037394) vcan0 2A9#8C260082C0000084
(1675526021.037541) vcan0 0E0#627331D800804A00
(1675526021.037618) vcan0 2B5#4BE1006293A6AAC5
(1675526021.038201) vcan0 1B0#00C0000004B000FC
(1675526021.038279) vcan0 1B5#FF9C8BAEBAE0FFEF
(1675526021.038428) vcan0 1D8#363339343234DA43
(1675526021.038503) vcan0 1E0#0020734300B917E0
(1675526021.038589) vcan0 2C3#468700FFFFC15450
(1675526021.039740) vcan0 360#51870005C364A041
(1675526021.039818) vcan0 008#8880289740800080
(1675526021.041257) vcan0 125#E5CD80E4C1D0D735
(1675526021.042699) vcan0 290#0000000000000000
(1675526021.044207) vcan0 010#008800002FB031F8
(1675526021.045718) vcan0 072#F000FF3F00848038
(1675526021.045796) vcan0 1D0#0000000000000061
(1675526021.045873) vcan0 260#D0FF00AA497487B0
(1675526021.046023) vcan0 390#80FF050002065E4F
(1675526021.047207) vcan0 0F5#7F8980897F57A2B2
(1675526021.048707) vcan0 120#71896B897FF85589
(1675526021.048782) vcan0 130#AF3F1E7109294712
(1675526021.048859) vcan0 150#7F09185827F81BC0
(1675526021.050148) vcan0 008#8880389532800080
(1675526021.052970) vcan0 288#4BE050AF00000080
(1675526021.054455) vcan0 055#E8F7AC28B26F9D80
(1675526021.054533) vcan0 010#008800002FB031F9
(1675526021.054682) vcan0 065#FCE5B0F80B8EBB02
(1675526021.054764) vcan0 070#00001EF8B7E23600
(1675526021.057446) vcan0 075#0000000000005458
(1675526021.057524) vcan0 080#C2518000C2002C00
(1675526021.057601) vcan0 0B0#6B831AA3E7C16BA3
(1675526021.057678) vcan0 145#FD22DD80FC4810A1
(1675526021.057755) vcan0 210#91DE80A0A869C64D
(1675526021.057902) vcan0 0E0#62733CE000801F00
(1675526021.057981) vcan0 291#0000000000000000
(1675526021.058111) vcan0 330#C900000000000000
(1675526021.058136) vcan0 3D0#940F6100661780C3
(1675526021.058211) vcan0 1B0#00C0000004B000FC
(1675526021.058361) vcan0 1B5#FFA291B1BDE0FFEF
(1675526021.058949) vcan0 1D8#363339343234DA43
(1675526021.059040) vcan0 1E0#0020730300B917E0
(1675526021.059117) vcan0 072#F000FF3F0084A038
(1675526021.060423) vcan0 008#8880489423800080
(1675526021.061944) vcan0 125#E5CD80E4C1D0D735
(1675526021.062021) vcan0 350#A200000000000080
(1675526021.063461) vcan0 010#008800002FB031F8
(1675526021.064972) vcan0 1D0#0000000000000A61
(1675526021.066427) vcan0 0F5#95898F897F5B92B2
(1675526021.067932) vcan0 120#84896E897FF95589
(1675526021.068083) vcan0 130#B7421E8409064D12
(1675526021.068160) vcan0 150#9209186827F8F8C0
(1675526021.069527) vcan0 008#8880588423800080
(1675526021.073467) vcan0 010#008800002FB031F8
(1675526021.074979) vcan0 055#E8F7AB28B26F9D80
(1675526021.075055) vcan0 065#0DE6AEF80B8EB902
(1675526021.075133) vcan0 070#00001EF8B6E23500
(1675526021.075218) vcan0 072#F000FF3F00848038
(1675526021.076596) vcan0 075#0000000000005458
(1675526021.076673) vcan0 080#BF518000C2002C00
(1675526021.076751) vcan0 0B0#6B831AA3E7C16BA3
(1675526021.076831) vcan0 0E0#62733FE80080FC00
(1675526021.076908) vcan0 145#FD12DE80FC4810A1
(1675526021.076984) vcan0 260#D0FF00AA497487B0
(1675526021.077138) vcan0 28C#000000000016FEA7
(1675526021.079514) vcan0 290#0000000000000000
(1675526021.079594) vcan0 2A9#8C26009BC0000084
(1675526021.079741) vcan0 1B0#00C0000005B000FC
(1675526021.079820) vcan0 1B5#FFA997B4C0E0FFEF
(1675526021.079897) vcan0 1D8#363339343234DA43
(1675526021.079975) vcan0 1E0#0024634300B917E0
(1675526021.080051) vcan0 2B5#4BE1006293A6A7C4
(1675526021.080129) vcan0 288#4BE0609F00000080
(1675526021.080214) vcan0 2C0#468700060100A0F1
(1675526021.080292) vcan0 008#888068890E800080
(1675526021.080441) vcan0 210#91DE80A0A869C645
(1675526021.080518) vcan0 2C3#468700FFFFC15450
(1675526021.080595) vcan0 2C5#41EF7A7808E60070
(1675526021.081103) vcan0 340#7A00000000000000
(1675526021.081179) vcan0 3AF#0000000000000020
(1675526021.081255) vcan0 125#E5CD80E4C1D0D735
(1675526021.082551) vcan0 3C8#4687008E882C008E
(1675526021.085493) vcan0 010#008800002FB031F8
(1675526021.085570) vcan0 1D0#0000000000000061
(1675526021.085647) vcan0 291#0000000000000000
(1675526021.086962) vcan0 0F5#AC89A6897F5F82B3
(1675526021.088473) vcan0 120#A9897D897FF65589
(1675526021.088550) vcan0 130#BF421EA609D45012
(1675526021.088689) vcan0 150#A809167827F8D2C0
(1675526021.089957) vcan0 072#F000FF3F0084A038
(1675526021.090035) vcan0 3B0#00FC193843C0C402
(1675526021.090183) vcan0 008#888078790E800080
(1675526021.092698) vcan0 055#E8F7AB28B26F9D80
(1675526021.094209) vcan0 065#15E6ADF80D8EB802
(1675526021.094287) vcan0 010#008800002FB031F8
(1675526021.097162) vcan0 070#00001EF8B6E23500
(1675526021.097239) vcan0 075#0000000000005458
(1675526021.097388) vcan0 080#BD518000C2002C00
(1675526021.097465) vcan0 0B0#6B831BA3E7C16BA3
(1675526021.097543) vcan0 145#FD02DF80FC4810A1
(1675526021.097618) vcan0 370#071FC000731BC71F
(1675526021.097696) vcan0 0E0#627345F00080D600
(1675526021.097774) vcan0 1B0#00C0000004B000FC
(1675526021.098712) vcan0 1B5#FFAF9DB7C3E0FFEF
(1675526021.098789) vcan0 1D8#363339343234DA43
(1675526021.098873) vcan0 1E0#0028534300B917E0
(1675526021.100170) vcan0 008#888088690E800080
(1675526021.101685) vcan0 125#E5CD80E4C1D0D735
(1675526021.103199) vcan0 288#5CE0609F00000080
(1675526021.104707) vcan0 290#0000000000000000
(1675526021.104784) vcan0 010#008800002FB031F8
(1675526021.104861) vcan0 072#F000FF3F00848038
(1675526021.105012) vcan0 1D0#0000000000000061
(1675526021.105089) vcan0 210#91DE8020A869C64D
(1675526021.106176) vcan0 260#D0FF00AA497487B0
(1675526021.107647) vcan0 0F5#B889B0897F6372B4
(1675526021.107725) vcan0 120#BC89AC897FFB5589
(1675526021.107874) vcan0 130#C7421EB009BA4D12
(1675526021.109168) vcan0 150#B4091C8827F8B6C0
(1675526021.109318) vcan0 008#8880986700800080
(1675526021.113190) vcan0 055#E8F7AA28B26F9D80
(1675526021.114714) vcan0 065#20E6ABF80AAEB602
(1675526021.114791) vcan0 010#008800002FB031F8
(1675526021.114868) vcan0 070#00001EF8B5E23500
(1675526021.114945) vcan0 075#0000000000005458
(1675526021.116362) vcan0 080#BB518000C2002C00
(1675526021.116442) vcan0 0B0#6B831BA3E7C16BA3
(1675526021.116519) vcan0 145#FDF2D080FC4810A1
(1675526021.116596) vcan0 28C#000000000016FEA8
(1675526021.116673) vcan0 291#0000000000000000
(1675526021.116748) vcan0 0E0#627342F80080B900
(1675526021.116900) vcan0 2A9#8C260082C0000084
(1675526021.116976) vcan0 2B5#4BE2006293A6A5C2
(1675526021.119206) vcan0 400#0201020001010023
(1675526021.119357) vcan0 405#0000000000000026
(1675526021.119434) vcan0 1B0#00C0000003B000FC
(1675526021.119511) vcan0 1B5#FFB5A4BAC6E0FFEF
(1675526021.119602) vcan0 1D8#363339343234DA43
(1675526021.119682) vcan0 1E0#0028530300B917E0
(1675526021.119762) vcan0 2C3#468700FFFFC15450
(1675526021.119840) vcan0 072#F000FF3F0084A038
(1675526021.119916) vcan0 008#8880A85700800080
(1675526021.120715) vcan0 125#E5CF80E4C1D0D735
(1675526021.123368) vcan0 010#008800002FB031F8
(1675526021.124953) vcan0 1D0#0000000000000061
(1675526021.126497) vcan0 0F5#CF89CB897F6762B5
(1675526021.127951) vcan0 120#A289A2897FF75589
(1675526021.128031) vcan0 130#CF421EB009AA4712
(1675526021.128108) vcan0 150#CD091D9827F88DC0
(1675526021.129485) vcan0 288#64E0609F00000080
(1675526021.129564) vcan0 210#91DE80A0A869C645
(1675526021.129641) vcan0 008#8880B84700800080
(1675526021.133451) vcan0 055#E8F7A928B26F9D80
(1675526021.136422) vcan0 065#26E6AAF808AEB602
(1675526021.136498) vcan0 010#008800002FB031F9
(1675526021.136576) vcan0 070#00001FF8B5E23500
(1675526021.136726) vcan0 072#F000FF3F00848038
(1675526021.136803) vcan0 075#0000000000005458
(1675526021.136877) vcan0 080#BA518000C2002C00
(1675526021.136956) vcan0 0B0#6B831BA3E7C16BA3
(1675526021.137032) vcan0 145#FDE2D180FC4810A1
(1675526021.137181) vcan0 260#D0FF00AA497487B0
(1675526021.137258) vcan0 0E0#627344C000809700
(1675526021.137335) vcan0 290#0000000000000000
(1675526021.137410) vcan0 2C0#468700040100A0F1
(1675526021.137921) vcan0 2C5#43EF7C7920E60070
(1675526021.138070) vcan0 330#C900000000000000
(1675526021.138147) vcan0 1B0#00C0000004B000FC
(1675526021.138224) vcan0 1B5#FFBBAABDC9E0FFEF
(1675526021.138323) vcan0 1D8#363339343234DB43
(1675526021.139474) vcan0 1E0#002C434300B917E0
(1675526021.139551) vcan0 360#51870006C364A041
(1675526021.139627) vcan0 008#8880C83700800080
(1675526021.140992) vcan0 125#E5D280E4C1D0D735
(1675526021.143718) vcan0 010#008800002FB031F8
(1675526021.145155) vcan0 1D0#0000000000000A61
(1675526021.145303) vcan0 291#0000000000000000
(1675526021.145381) vcan0 390#80FF050002025F6F
(1675526021.146709) vcan0 0F5#D689D9897F6B52B6
(1675526021.148220) vcan0 120#D989C4897FFB5589
(1675526021.148297) vcan0 130#D7421ED609744712
(1675526021.148375) vcan0 150#D70920A827F873C0
(1675526021.148453) vcan0 3CA#00000000D50000C8
(1675526021.149682) vcan0 072#F000FF3F0084A038
(1675526021.149757) vcan0 008#8880D82700800080
(1675526021.151144) vcan0 350#A200000000000080
(1675526021.152728) vcan0 288#64E0609F00000080
(1675526021.154249) vcan0 055#E8F7A828B26F9D80
(1675526021.154327) vcan0 010#008800002FB031F8
(1675526021.157145) vcan0 065#34E6AAF80AAEB602
(1675526021.157223) vcan0 070#00001FF8B5E23500
(1675526021.157370) vcan0 075#0000000000005458
(1675526021.157449) vcan0 080#B8518000C2002C00
(1675526021.157527) vcan0 0B0#6B831CA3E7C16BA3
(1675526021.157603) vcan0 145#FDD2D280FC4810A1
(1675526021.157681) vcan0 210#91DE80A0A869C645
(1675526021.157757) vcan0 0E0#627348C800807300
(1675526021.157941) vcan0 28C#000000000016FEA8
(1675526021.157983) vcan0 2A9#8C26008AC0000084
(1675526021.158060) vcan0 2B5#4BE2006293A6A3C2
(1675526021.158136) vcan0 340#7A00000000000000
(1675526021.158226) vcan0 1B0#00C0000004B000FC
(1675526021.158664) vcan0 1B5#FFC2B0C1CDE0FFEF
(1675526021.158814) vcan0 1D8#363339343234DA43
(1675526021.158891) vcan0 1E0#0030334300B917E0
(1675526021.158968) vcan0 2C3#468700FFFFC15450
(1675526021.160194) vcan0 008#8880E81700800080
(1675526021.161711) vcan0 125#E5D280E4C1D0D735
(1675526021.163224) vcan0 290#0000000000000000
(1675526021.164661) vcan0 010#008800002FB031F8
(1675526021.164812) vcan0 072#F000FF3F00848038
(1675526021.164890) vcan0 1D0#0000000000000061
(1675526021.164967) vcan0 260#D0FF0055497487B0
(1675526021.166257) vcan0 0F5#EA89D9897F6F42B6
(1675526021.167644) vcan0 120#EB89DD897FFB5589
(1675526021.167720) vcan0 130#DF421EDD095D4512
(1675526021.169154) vcan0 150#E10920B827F859C0
(1675526021.169241) vcan0 008#8880F80700800080
(1675526021.173252) vcan0 055#E8F7A828B26F9D80
(1675526021.174767) vcan0 065#3BE6A9F80AAEB602
(1675526021.174844) vcan0 070#00001FF8B4E23500
(1675526021.174921) vcan0 075#0000000000005458
(1675526021.174999) vcan0 010#008800002FB031F8
(1675526021.175076) vcan0 080#B6518000C2002C00
(1675526021.176153) vcan0 0B0#6B831CA3E7C16BA3
(1675526021.176308) vcan0 145#FDC2D380FC4810A1
(1675526021.176313) vcan0 291#0000000000000000
(1675526021.176391) vcan0 0E0#627343D000805800
(1675526021.177686) vcan0 1B0#00C0000003B000FC
(1675526021.177765) vcan0 1B5#FFC8B7C4D0E0FFEF
(1675526021.177844) vcan0 1D8#363339343234DB43
(1675526021.179212) vcan0 1E0#0030330300B917E0
(1675526021.179290) vcan0 288#70E0708F00000080
(1675526021.179385) vcan0 072#F000FF3F0084A038
(1675526021.179463) vcan0 008#888008F700800080
(1675526021.179540) vcan0 210#91DE80A0A869C64D
(1675526021.180768) vcan0 125#E5D580E4C1D0D735
(1675526021.183419) vcan0 010#008800002FB031F8
(1675526021.184925) vcan0 1D0#0000000000000061
(1675526021.186456) vcan0 0F5#018AF5897F7332B7
(1675526021.187961) vcan0 120#E689F5897FFF5589
(1675526021.188038) vcan0 130#E7421EF509353F12
(1675526021.188114) vcan0 150#FB0927C828F82FC0
(1675526021.189483) vcan0 008#888018E700800080
(1675526021.193422) vcan0 055#E8F7A728B26F9D80
(1675526021.195014) vcan0 065#4BE6A9F80CAEB602
(1675526021.195092) vcan0 010#008800002FB031F8
(1675526021.195168) vcan0 070#00001EF8B4E23500
(1675526021.195245) vcan0 072#F000FF3F00848038
(1675526021.195334) vcan0 075#0000000000005458
(1675526021.197930) vcan0 080#B4518000C2002C00
(1675526021.198008) vcan0 0B0#6B831CA3E7C16BA3
(1675526021.198085) vcan0 145#FDB2D480FC4810A1
(1675526021.198162) vcan0 0E0#62734BD800803000
(1675526021.198310) vcan0 260#D0FF0055497487B0
(1675526021.198388) vcan0 28C#000000000016FEA8
(1675526021.198465) vcan0 290#0000000000000000
(1675526021.198542) vcan0 2A9#8C260093C0000084
(1675526021.198618) vcan0 2B5#4BE3006293A6A2C2
(1675526021.198694) vcan0 1B0#00C0000005B000FC
(1675526021.198771) vcan0 1B5#FFCEBDC7D3E0FFEF
(1675526021.198920) vcan0 1D8#363339343234DB43
(1675526021.198996) vcan0 1E0#0034234300B917E0
(1675526021.199582) vcan0 2C0#468700FD0000A0F1
(1675526021.199658) vcan0 2C3#468700FFFFC15450
(1675526021.199743) vcan0 2C5#46EF807948E60070
(1675526021.199821) vcan0 370#071FC000731BC71F
(1675526021.199899) vcan0 008#888028D700800080
(1675526021.199976) vcan0 3AF#0000000000000020
(1675526021.200122) vcan0 3E0#000000D92E808094
(1675526021.201139) vcan0 125#E5D880E4C1D0D735
(1675526021.203942) vcan0 288#68E0708F00000080
(1675526021.204090) vcan0 3C8#4687008E882C008E
(1675526021.205384) vcan0 010#008800002FB031F8
(1675526021.205461) vcan0 1D0#0000000000000061
(1675526021.205608) vcan0 210#91DE80A0A869C645
(1675526021.205687) vcan0 291#0000000000000000
(1675526021.206923) vcan0 0F5#0B8A108A7F7722B8
(1675526021.208433) vcan0 120#128AF6897FFF5589
(1675526021.208510) vcan0 130#EF421E0B0A0E4512
(1675526021.208659) vcan0 150#0D0A1DD828F80CC0
(1675526021.209962) vcan0 072#F000FF3F0084A038
(1675526021.210040) vcan0 008#888038C700800080
(1675526021.210116) vcan0 3B0#00D8193C43C0C400
(1675526021.212701) vcan0 055#E8F7A628B26F9D80
(1675526021.214214) vcan0 065#55E6A9F80AAEB602
(1675526021.214293) vcan0 010#008800002FB031F9
(1675526021.217171) vcan0 070#00001EF8B3E23500
(1675526021.217249) vcan0 075#0000000000005458
(1675526021.217327) vcan0 080#B2518000C2002C00
(1675526021.217404) vcan0 0B0#6B831DA3E6C16BA3
(1675526021.217481) vcan0 145#FDA2D580FC4810A1
(1675526021.217628) vcan0 330#C900000000000000
(1675526021.217705) vcan0 0E0#62734CE000800F00
(1675526021.217783) vcan0 1B0#00C0000005B000FC
(1675526021.218721) vcan0 1B5#FFD5C4CAD6E0FFEF
(1675526021.218799) vcan0 1D8#363339343234DB43
(1675526021.218892) vcan0 1E0#0038134300B917E0
(1675526021.220263) vcan0 008#888048B700800080
(1675526021.221632) vcan0 125#E5D880E4C1D0D735
(1675526021.223208) vcan0 290#0000000000000000
(1675526021.224717) vcan0 010#008800002FB031F8
(1675526021.224794) vcan0 072#F000FF3F00848038
(1675526021.224872) vcan0 1D0#0000000000000A61
(1675526021.226238) vcan0 260#D0FF0055497487B0
(1675526021.227649) vcan0 0F5#1C8A1D8A7F7B12B9
(1675526021.227728) vcan0 120#138A0A8A7F015689
(1675526021.227878) vcan0 130#F7421E130AF64A12
(1675526021.229175) vcan0 150#1C0A20E828F8EDC0
(1675526021.229325) vcan0 288#68E0708F00000080
(1675526021.229403) vcan0 210#91DE80A0A869C64D
(1675526021.229480) vcan0 008#888058A700800080
(1675526021.233208) vcan0 055#E8F7A628B26F9D80
(1675526021.234725) vcan0 065#62E6A7F80DAEB402
(1675526021.234803) vcan0 010#008800002FB031F8
(1675526021.234880) vcan0 070#00001EF8B3E23500
(1675526021.234955) vcan0 075#0000000000005458
(1675526021.237707) vcan0 080#B1518000C2002C00
(1675526021.237784) vcan0 0B0#6B831DA3E6C16BA3
(1675526021.237862) vcan0 145#FD92D680FC4810A1
(1675526021.237940) vcan0 28C#000000000016FEA8
(1675526021.238015) vcan0 0E0#62734EE80080ED00
(1675526021.238164) vcan0 291#0000000000000000
(1675526021.238242) vcan0 2A9#8C26008AC0000084
(1675526021.238320) vcan0 2B5#4BE3006293A69FC0
(1675526021.238396) vcan0 340#7B00000000000000
(1675526021.238472) vcan0 1B0#00C0000004B000FC
(1675526021.238548) vcan0 1B5#FFDBCACEDAE0FFEF
(1675526021.238626) vcan0 1D8#363339343234DB43
(1675526021.239149) vcan0 1E0#0038130300B917E0
(1675526021.239227) vcan0 2C3#468700FFFFC15450
(1675526021.239303) vcan0 072#F000FF3F0084A038
(1675526021.239453) vcan0 360#51870006C364A041
(1675526021.239527) vcan0 008#8880689700800080
(1675526021.240679) vcan0 125#E5D880E4C1D0D735
(1675526021.242193) vcan0 350#A200000000000080
(1675526021.243703) vcan0 010#008800002FB031F8
(1675526021.245142) vcan0 1D0#0000000000000061
(1675526021.245219) vcan0 390#80FF0500023E504F
(1675526021.246672) vcan0 0F5#288A348A7F7F02BA
(1675526021.248181) vcan0 120#248A228A7FFD5589
(1675526021.248257) vcan0 130#FF421E240AD54712
(1675526021.248334) vcan0 150#2E0A21F829F8CBC0
(1675526021.249699) vcan0 008#8880788700800080
(1675526021.252424) vcan0 288#68E0708F00000080
(1675526021.253903) vcan0 010#008800002FB031F8
(1675526021.256931) vcan0 055#E8F7A528B26F9D80
(1675526021.257085) vcan0 065#6DE6A6F80AAEB302
(1675526021.257163) vcan0 070#00001FF8B3E23500
(1675526021.257238) vcan0 072#F000FF3F00848038
(1675526021.257316) vcan0 075#0000000000005458
(1675526021.257394) vcan0 080#AF518000C2002C00
(1675526021.257469) vcan0 0B0#6B831DA3E6C16BA3
(1675526021.257618) vcan0 145#FD82D780FC4810A1
(1675526021.257759) vcan0 0E0#62734EF00080CD00
(1675526021.257773) vcan0 210#91DE8020A869C64D
(1675526021.257849) vcan0 260#D0FF00AA497487B0
(1675526021.257926) vcan0 290#0000000000000000
(1675526021.258077) vcan0 2C0#468700F80000A0F1
(1675526021.259876) vcan0 2C5#48EF827961E60070
(1675526021.259956) vcan0 1B0#00C0000004B000FC
(1675526021.260041) vcan0 1B5#FFE2D1D1DDE0FFEF
(1675526021.260190) vcan0 1D8#363339343234DB43
(1675526021.260268) vcan0 1E0#003C034300B917E0
(1675526021.260344) vcan0 3D0#950F6100661780C3
(1675526021.260422) vcan0 008#8880887700800080
(1675526021.261432) vcan0 125#E5D880E4C1D0D735
(1675526021.262875) vcan0 010#008800002FB031F8
(1675526021.264388) vcan0 1D0#0000000000000061
(1675526021.264466) vcan0 291#0000000000000000
(1675526021.267196) vcan0 0F5#3E8A408A7F43F2BA
(1675526021.268703) vcan0 120#3C8A278A7FFF5589
(1675526021.268779) vcan0 130#87421E3C0AAD4712
(1675526021.268856) vcan0 150#3F0A210829F8AAC0
(1675526021.268933) vcan0 3CA#00000000D60000C8
(1675526021.269083) vcan0 072#F000FF3F0084A038
(1675526021.270161) vcan0 008#8880986700800080
(1675526021.272958) vcan0 055#E8F7A428B26F9D80
(1675526021.274463) vcan0 065#7AE6A6F80CAEB302
(1675526021.274541) vcan0 010#008800002FB031F8
(1675526021.274617) vcan0 070#00001FF8B2E23500
(1675526021.277491) vcan0 075#0000000000005458
(1675526021.277570) vcan0 080#AE518000C2002C00
(1675526021.277647) vcan0 0B0#6B831DA3E6C16BA3
(1675526021.277724) vcan0 145#FD72D880FC4810A1
(1675526021.277872) vcan0 28C#000000000016FEA9
(1675526021.277949) vcan0 0E0#62734EF80080AD00
(1675526021.278025) vcan0 2A9#8C260093C0000084
(1675526021.278103) vcan0 2B5#4BE4006293A69FBF
(1675526021.278178) vcan0 1B0#00C0000003B000FC
(1675526021.278328) vcan0 1B5#FFE9D7D4E0E0FFEF
(1675526021.278908) vcan0 1D8#363339343234DB43
(1675526021.278985) vcan0 1E0#0000F34300B917E0
(1675526021.279080) vcan0 2C3#468700FFFFC25450
(1675526021.279157) vcan0 288#58E0807F00000080
(1675526021.279306) vcan0 210#91DE80A0A869C645
(1675526021.280456) vcan0 008#8880A85700800080
(1675526021.281890) vcan0 125#E5D880E4C1D0D735
(1675526021.283399) vcan0 290#0000000000000000
(1675526021.284906) vcan0 010#008800002FB031F8
(1675526021.284983) vcan0 072#F000FF3F00848038
(1675526021.285060) vcan0 1D0#0000000000000061
(1675526021.285208) vcan0 260#D0FF00AA497487B0
(1675526021.286433) vcan0 0F5#498A488A7F47E2BB
(1675526021.287950) vcan0 120#5D8A3E8A7F045689
(1675526021.288030) vcan0 130#8F421E480A914512
(1675526021.288105) vcan0 150#480A1F182AF891C0
(1675526021.289471) vcan0 008#8880B84700800080
(1675526021.293411) vcan0 055#E8F7A428B26F9D80
(1675526021.296376) vcan0 065#86E6A5F80BAEB202
(1675526021.296457) vcan0 010#008800002FB031F9
(1675526021.296534) vcan0 070#00001FF8B1E23500
(1675526021.296682) vcan0 075#0000000000005458
(1675526021.296761) vcan0 080#AC518000C2002C00
(1675526021.296838) vcan0 0B0#6B831DA3E6C16BA3
(1675526021.296914) vcan0 145#FD62D980FC4810A1
(1675526021.296990) vcan0 291#0000000000000000
(1675526021.297068) vcan0 330#C900000000000000
(1675526021.297145) vcan0 0E0#627352C000808900
(1675526021.297294) vcan0 370#071FC000731BC71F
(1675526021.297947) vcan0 1B0#00C0000003B000FC
(1675526021.298024) vcan0 1B5#FFEFDED7E3E0FFEF
(1675526021.298102) vcan0 1D8#363339343234DB43
(1675526021.298179) vcan0 1E0#0000F30300B917E0
(1675526021.299474) vcan0 072#F000FF3F0084A038
(1675526021.299559) vcan0 008#8880C83700800080
(1675526021.300922) vcan0 125#E5D880E4C1D0D735
(1675526021.303714) vcan0 288#68E0807F00000080
(1675526021.305223) vcan0 010#008800002FB031F8
(1675526021.305300) vcan0 1D0#0000000000000A61
(1675526021.305377) vcan0 210#91DE80A0A869C64D
(1675526021.306678) vcan0 0F5#628A618A7F4BD2BC
(1675526021.308194) vcan0 120#4E8A508A7F095689
(1675526021.308272) vcan0 130#973F1E500A793F12
(1675526021.308348) vcan0 150#610A1F282AF868C0
(1675526021.309716) vcan0 008#8880D82700800080
(1675526021.313652) vcan0 055#E7F7A428B26F9D80
(1675526021.316686) vcan0 065#8EE6A4F80BAEB102
(1675526021.316766) vcan0 010#008800002FB031F8
(1675526021.316845) vcan0 070#00001FF8B1E23500
(1675526021.316921) vcan0 072#F000FF3F00848038
(1675526021.317018) vcan0 075#0000000000005458
(1675526021.317096) vcan0 080#AB518000C2002C00
(1675526021.317172) vcan0 0B0#6B831DA3E6C16BA3
(1675526021.317249) vcan0 145#FD52DA80FC4810A1
(1675526021.317327) vcan0 260#D0FF00AA497487B0
(1675526021.317474) vcan0 0E0#627357C800806400
(1675526021.317551) vcan0 28C#000000000016FEA9
(1675526021.317628) vcan0 290#0000000000000000
(1675526021.317705) vcan0 2A9#8C26008AC0000084
(1675526021.319719) vcan0 2B5#4BE4006293A69EBE
(1675526021.319798) vcan0 2C0#468700F40000A0F1
(1675526021.319874) vcan0 1B0#00C0000005B000FC
(1675526021.320026) vcan0 1B5#FFF6E4DBE7E0FFEF
(1675526021.320103) vcan0 1D8#363339343234DB43
(1675526021.320179) vcan0 1E0#0004E34300B917E0
(1675526021.320256) vcan0 2C3#468700FFFFC25450
(1675526021.320343) vcan0 2C5#4BEF86798DE60070
(1675526021.320420) vcan0 340#7B00000000000000
(1675526021.320497) vcan0 008#8880E81700800080
(1675526021.320576) vcan0 3AF#0000000000000020
(1675526021.321242) vcan0 125#E5D880E4C1D0D735
(1675526021.322748) vcan0 3C8#4687008E882C008E
(1675526021.324189) vcan0 010#008800002FB031F8
(1675526021.325706) vcan0 1D0#0000000000000061
(1675526021.325781) vcan0 291#0000000000000000
(1675526021.327235) vcan0 0F5#738A7F8A7F4FC2BD
(1675526021.328748) vcan0 120#7D8A608A7F0E5689
(1675526021.328826) vcan0 130#9F3F1E6A0A4F3F12
(1675526021.328904) vcan0 150#790A18382AF840C0
(1675526021.328981) vcan0 288#4BE0807F00000080
(1675526021.330213) vcan0 072#F000FF3F0084A038
(1675526021.330361) vcan0 008#8880F80700800080
(1675526021.330451) vcan0 210#8EDE80A0A869C645
(1675526021.330527) vcan0 3B0#00D8193843C0C400
(1675526021.331683) vcan0 350#A200000000000080
(1675526021.333133) vcan0 055#E7F7A328B26F9D80
(1675526021.334705) vcan0 065#9AE6A4F809AEB102
(1675526021.334859) vcan0 010#008800002FB031F8
(1675526021.334936) vcan0 070#00001FF8B1E23500
(1675526021.335013) vcan0 075#0000000000005458
(1675526021.335089) vcan0 080#AA518000C2002C00
(1675526021.336170) vcan0 0B0#6B831DA3E6C16BA3
(1675526021.336268) vcan0 145#FD42DB80FC4810A1
(1675526021.336348) vcan0 0E0#62735DD000803E00
(1675526021.337716) vcan0 1B0#00C0000005B000FC
(1675526021.337790) vcan0 1B5#FFFDEBDEEAE0FFEF
(1675526021.337868) vcan0 1D8#363339343234DB43
(1675526021.339234) vcan0 1E0#0008D34300B917E0
(1675526021.339331) vcan0 360#51870006C364A041
(1675526021.339410) vcan0 008#888008F700800080
(1675526021.340706) vcan0 125#E5D580E4C1D0D735
(1675526021.343428) vcan0 290#0000000000000000
(1675526021.344945) vcan0 010#008800002FB031F8
(1675526021.345024) vcan0 072#F000FF3F00848038
(1675526021.345172) vcan0 1D0#0000000000000061
(1675526021.345249) vcan0 260#D0FF0055497487B0
(1675526021.345326) vcan0 390#80FF0500023A514F
(1675526021.346415) vcan0 0F5#858A778A7F53B2BE
(1675526021.347925) vcan0 120#818A5B8A7F095689
(1675526021.348003) vcan0 130#A73F1E770A323F12
(1675526021.348151) vcan0 150#7E0A18482BF82BC0
(1675526021.349448) vcan0 008#888018E700800080
(1675526021.353399) vcan0 055#E7F7A328B26F9D80
(1675526021.356420) vcan0 065#A2E6A4F80BAEB102
(1675526021.356523) vcan0 010#008800002FB031F8
(1675526021.356599) vcan0 070#00001FF8B0E23500
(1675526021.356676) vcan0 075#0000000000005458
(1675526021.356753) vcan0 080#A9518000C2002C00
(1675526021.356830) vcan0 0B0#6B831DA3E6C16BA3
(1675526021.356907) vcan0 145#FD32DC80FC4810A1
(1675526021.357055) vcan0 210#8EDE80A0A869C645
(1675526021.357137) vcan0 288#43E0807F00000080
(1675526021.357208) vcan0 0E0#627358D800802300
(1675526021.357286) vcan0 28C#000000000016FEA9
(1675526021.357363) vcan0 291#0000000000000000
(1675526021.358090) vcan0 2A9#8C260082C0000084
(1675526021.358167) vcan0 2B5#4BE5006293A69DBE
(1675526021.358244) vcan0 1B0#00C0000003B000FC
(1675526021.358322) vcan0 1B5#FF04F2E2EEE0FFEF
(1675526021.358398) vcan0 1D8#363339343234DB43
(1675526021.358485) vcan0 1E0#0008D30300B917E0
(1675526021.358565) vcan0 2C3#468700FFFFC25450
(1675526021.360932) vcan0 008#888028D700800080
(1675526021.361009) vcan0 072#F000FF3F0084A038
(1675526021.361087) vcan0 125#E5D580E4C1D0D735
(1675526021.363685) vcan0 581#FFFFFFFFFFFF0081
(1675526021.365199) vcan0 010#008800002FB031F8
(1675526021.365277) vcan0 1D0#0000000000000061
(1675526021.366653) vcan0 400#0101010101010224
(1675526021.366730) vcan0 405#0000000000000027
(1675526021.368173) vcan0 0F5#948A928A7F57A2BF
(1675526021.368250) vcan0 120#908A768A7F0E5689
(1675526021.368328) vcan0 130#AF3F1E900A094212
(1675526021.368477) vcan0 150#930A15582BF806C0
(1675526021.369705) vcan0 008#888038C700800080
(1675526021.373639) vcan0 055#E7F7A228B26F9D80
(1675526021.375370) vcan0 065#ABE6A3F809AEB102
(1675526021.375447) vcan0 070#00001FF8B0E23400
(1675526021.375524) vcan0 075#0000000000005458
(1675526021.375602) vcan0 080#A7518000C2002C00
(1675526021.375677) vcan0 0B0#6B831DA3E6C16BA3
(1675526021.375753) vcan0 145#FD22DD80FC4810A1
(1675526021.375903) vcan0 260#D0FF0055497487B0
(1675526021.378277) vcan0 010#008800002FB031F9
(1675526021.378427) vcan0 072#F000FF3F00808038
(1675526021.378503) vcan0 0E0#627354E000800700
(1675526021.378581) vcan0 290#0000000000000000
(1675526021.378657) vcan0 2C0#468700F30000A0F1
(1675526021.378733) vcan0 2C5#4CEF8879A1E60070
(1675526021.378810) vcan0 330#C900000000000000
(1675526021.378889) vcan0 1B0#00C0000004B000FC
(1675526021.379036) vcan0 1B5#FF0AF9E5F1E0FFEF
(1675526021.379122) vcan0 1D8#363339343234DB43
(1675526021.379199) vcan0 1E0#000CC34300B917E0
(1675526021.381214) vcan0 288#4BE0906F00000080
(1675526021.381290) vcan0 008#888048B700800080
(1675526021.381370) vcan0 210#8EDE80A0A869C64D
(1675526021.381447) vcan0 125#E5D580E4C1D0D735
(1675526021.383880) vcan0 010#008800002FB031F8
(1675526021.385412) vcan0 1D0#0000000000000A61
(1675526021.385489) vcan0 291#0000000000000000
(1675526021.386951) vcan0 0F5#A18AB28A7F5B92BF
(1675526021.388457) vcan0 120#968A898A7F0E5689
(1675526021.388536) vcan0 130#B73F1E980AF14212
(1675526021.388612) vcan0 150#A90A19682BF8E0C0
(1675526021.388691) vcan0 3CA#00000000C00000C8
(1675526021.389986) vcan0 072#F000FF3F0080A038
(1675526021.390066) vcan0 008#888058A700800080
(1675526021.392663) vcan0 055#E7F7A228B26F9D80
(1675526021.394169) vcan0 010#008800002FB031F8
(1675526021.394250) vcan0 065#B1E6A3F807AEB102
(1675526021.397218) vcan0 070#00001FF8B0E23400
(1675526021.397295) vcan0 075#0000000000005458
(1675526021.397444) vcan0 080#A7518000C2002C00
(1675526021.397522) vcan0 0B0#6B831DA3E6C16BA3
(1675526021.397598) vcan0 145#FD12DE80FC4810A1
(1675526021.397676) vcan0 28C#000000000016FEA9
(1675526021.397751) vcan0 0E0#627349E80080F200
(1675526021.397901) vcan0 2A9#8C26009BC0000084
(1675526021.397977) vcan0 2B5#4BE5006293A69BBE
(1675526021.398054) vcan0 340#7D00000000000000
(1675526021.398131) vcan0 370#071FC000731BC71F
(1675526021.398209) vcan0 1B0#00C0000005B000FC
(1675526021.398646) vcan0 1B5#FF11FFE8F4E0FFEF
(1675526021.398744) vcan0 1D8#363339343234DB43
(1675526021.398821) vcan0 1E0#0010B34300B917E0
(1675526021.398972) vcan0 2C3#468700FFFFC25450
(1675526021.400199) vcan0 008#8880689700800080
(1675526021.401708) vcan0 125#E5D880E4C1D0D735
(1675526021.403145) vcan0 290#0000000000000000
(1675526021.404653) vcan0 288#58E0906F00000080
(1675526021.404730) vcan0 010#008800002FB031F8
(1675526021.404879) vcan0 072#F000FF3F00808038
(1675526021.404956) vcan0 1D0#0000000000000061
(1675526021.406179) vcan0 210#8EDE8020A869C645
(1675526021.406263) vcan0 260#D0FF0055497487B0
(1675526021.407702) vcan0 0F5#B18ACA8A7F5F82C0
(1675526021.407779) vcan0 120#AC8AA78A7F055689
(1675526021.407855) vcan0 130#BF3F1EAC0ACD4712
(1675526021.409222) vcan0 150#BD0A1A782CF8BCC0
(1675526021.409308) vcan0 008#8880788700800080
(1675526021.413182) vcan0 055#E7F7A128B26F9D80
(1675526021.414696) vcan0 065#BBE6A3F809AEB102
(1675526021.414774) vcan0 010#008800002FB031F8
(1675526021.414851) vcan0 070#00001FF8AFE23400
(1675526021.414998) vcan0 075#0000000000005458
(1675526021.416309) vcan0 080#A5518000C2002C00
(1675526021.416390) vcan0 0B0#6B831DA3E6C16BA3
(1675526021.416467) vcan0 145#FD02DF80FC4810A1
(1675526021.416616) vcan0 291#0000000000000000
(1675526021.416695) vcan0 0E0#627342F00080D900
(1675526021.416772) vcan0 425#0000000000000000
(1675526021.417777) vcan0 1B0#00C0000004B000FC
(1675526021.417852) vcan0 1B5#FF1806ECF8E0FFEF
(1675526021.417932) vcan0 1D8#363339343234DB43
(1675526021.419294) vcan0 1E0#0010B30300B917E0
(1675526021.419409) vcan0 072#F000FF3F0080A038
(1675526021.419486) vcan0 008#8880887700800080
(1675526021.422162) vcan0 125#E5D880E4C1D0D735
(1675526021.422240) vcan0 350#A200000000000080
(1675526021.423675) vcan0 010#008800002FB031F8
(1675526021.425193) vcan0 1D0#0000000000000061
(1675526021.426711) vcan0 0F5#BE8AB58A7F6372C1
(1675526021.428229) vcan0 120#B58AB98A7FF95589
(1675526021.428305) vcan0 130#C73F1EB90AB04712
(1675526021.428383) vcan0 150#B90A1C882CF8B0C0
(1675526021.429745) vcan0 210#8EDE80A0A869C64D
(1675526021.429825) vcan0 288#74E0906F00000080
(1675526021.429901) vcan0 008#8880986700800080
(1675526021.433702) vcan0 055#E7F7A128B26F9D80
(1675526021.436723) vcan0 065#C8E6A3F80AAEB102
(1675526021.436803) vcan0 010#008800002FB031F8
(1675526021.436890) vcan0 070#00001FF8AFE23400
(1675526021.436966) vcan0 072#F000FF3F00808038
(1675526021.437115) vcan0 075#0000000000005458
(1675526021.437194) vcan0 080#A4518000C2002C00
(1675526021.437270) vcan0 0B0#6B831DA3E6C16BA3
(1675526021.437348) vcan0 145#FDF2D080FC4810A1
(1675526021.437424) vcan0 0E0#627331F80080CA00
(1675526021.437501) vcan0 260#D0FF0055497487B0
(1675526021.437578) vcan0 28C#000000000016FEA9
(1675526021.437728) vcan0 290#0000000000000000
(1675526021.437803) vcan0 2A9#8C260082C0000084
(1675526021.439746) vcan0 2B5#4BE6006293A69BBE
(1675526021.439826) vcan0 2C0#468700F20000A0F1
(1675526021.439902) vcan0 1B0#00C0000003B000FC
(1675526021.439978) vcan0 1B5#FF1F0DEFFBE0FFEF
(1675526021.440057) vcan0 1D8#363339343234DB43
(1675526021.440143) vcan0 1E0#0014A34300B917E0
(1675526021.440220) vcan0 2C3#468700FFFFC25450
(1675526021.440368) vcan0 2C5#4EEF8C79C6E60070
(1675526021.440445) vcan0 3AF#0000000000000020
(1675526021.440523) vcan0 008#8880A85700800080
(1675526021.440600) vcan0 360#51870006C364A041
(1675526021.441178) vcan0 125#E5D880E4C1D0D735
(1675526021.442693) vcan0 3C8#4687008E882C008E
(1675526021.444203) vcan0 010#008800002FB031F8
(1675526021.445643) vcan0 1D0#0000000000000061
(1675526021.445722) vcan0 291#0000000000000000
(1675526021.445868) vcan0 390#80FF05000236524F
(1675526021.447173) vcan0 0F5#D98ADB8A7F6762C2
(1675526021.448683) vcan0 120#D38AC98A7FF05589
(1675526021.448760) vcan0 130#CF3F1ED30A864712
(1675526021.448839) vcan0 150#DA0A25982CF87FC0
(1675526021.448926) vcan0 072#F000FF3F0080A038
(1675526021.450223) vcan0 3B0#00D8193843C0C400
(1675526021.450299) vcan0 008#8880B84700800080
(1675526021.452883) vcan0 288#81E0906F00000080
(1675526021.454396) vcan0 055#E7F7A028B26F9D80
(1675526021.454545) vcan0 010#008800002FB031F9
(1675526021.454622) vcan0 065#D0E6A2F80BAEB002
(1675526021.457507) vcan0 070#00001FF8AEE23400
(1675526021.457585) vcan0 075#0000000000005458
(1675526021.457660) vcan0 080#A3518000C2002C00
(1675526021.457738) vcan0 0B0#6B831DA3E6C16BA3
(1675526021.457816) vcan0 145#FDE2D180FC4810A1
(1675526021.457965) vcan0 0E0#627336C00080A500
(1675526021.458040) vcan0 210#8EDE80A0A869C64D
(1675526021.458117) vcan0 330#C900000000000000
(1675526021.458194) vcan0 3D0#950F6100661780C3
(1675526021.458284) vcan0 1B0#00C0000006B000FC
(1675526021.458363) vcan0 1B5#FF2614F3FFE0FFEF
(1675526021.458949) vcan0 1D8#363339343234DB43
(1675526021.459026) vcan0 1E0#0018934300B917E0
(1675526021.459102) vcan0 430#30083000000016A6
(1675526021.459181) vcan0 008#8880C83700800080
(1675526021.460403) vcan0 125#E5D880E4C1D0D735
(1675526021.463207) vcan0 290#0000000000000000
(1675526021.464643) vcan0 010#008800002FB031F8
(1675526021.464721) vcan0 072#F000FF3F00808038
(1675526021.464870) vcan0 1D0#0000000000000A61
(1675526021.464946) vcan0 260#D0FF00AA497487B0
(1675526021.466172) vcan0 0F5#FA8AE88A7F6B52C3
(1675526021.467707) vcan0 120#ED8ACC8A7FF45589
(1675526021.467784) vcan0 130#D73F1EE80A614512
(1675526021.469223) vcan0 150#F00A2AA82CF859C0
(1675526021.469309) vcan0 008#8880D82700800080
(1675526021.473173) vcan0 055#E7F7A028B26F9D80
(1675526021.474683) vcan0 065#DFE6A1F809AEAF02
(1675526021.474765) vcan0 010#008800002FB031F8
(1675526021.474912) vcan0 070#00001FF8AEE23400
(1675526021.474990) vcan0 075#0000000000005458
(1675526021.477652) vcan0 080#A1518000C2002C00
(1675526021.477731) vcan0 0B0#6B831DA3E6C16BA3
(1675526021.477878) vcan0 145#FDD2D280FC4810A1
(1675526021.477956) vcan0 28C#000000000016FEA9
(1675526021.478033) vcan0 0E0#627331C800808A00
(1675526021.478111) vcan0 291#0000000000000000
(1675526021.478188) vcan0 2A9#8C26009BC0000084
(1675526021.478264) vcan0 2B5#4BE6006293A699BC
(1675526021.478343) vcan0 340#7D00000000000000
(1675526021.478490) vcan0 1B0#00C0000005B000FC
(1675526021.478580) vcan0 1B5#FF2D1BF602E0FFEF
(1675526021.478657) vcan0 1D8#363339343234DB43
(1675526021.479237) vcan0 1E0#0018930300B917E0
(1675526021.479314) vcan0 2C3#468700FFFFC25450
(1675526021.479392) vcan0 288#A1E0A05F00000080
(1675526021.479468) vcan0 072#F000FF3F0080A038
(1675526021.479545) vcan0 008#8880E81700800080
(1675526021.480701) vcan0 210#8EDE80A0A869C645
(1675526021.482214) vcan0 125#E5D580E4C1D0D735
(1675526021.483723) vcan0 010#008800002FB031F8
(1675526021.485231) vcan0 1D0#0000000000000061
(1675526021.486698) vcan0 0F5#098BEA8A7F6F42C4
(1675526021.488208) vcan0 120#F98AE08A7FF55589
(1675526021.488286) vcan0 130#DF3F1EEA0A4F3F12
(1675526021.488433) vcan0 150#F90A33B82CF840C0
(1675526021.489654) vcan0 008#8880F80700800080
(1675526021.493697) vcan0 055#E7F79F28B26F9D80
(1675526021.496656) vcan0 065#EAE6A1F80CAEAF02
(1675526021.496733) vcan0 010#008800002FB031F8
(1675526021.496810) vcan0 070#00001FF8ADE23400
(1675526021.496886) vcan0 072#F000FF3F00808038
(1675526021.497036) vcan0 075#0000000000005458
(1675526021.497112) vcan0 080#A0518000C2002C00
(1675526021.497192) vcan0 0B0#6B831DA3E6C16BA3
(1675526021.497269) vcan0 145#FDC2D380FC4810A1
(1675526021.497346) vcan0 0E0#62732AD000807100
(1675526021.497422) vcan0 260#D0FF00AA497487B0
(1675526021.497499) vcan0 290#0000000000000000
(1675526021.497649) vcan0 2C0#468700F00000A0F1
(1675526021.497727) vcan0 2C5#50EF8E79DEE60070
(1675526021.499747) vcan0 370#071FC000731BC71F
(1675526021.499825) vcan0 3E0#000000D92E808094
(1675526021.499911) vcan0 1B0#00C0000005B000FC
(1675526021.499989) vcan0 1B5#FF3422FA06E0FFEF
(1675526021.500067) vcan0 1D8#363339343234DB43
(1675526021.500143) vcan0 1E0#001C834300B917E0
(1675526021.500221) vcan0 008#888008F700800080
(1675526021.501157) vcan0 125#E5CF80E4C1D0D735
(1675526021.502667) vcan0 288#91E0A05F00000080
(1675526021.504244) vcan0 010#008800002FB031F8
(1675526021.504323) vcan0 1D0#0000000000000061
(1675526021.505692) vcan0 210#8EDE80A0A869C64D
(1675526021.505769) vcan0 291#0000000000000000
(1675526021.507141) vcan0 0F5#038B128B7F7332C5
(1675526021.508720) vcan0 120#168BFF8A7FF85589
(1675526021.508798) vcan0 130#E73C1E030B254512
(1675526021.508948) vcan0 150#0A0B33C82DF81EC0
(1675526021.509025) vcan0 3CA#00000000D10000C8
(1675526021.509110) vcan0 072#F000FF3F0080A038
(1675526021.510192) vcan0 008#888018E700800080
(1675526021.511629) vcan0 350#A200000000000080
(1675526021.513140) vcan0 055#E7F79F28B26F9D80
(1675526021.514650) vcan0 010#008800002FB031F8
(1675526021.514728) vcan0 065#FAE6A0F80EAEAE02
(1675526021.514802) vcan0 070#00001FF8ADE23400
(1675526021.514954) vcan0 075#0000000000005458
(1675526021.517710) vcan0 080#9E518000C2002C00
(1675526021.517789) vcan0 0B0#6B831EA3E6C16BA3
(1675526021.517865) vcan0 145#F9B2D480FC4810A1
(1675526021.517943) vcan0 28C#000000000016FEAA
(1675526021.518024) vcan0 0E0#627336D800804500
(1675526021.518173) vcan0 2A9#8C260082C0000084
(1675526021.518250) vcan0 2B5#4BE7006293A698BB
(1675526021.518329) vcan0 1B0#00C0000007B000FC
(1675526021.518423) vcan0 1B5#FF3B29FE0AE0FFEF
(1675526021.518500) vcan0 1D8#363339343234DB43
(1675526021.519153) vcan0 1E0#0020734300B917E0
(1675526021.519229) vcan0 2C3#468700FFFFC35450
(1675526021.519378) vcan0 008#888028D700800080
(1675526021.520672) vcan0 125#E5CD80E4C1D0D735
(1675526021.523470) vcan0 290#0000000000000000
(1675526021.524908) vcan0 010#008800002FB031F8
(1675526021.524985) vcan0 072#F000FF3F00808038
(1675526021.525062) vcan0 1D0#0000000000000061
(1675526021.525140) vcan0 260#D0FF00AA497487B0
(1675526021.526371) vcan0 0F5#2B8B0C8B7F7722C6
(1675526021.527961) vcan0 120#248B098B7F005689
(1675526021.528039) vcan0 130#EF3C1E0C0B0C3F12
(1675526021.528115) vcan0 150#1C0B28D82DF8FCC0
(1675526021.529485) vcan0 210#8EDE80A0A869C645
(1675526021.529574) vcan0 288#7CE0A05F00000080
(1675526021.529651) vcan0 008#868038C900800080
(1675526021.533451) vcan0 055#E7F79E28B26F9D80
(1675526021.534957) vcan0 065#05E79FF80CAEAC02
(1675526021.535034) vcan0 010#008800002FB031F9
(1675526021.535111) vcan0 070#00001FF8ADE23400
(1675526021.535191) vcan0 075#0000000000005458
(1675526021.535268) vcan0 080#9D518000C2002C00
(1675526021.536426) vcan0 0B0#6B831EA3E5C16BA3
(1675526021.536503) vcan0 145#F9A2D580FC4810A1
(1675526021.536650) vcan0 291#0000000000000000
(1675526021.536727) vcan0 0E0#627328E000803300
(1675526021.536806) vcan0 330#C900000000000000
(1675526021.537957) vcan0 1B0#00C0000007B000FC
(1675526021.538032) vcan0 1B5#FF4330010DE0FFEF
(1675526021.538110) vcan0 1D8#363339343234DB43
(1675526021.538197) vcan0 1E0#0020730300B917E0
(1675526021.539422) vcan0 072#F000FF3F0080A038
(1675526021.539572) vcan0 360#51870006C364A041
(1675526021.539650) vcan0 008#868048B900800080
(1675526021.540947) vcan0 125#E5CA80E4C1D0D735
(1675526021.543673) vcan0 010#008800002FB031F8
(1675526021.545187) vcan0 1D0#0000000000000A61
(1675526021.545271) vcan0 390#80FF05000232534F
(1675526021.546647) vcan0 0F5#2A8B2B8B7F7B12C7
(1675526021.548227) vcan0 120#328B268B7F015689
(1675526021.548304) vcan0 130#F73C1E2A0BDE4512
(1675526021.548383) vcan0 150#2A0B28E82DF8DEC0
(1675526021.549745) vcan0 008#8380589E0E800080
(1675526021.553685) vcan0 055#E7F79E28B26D9D80
(1675526021.556646) vcan0 065#12E79EF80DAEAC06
(1675526021.556723) vcan0 010#008800002FB031F8
(1675526021.556823) vcan0 070#00001FF8ACE23400
(1675526021.556898) vcan0 072#F000FF3F00808038
(1675526021.556976) vcan0 075#0000000000005458
(1675526021.557134) vcan0 080#9C518000C2002C00
(1675526021.557227) vcan0 0B0#6B831EA3E5C16BA3
(1675526021.557280) vcan0 145#F992D680FC4810A1
(1675526021.557357) vcan0 0E0#627337E800800400
(1675526021.557434) vcan0 210#8EDE8020A869C645
(1675526021.557514) vcan0 260#D0FF0055497487B0
(1675526021.557591) vcan0 288#4FE0A05F00000080
(1675526021.557739) vcan0 28C#000000000016FEAA
(1675526021.559681) vcan0 290#0000000000000000
(1675526021.559759) vcan0 2A9#8C26008AC0000084
(1675526021.559836) vcan0 1B0#00C0000006B000FC
(1675526021.559913) vcan0 1B5#FF4A380511E0FFEF
(1675526021.559988) vcan0 1D8#363339343234DB43
(1675526021.560085) vcan0 1E0#0024634300B917E0
(1675526021.560163) vcan0 2B5#4BE7006293A698BA
(1675526021.560238) vcan0 2C0#468700DA0000A0F1
(1675526021.560316) vcan0 2C3#468700FFFFC35450
(1675526021.560465) vcan0 008#8380688E0E800080
(1675526021.560542) vcan0 2C5#53EF92790EE70070
(1675526021.560619) vcan0 340#7E00000000000000
(1675526021.561204) vcan0 3AF#0000000000000020
(1675526021.561278) vcan0 125#E5C780E4C1D0D735
(1675526021.562716) vcan0 3C8#4687008E882C008E
(1675526021.564166) vcan0 010#008800002FB031F8
(1675526021.564243) vcan0 1D0#0000000000000061
(1675526021.565680) vcan0 291#0000000000000000
(1675526021.567203) vcan0 0F5#3B8B368B7F7F02C7
(1675526021.568720) vcan0 120#3C8B368B7F0B5689
(1675526021.568797) vcan0 130#FF3C1E360BC23F12
(1675526021.568883) vcan0 150#380B19F82DF8C0C0
(1675526021.570251) vcan0 008#8380787E0E800080
(1675526021.570328) vcan0 072#F000FF3F0080A038
