(1675526308.827380) vcan0 010#000000002FB031F8
(1675526308.828435) vcan0 291#0000000000000000
(1675526308.829805) vcan0 008#0D80906200800080
(1675526308.830944) vcan0 125#E54980E4C1D0D735
(1675526308.833785) vcan0 055#F4F70628B2529C80
(1675526308.833864) vcan0 065#85E406F801CE1402
(1675526308.833939) vcan0 070#00000AF814E21500
(1675526308.834016) vcan0 075#0000000000005458
(1675526308.834164) vcan0 080#12508000C2002C00
(1675526308.834240) vcan0 072#F000FF3F0078A038
(1675526308.834316) vcan0 0B0#3983DFA2E1C139A3
(1675526308.834393) vcan0 0F5#98918A917F7B12E0
(1675526308.834540) vcan0 120#C191BE917F095689
(1675526308.834982) vcan0 130#F7FF1DA3115FFF11
(1675526308.835060) vcan0 145#F982D780FC4810A1
(1675526308.835135) vcan0 150#90110EE816F872C0
(1675526308.835212) vcan0 210#14E080A0A869CF45
(1675526308.835996) vcan0 28C#000000000016FEA0
(1675526308.836082) vcan0 2B5#4B92316293A66936
(1675526308.838853) vcan0 340#7800000000000000
(1675526308.838929) vcan0 370#0720C000751BCB1F
(1675526308.839006) vcan0 3CA#00000000D10000C8
(1675526308.839083) vcan0 010#000000002FB031F8
(1675526308.839159) vcan0 1D0#0000000000000061
(1675526308.839945) vcan0 008#0D80A05200800080
(1675526308.840944) vcan0 290#0000000000000000
(1675526308.842015) vcan0 288#37E0708F00000080
(1675526308.843156) vcan0 1B0#00C0000002B000FC
(1675526308.844224) vcan0 1B5#FF2E0E5683E0FFEF
(1675526308.844300) vcan0 1D8#363339343234E043
(1675526308.845301) vcan0 1E0#0010B34300B917E0
(1675526308.845378) vcan0 2C3#6B8700FFFF485450
(1675526308.845454) vcan0 0E0#627332F80080C900
(1675526308.846384) vcan0 010#000000002FB031F8
(1675526308.848734) vcan0 072#F000FF3F00788038
(1675526308.848810) vcan0 2A9#8C260082C0000084
(1675526308.849810) vcan0 008#0D80B04200800080
(1675526308.852717) vcan0 125#E54C80E4C1D0D735
(1675526308.852793) vcan0 055#F4F70628B2529C80
(1675526308.852869) vcan0 065#85E406F800CE1402
(1675526308.853018) vcan0 070#00000AF813E21500
(1675526308.853095) vcan0 075#0000000000005458
(1675526308.853809) vcan0 080#12508000C2002C00
(1675526308.853885) vcan0 0B0#3983DFA2E1C139A3
(1675526308.853961) vcan0 145#F972D880FC4810A1
(1675526308.854037) vcan0 0F5#959187917F7F02E1
(1675526308.854183) vcan0 120#B291BA917F065689
(1675526308.854856) vcan0 130#FFFF1DA3114FFF11
(1675526308.854935) vcan0 150#951112F816F85DC0
(1675526308.855011) vcan0 260#D0FF0055497487B0
(1675526308.855944) vcan0 010#000000002FB031F8
(1675526308.856943) vcan0 1D0#0000000000000061
(1675526308.859855) vcan0 210#14E08020A869CF4D
(1675526308.859931) vcan0 291#0000000000000000
(1675526308.860008) vcan0 008#0D80C03200800080
(1675526308.860866) vcan0 072#F000FF3F0078A038
(1675526308.861935) vcan0 3B0#00FC383833A4C400
(1675526308.863005) vcan0 1B0#00C0000004B000FC
(1675526308.864145) vcan0 1B5#FF3A195B89E0FFEF
(1675526308.864219) vcan0 1D8#363339343234E043
(1675526308.865221) vcan0 1E0#0014A34300B917E0
(1675526308.866289) vcan0 0E0#62732FC00080AC00
(1675526308.867285) vcan0 288#37E0708F00000080
(1675526308.868355) vcan0 010#000000002FB031F8
(1675526308.868431) vcan0 330#2800000000000000
(1675526308.869429) vcan0 008#0D80D02200800080
(1675526308.870861) vcan0 125#E54980E4C1D0D735
(1675526308.873844) vcan0 055#F4F70628B2529C80
(1675526308.873920) vcan0 065#86E406F800CE1402
(1675526308.873997) vcan0 070#00000AF813E21500
(1675526308.874073) vcan0 075#0000000000005458
(1675526308.874221) vcan0 080#12508000C2002C00
(1675526308.874299) vcan0 0B0#3983DFA2E1C139A3
(1675526308.874375) vcan0 145#F962D980FC4810A1
(1675526308.874451) vcan0 0F5#AE9191917F43F2E3
(1675526308.874885) vcan0 120#B7919F917F075689
(1675526308.875034) vcan0 130#87FF1DA3113FFF11
(1675526308.875109) vcan0 150#8111140816F861C0
(1675526308.875186) vcan0 28C#000000000016FEA0
(1675526308.875261) vcan0 290#0000000000000000
(1675526308.875906) vcan0 2B5#4B92316293A66935
(1675526308.876053) vcan0 2C0#6B8700F60000A0F1
(1675526308.878764) vcan0 2C5#07DF4EDC85E40070
(1675526308.878913) vcan0 3AF#0000000000000020
(1675526308.878990) vcan0 010#000000002FB031F8
(1675526308.879067) vcan0 072#F000FF3F00788038
(1675526308.879143) vcan0 1D0#0000000000000861
(1675526308.879929) vcan0 008#0D80E01200800080
(1675526308.880998) vcan0 210#14E080A0A869CF45
(1675526308.882066) vcan0 3C8#6B87008E886C008E
(1675526308.883133) vcan0 1B0#00C0000004B000FC
(1675526308.884201) vcan0 1B5#FF4525618FE0FFEF
(1675526308.884278) vcan0 1D8#363339343234E043
(1675526308.885278) vcan0 1E0#0014A30300B917E0
(1675526308.885354) vcan0 260#D0FF00AA497487B0
(1675526308.885430) vcan0 2C3#6B8700FFFF485450
(1675526308.885506) vcan0 0E0#62732DC800808E00
(1675526308.887709) vcan0 010#000000002FB031F9
(1675526308.888858) vcan0 291#0000000000000000
