(1675525556.774549) vcan0 1B0#00C0000001B000FC
(1675525556.775502) vcan0 1B5#FF6F37ED10E0FFEF
(1675525556.775576) vcan0 1D8#363339343234E043
(1675525556.775651) vcan0 0E0#E27351D800802A00
(1675525556.775794) vcan0 1E0#002C434300B917E0
(1675525556.776555) vcan0 010#000000002FB031F8
(1675525556.776698) vcan0 2A9#8C26009BC0000084
(1675525556.776771) vcan0 350#A200000000000080
(1675525556.777671) vcan0 008#F580147A00800080
(1675525556.778774) vcan0 125#E56D7FE4C1D0D735
(1675525556.779812) vcan0 260#D0FF00AA497487B0
(1675525556.782222) vcan0 055#F9F72C28B2729D80
(1675525556.783258) vcan0 065#ADE52CF803EEC802
(1675525556.786149) vcan0 070#000006F8C8E20D00
(1675525556.786223) vcan0 075#0000000000005458
(1675525556.786306) vcan0 080#75508000C2002C00
(1675525556.786380) vcan0 0B0#528319A3E2C152A3
(1675525556.786455) vcan0 010#000000002FB031F9
(1675525556.786597) vcan0 072#F000FF3F00B0A038
(1675525556.786672) vcan0 0F5#03A42EA47F6B5269
(1675525556.786746) vcan0 120#1CA440A47FE45589
(1675525556.786820) vcan0 130#D70A1E3124FE1512
(1675525556.786963) vcan0 145#F9D2D280FC4810A1
(1675525556.787175) vcan0 150#1924ACA7C2F716C0
(1675525556.787317) vcan0 1D0#0000000000000A61
(1675525556.787393) vcan0 210#06E080A0BF69C24D
(1675525556.787466) vcan0 370#2728C0007E03CB1F
(1675525556.788319) vcan0 3CA#00000000530000C8
(1675525556.791144) vcan0 008#F580246A00800080
(1675525556.791222) vcan0 288#14DF30CF00000080
(1675525556.792241) vcan0 010#000000002FB031F8
(1675525556.793266) vcan0 1B0#00C0000003B000FC
(1675525556.794358) vcan0 0E0#E27350E000800B00
(1675525556.795376) vcan0 1B5#FF864EF91BE0FFEF
(1675525556.796466) vcan0 1D8#363339343234E043
(1675525556.796544) vcan0 1E0#0030334300B917E0
(1675525556.796621) vcan0 291#0000000000000000
(1675525556.796772) vcan0 2C3#669C00FFFF665450
(1675525556.796849) vcan0 425#0000000000000000
(1675525556.797433) vcan0 008#F580345A00800080
(1675525556.798506) vcan0 072#F000FF3F00B08038
(1675525556.800915) vcan0 125#E56D7FE4C1D0D735
(1675525556.803735) vcan0 055#F9F72C28B2729D80
(1675525556.803809) vcan0 065#AAE52CF800EEC802
(1675525556.804844) vcan0 070#000006F8C8E20D00
(1675525556.804920) vcan0 075#0000000000005458
(1675525556.804993) vcan0 080#75508000C2002C00
(1675525556.805077) vcan0 0B0#528319A3E2C152A3
(1675525556.805909) vcan0 010#000000002FB031F8
(1675525556.805984) vcan0 0F5#19A41FA47F6F426C
(1675525556.806057) vcan0 120#26A455A47FDE5589
(1675525556.806132) vcan0 130#DF0A1E3124EE1512
(1675525556.806275) vcan0 145#F9C2D380FC4810A1
(1675525556.806968) vcan0 150#1C24B1B7C2F703C0
(1675525556.807042) vcan0 1D0#0000000000000061
(1675525556.807117) vcan0 28C#00000000002EFEA6
(1675525556.807258) vcan0 290#0000000000000000
(1675525556.809762) vcan0 2B5#4B281C6293A681D9
(1675525556.809842) vcan0 2C0#669C00010000A0F1
(1675525556.809920) vcan0 2C5#57E77ADCAAE50070
(1675525556.809997) vcan0 340#8C00000000000000
(1675525556.810074) vcan0 3AF#0000000000000020
(1675525556.810152) vcan0 008#F580444A00800080
(1675525556.810310) vcan0 210#06E080A0BF69C245
(1675525556.810824) vcan0 260#D0FF00AA497487B0
(1675525556.811841) vcan0 288#20DF30CF00000080
(1675525556.812930) vcan0 1B0#00C0000003B000FC
(1675525556.814021) vcan0 010#000000002FB031F8
(1675525556.815038) vcan0 072#F000FF3F00B0A038
(1675525556.816130) vcan0 0E0#E2734DE80080EE00
(1675525556.816209) vcan0 1B5#FF9E660427E0FFEF
(1675525556.816286) vcan0 1D8#363339343234E043
(1675525556.817449) vcan0 1E0#0030330300B917E0
(1675525556.817600) vcan0 2A9#8C260082C0000084
(1675525556.818594) vcan0 008#F580543A00800080
(1675525556.819629) vcan0 360#6F9C00D3B343A001
(1675525556.820666) vcan0 125#E56D7FE4C1D0D735
(1675525556.823553) vcan0 055#F9F72C28B2729D80
(1675525556.824590) vcan0 065#A4E52CF8FDEDC802
(1675525556.824685) vcan0 070#000006F8C8E20D00
(1675525556.824761) vcan0 075#0000000000005458
(1675525556.824837) vcan0 080#75508000C2002C00
(1675525556.825666) vcan0 0B0#528319A3E2C152A3
(1675525556.825741) vcan0 0F5#19A41FA47F73326F
(1675525556.825816) vcan0 010#000000002FB031F8
(1675525556.825959) vcan0 120#44A440A47FE15589
(1675525556.826033) vcan0 130#E70A1E3D24D21212
(1675525556.826727) vcan0 145#F9B2D480FC4810A1
(1675525556.826801) vcan0 150#1C24B5C7C2F7F3C0
(1675525556.826944) vcan0 1D0#0000000000000061
(1675525556.827018) vcan0 291#0000000000000000
(1675525556.827781) vcan0 390#80FF050002125B4F
(1675525556.829112) vcan0 008#F580642A00800080
(1675525556.830202) vcan0 072#F000FF3F00B08038
(1675525556.830280) vcan0 3B0#00D8733880B0C600
(1675525556.831307) vcan0 290#0000000000000000
(1675525556.835139) vcan0 1B0#00C0000004B000FC
(1675525556.835291) vcan0 1B5#FFB57D1033E0FFEF
(1675525556.835369) vcan0 010#000000002FB031F8
(1675525556.835447) vcan0 0E0#E2734BF00080D000
(1675525556.836321) vcan0 1D8#363339343234E043
(1675525556.836399) vcan0 1E0#0034234300B917E0
(1675525556.836549) vcan0 210#06E08020BF69C245
(1675525556.836626) vcan0 2C3#669C00FFFF665450
(1675525556.836706) vcan0 330#2800000000000000
(1675525556.837431) vcan0 3D0#9A0F6100D11480C3
(1675525556.838503) vcan0 008#F580741A00800080
(1675525556.839539) vcan0 288#18DF40BF00000080
(1675525556.839614) vcan0 430#2808280000002DC6
(1675525556.840718) vcan0 125#E56D7FE4C1D0D735
(1675525556.841755) vcan0 260#D0FF00AA497487B0
(1675525556.844240) vcan0 055#F9F72C28B2729D80
(1675525556.844314) vcan0 065#A8E52CF800EEC802
(1675525556.844388) vcan0 070#000006F8C8E20D00
(1675525556.845289) vcan0 075#0000000000005458
(1675525556.845364) vcan0 080#75508000C2002C00
(1675525556.848173) vcan0 0B0#528318A3E2C152A3
(1675525556.848252) vcan0 010#000000002FB031F8
(1675525556.848329) vcan0 072#F000FF3F00B0A038
(1675525556.848408) vcan0 0F5#11A42EA47F772272
(1675525556.848487) vcan0 120#1CA435A47FE55589
(1675525556.848564) vcan0 130#EF0A1E3524CA0D12
(1675525556.848715) vcan0 145#F9A2D580FC4810A1
(1675525556.848793) vcan0 150#1F24B1D7C2F7E0C0
(1675525556.848871) vcan0 1D0#0000000000000061
(1675525556.848948) vcan0 28C#00000000002EFEA6
(1675525556.849026) vcan0 2B5#4B281C6293A681D9
(1675525556.849114) vcan0 3C8#669C008E882C008E
(1675525556.849264) vcan0 008#F580840A00800080
(1675525556.850283) vcan0 1B0#00C0000003B000FC
(1675525556.851443) vcan0 1B5#FFCD951C3FE0FFEF
(1675525556.855347) vcan0 0E0#E2734CF80080AF00
(1675525556.855424) vcan0 1D8#363339343234E043
(1675525556.856441) vcan0 1E0#0038134300B917E0
(1675525556.856519) vcan0 010#000000002FB031F8
(1675525556.856598) vcan0 291#0000000000000000
(1675525556.856676) vcan0 2A9#8C26008AC0000084
(1675525556.857475) vcan0 008#F58094FA00800080
(1675525556.858562) vcan0 072#F000FF3F00B08038
(1675525556.859599) vcan0 125#E5707FE4C1D0D735
(1675525556.860705) vcan0 210#06E080A0BF69C24D
(1675525556.863594) vcan0 055#F9F72C28B2749D80
(1675525556.864697) vcan0 065#ADE52CF803EEC802
(1675525556.864779) vcan0 070#000006F8C8E20D00
(1675525556.864855) vcan0 075#0000000000005458
(1675525556.864928) vcan0 080#75508000C2002C00
(1675525556.865071) vcan0 0B0#528319A3E2C152A3
(1675525556.865764) vcan0 0F5#15A439A47F7B1275
(1675525556.865838) vcan0 010#000000002FB031F9
(1675525556.865912) vcan0 120#3DA464A47FE55589
(1675525556.866056) vcan0 130#F70A1E3924B60712
(1675525556.866815) vcan0 145#F992D680FC4810A1
(1675525556.866959) vcan0 150#2624B4E7C2F7C9C0
(1675525556.869757) vcan0 1D0#0000000000000A61
(1675525556.869835) vcan0 288#1CDF40BF00000080
(1675525556.869914) vcan0 290#0000000000000000
(1675525556.870063) vcan0 2C0#669C00000000A0F1
(1675525556.870143) vcan0 2C5#57E77ADBAAE50070
(1675525556.870220) vcan0 350#A200000000000080
(1675525556.870306) vcan0 008#F580A4EA00800080
(1675525556.870819) vcan0 260#D0FF0055497487B0
(1675525556.871909) vcan0 1B0#00C0000002B000FC
(1675525556.872996) vcan0 010#000000002FB031F8
(1675525556.874014) vcan0 072#F000FF3F00B0A038
(1675525556.875104) vcan0 0E0#E2734BC000809000
(1675525556.876195) vcan0 1B5#FFE4AC274AE0FFEF
(1675525556.876273) vcan0 1D8#363339343234E043
(1675525556.877506) vcan0 1E0#0038130300B917E0
(1675525556.877584) vcan0 2C3#669C00FFFF675450
(1675525556.878578) vcan0 008#F580B4DA00800080
(1675525556.879613) vcan0 125#E5707FE4C1D0D735
(1675525556.883603) vcan0 055#F9F72C28B2729D80
(1675525556.884706) vcan0 065#AFE52CF802EEC802
(1675525556.884782) vcan0 070#000006F8C7E20D00
(1675525556.884855) vcan0 075#0000000000005458
(1675525556.884940) vcan0 080#75508000C2002C00
(1675525556.885633) vcan0 010#000000002FB031F8
(1675525556.885775) vcan0 0B0#528319A3E2C152A3
(1675525556.885850) vcan0 0F5#35A440A47F7F0278
(1675525556.885923) vcan0 120#35A464A47FE65589
(1675525556.885998) vcan0 130#FF0A1E44249B0D12
(1675525556.886761) vcan0 145#F982D780FC4810A1
(1675525556.886834) vcan0 150#3A24B2F7C2F7A5C0
(1675525556.886907) vcan0 1D0#0000000000000061
(1675525556.886981) vcan0 210#06E080A0BF69C245
(1675525556.887810) vcan0 28C#00000000002EFEA6
(1675525556.890635) vcan0 291#0000000000000000
(1675525556.890714) vcan0 2B5#4B291B6293A681D8
(1675525556.890864) vcan0 340#8C00000000000000
(1675525556.890942) vcan0 370#2728C0007E03CB1F
(1675525556.891020) vcan0 008#F580C4CA00800080
(1675525556.891106) vcan0 288#20DF40BF00000080
(1675525556.891184) vcan0 072#F000FF3F00B08038
(1675525556.891698) vcan0 290#0000000000000000
(1675525556.892790) vcan0 1B0#00C0000005B000FC
(1675525556.893881) vcan0 1B5#FFFBC43356E0FFEF
(1675525556.894899) vcan0 010#000000002FB031F8
(1675525556.895989) vcan0 0E0#E2734DC800806E00
(1675525556.898920) vcan0 1D8#363339343234E043
(1675525556.898995) vcan0 1E0#003C034300B917E0
(1675525556.899069) vcan0 2A9#8C260093C0000084
(1675525556.899212) vcan0 008#F580D4BA00800080
(1675525556.899973) vcan0 125#E5707FE4C1D0D735
(1675525556.901078) vcan0 260#D0FF0055497487B0
(1675525556.902115) vcan0 055#F9F72C28B2729D80
(1675525556.903081) vcan0 065#ACE52CF8FFEDC702
(1675525556.904185) vcan0 070#000006F8C7E20D00
(1675525556.905240) vcan0 075#0000000000005458
(1675525556.905313) vcan0 080#75508000C2002C00
(1675525556.908171) vcan0 0B0#528319A3E2C152A3
(1675525556.908249) vcan0 010#000000002FB031F8
(1675525556.908326) vcan0 072#F000FF3F00B0A038
(1675525556.908405) vcan0 0F5#2EA440A47F43F27B
(1675525556.908556) vcan0 120#55A468A47FE25589
(1675525556.908633) vcan0 130#870A1E44248B0D12
(1675525556.908710) vcan0 145#F972D880FC4810A1
(1675525556.908789) vcan0 150#3724B507C2F798C0
(1675525556.908866) vcan0 1D0#0000000000000061
(1675525556.908944) vcan0 3CA#00000000540000C8
(1675525556.909242) vcan0 008#F580E4AA00800080
(1675525556.910333) vcan0 210#06E080A0BF69C24D
(1675525556.911281) vcan0 288#24DF40BF00000080
(1675525556.912369) vcan0 1B0#00C0000004B000FC
(1675525556.913397) vcan0 010#000000002FB031F8
(1675525556.916222) vcan0 0E0#E2734BD000805000
(1675525556.916374) vcan0 1B5#FF13DB3F62E0FFEF
(1675525556.916451) vcan0 1D8#363339343234E043
(1675525556.916529) vcan0 1E0#0000F34300B917E0
(1675525556.916608) vcan0 291#0000000000000000
(1675525556.917336) vcan0 2C3#669C00FFFF675450
(1675525556.917414) vcan0 330#2800000000000000
(1675525556.918417) vcan0 008#F580F49A00800080
(1675525556.919453) vcan0 072#F000FF3F00B08038
(1675525556.920490) vcan0 360#6F9C00D3B343A001
(1675525556.920635) vcan0 125#E5707FE4C1D0D735
(1675525556.921602) vcan0 055#F9F72C28B2729D80
(1675525556.922637) vcan0 065#AEE52CF801EEC702
(1675525556.924154) vcan0 070#000006F8C7E20D00
(1675525556.925258) vcan0 075#0000000000005458
(1675525556.925340) vcan0 080#75508000C2002C00
(1675525556.925414) vcan0 0B0#528319A3E2C152A3
(1675525556.925490) vcan0 0F5#35A452A47F47E27E
(1675525556.925563) vcan0 010#000000002FB031F8
(1675525556.926186) vcan0 120#3DA452A47FE95589
(1675525556.926331) vcan0 130#8F0A1E44247B0712
(1675525556.926405) vcan0 145#F962D980FC4810A1
(1675525556.926480) vcan0 150#4424B617C2F77BC0
(1675525556.930552) vcan0 1D0#0000000000000061
(1675525556.930629) vcan0 28C#00000000002EFEA6
(1675525556.930707) vcan0 290#0000000000000000
(1675525556.930785) vcan0 2B5#4B291B6293A681D8
(1675525556.930864) vcan0 2C0#669C00000000A0F1
(1675525556.931016) vcan0 2C5#57E77ADBAFE50070
(1675525556.931094) vcan0 390#80FF0500020E5C4F
(1675525556.931171) vcan0 3AF#0000000000000020
(1675525556.931259) vcan0 008#F580048A00800080
(1675525556.931626) vcan0 260#D0FF0055497487B0
(1675525556.932717) vcan0 1B0#00C0000003B000FC
(1675525556.933735) vcan0 1B5#FF2AF34A6DE0FFEF
(1675525556.934826) vcan0 010#000000002FB031F8
(1675525556.935768) vcan0 072#F000FF3F00B0A038
(1675525556.935848) vcan0 0E0#E27348D800803300
(1675525556.935999) vcan0 1D8#363339343234E043
(1675525556.936076) vcan0 1E0#0000F30300B917E0
(1675525556.936875) vcan0 210#06E080A0BF69C245
(1675525556.936953) vcan0 2A9#8C26008AC0000084
(1675525556.937897) vcan0 008#F580147A00800080
(1675525556.940352) vcan0 288#1CDF50AF00000080
(1675525556.940427) vcan0 125#E5707FE4C1D0D735
(1675525556.944139) vcan0 055#F9F72C28B2749D80
(1675525556.944216) vcan0 065#ADE52CF800EEC702
(1675525556.944368) vcan0 070#000006F8C7E20D00
(1675525556.945198) vcan0 075#0000000000005458
(1675525556.945342) vcan0 080#75508000C2002C00
(1675525556.945416) vcan0 010#000000002FB031F9
(1675525556.945490) vcan0 0B0#528319A3E2C152A3
(1675525556.945564) vcan0 0F5#2AA44BA47F4BD281
(1675525556.946327) vcan0 120#39A455A47FE75589
(1675525556.946401) vcan0 130#970A1E44246B0712
(1675525556.946475) vcan0 145#F952DA80FC4810A1
(1675525556.946549) vcan0 150#3A24AE27C2F775C0
(1675525556.947381) vcan0 1D0#0000000000000A61
(1675525556.947456) vcan0 291#0000000000000000
(1675525556.948461) vcan0 008#F580246A00800080
(1675525556.951000) vcan0 072#F000FF3F00B08038
(1675525556.951078) vcan0 3B0#00FC733880B0C400
(1675525556.954769) vcan0 290#0000000000000000
(1675525556.954855) vcan0 1B0#00C0000002B000FC
(1675525556.955006) vcan0 1B5#FF420A5679E0FFEF
(1675525556.955881) vcan0 1D8#363339343234E043
(1675525556.955960) vcan0 0E0#E27347E000801400
(1675525556.956035) vcan0 1E0#0004E34300B917E0
(1675525556.956114) vcan0 2C3#669C00FFFF685450
(1675525556.956264) vcan0 010#000000002FB031F8
(1675525556.956921) vcan0 350#A200000000000080
(1675525556.958010) vcan0 008#F580345A00800080
(1675525556.959055) vcan0 210#06E080A0BF69C24D
(1675525556.960161) vcan0 125#E5707FE4C1D0D735
(1675525556.961196) vcan0 260#D0FF00AA497487B0
(1675525556.963674) vcan0 055#F9F72C28B2729D80
(1675525556.964778) vcan0 065#AFE52CF802EEC702
(1675525556.964851) vcan0 070#000006F8C7E20D00
(1675525556.964927) vcan0 075#0000000000005458
(1675525556.967630) vcan0 080#75508000C2002C00
(1675525556.967702) vcan0 0B0#528319A3E2C152A3
(1675525556.967777) vcan0 010#000000002FB031F8
(1675525556.967852) vcan0 072#F000FF3F00B0A038
(1675525556.967995) vcan0 0F5#4BA455A47F4FC284
(1675525556.968102) vcan0 120#52A46FA47FE85589
(1675525556.968181) vcan0 130#9F0A1E52244D0D12
(1675525556.968259) vcan0 145#F942DB80FC4810A1
(1675525556.968338) vcan0 150#5024B437C2F74FC0
(1675525556.968415) vcan0 1D0#0000000000000061
(1675525556.968493) vcan0 288#18DF50AF00000080
(1675525556.968644) vcan0 28C#00000000002EFEA6
(1675525556.968722) vcan0 2B5#4B2A1B6293A681D8
(1675525556.968799) vcan0 340#8C00000000000000
(1675525556.968878) vcan0 3C8#669C008E882C008E
(1675525556.971630) vcan0 008#F580444A00800080
(1675525556.972668) vcan0 1B0#00C0000005B000FC
(1675525556.973757) vcan0 010#000000002FB031F8
(1675525556.974846) vcan0 0E0#E27349E80080F200
(1675525556.975863) vcan0 1B5#FF59226285E0FFEF
(1675525556.975942) vcan0 1D8#363339343234E043
(1675525556.976093) vcan0 1E0#0008D34300B917E0
(1675525556.976964) vcan0 291#0000000000000000
(1675525556.977043) vcan0 2A9#8C260093C0000084
(1675525556.977989) vcan0 008#F580543A00800080
(1675525556.979101) vcan0 072#F000FF3F00B08038
(1675525556.980137) vcan0 125#E5707FE4C1D0D735
(1675525556.982546) vcan0 055#F9F72C28B2749D80
(1675525556.985366) vcan0 065#ADE52CF800EEC702
(1675525556.985509) vcan0 070#000006F8C7E20D00
(1675525556.985583) vcan0 075#0000000000005458
(1675525556.985655) vcan0 080#75508000C2002C00
(1675525556.985738) vcan0 0B0#528319A3E2C152A3
(1675525556.985882) vcan0 010#000000002FB031F8
(1675525556.985956) vcan0 0F5#44A455A47F53B287
(1675525556.986031) vcan0 120#5DA473A47FE15589
(1675525556.986448) vcan0 130#A7071E55243A0D12
(1675525556.986591) vcan0 145#F932DC80FC4810A1
(1675525556.986665) vcan0 150#4D24B447C2F742C0
(1675525556.986740) vcan0 1D0#0000000000000061
(1675525556.987569) vcan0 210#06E08020BF69C24D
(1675525556.990366) vcan0 290#0000000000000000
(1675525556.990445) vcan0 2C0#669C00000000A0F1
(1675525556.990594) vcan0 2C5#57E77BDBB1E50070
(1675525556.990673) vcan0 370#2728C0007E03CB1F
(1675525556.990752) vcan0 3E0#000000D934808092
(1675525556.990829) vcan0 008#F580642A00800080
(1675525556.990905) vcan0 288#0CDF50AF00000080
(1675525556.991501) vcan0 260#D0FF00AA497487B0
(1675525556.992520) vcan0 1B0#00C0000002B000FC
(1675525556.993609) vcan0 1B5#FF71396E91E0FFEF
(1675525556.994627) vcan0 010#000000002FB031F8
(1675525556.995719) vcan0 072#F000FF3F00B0A038
(1675525556.995795) vcan0 0E0#E2734EF00080CD00
(1675525556.995874) vcan0 1D8#363339343234E043
(1675525556.996821) vcan0 1E0#0008D30300B917E0
(1675525556.999659) vcan0 2C3#669C00FFFF685450
(1675525556.999734) vcan0 330#2800000000000000
(1675525556.999809) vcan0 400#0101010201010119
(1675525556.999883) vcan0 405#2AF8695A111B6701
(1675525556.999958) vcan0 008#F580741A00800080
(1675525557.000720) vcan0 125#E5727FE4C1D0D735
(1675525557.001754) vcan0 055#F9F72C28B2749D80
(1675525557.002859) vcan0 065#ACE52CF8FFEDC702
(1675525557.003905) vcan0 070#000006F8C7E20D00
(1675525557.004938) vcan0 075#0000000000005458
(1675525557.005082) vcan0 080#75508000C2002C00
(1675525557.006462) vcan0 0B0#528319A3E2C152A3
(1675525557.006537) vcan0 0F5#4BA46CA47F57A28A
(1675525557.006678) vcan0 010#000000002FB031F8
(1675525557.006753) vcan0 120#40A468A47FE75589
(1675525557.006827) vcan0 130#AF0A1E55242A0D12
(1675525557.006901) vcan0 145#F922DD80FC4810A1
(1675525557.007044) vcan0 150#5B24AE57C2F724C0
(1675525557.007118) vcan0 1D0#0000000000000061
(1675525557.007537) vcan0 28C#00000000002EFEA6
(1675525557.007680) vcan0 291#0000000000000000
(1675525557.011785) vcan0 2B5#4B2A1B6293A681D9
(1675525557.011864) vcan0 008#F580840A00800080
(1675525557.011941) vcan0 072#F000FF3F00B08038
(1675525557.012028) vcan0 210#06E080A0BF69C245
(1675525557.012831) vcan0 290#0000000000000000
(1675525557.013919) vcan0 288#24DF50AF00000080
(1675525557.014938) vcan0 1B0#00C0000004B000FC
(1675525557.015015) vcan0 010#000000002FB031F8
(1675525557.016032) vcan0 0E0#E2734EF80080AD00
(1675525557.016112) vcan0 1B5#FF8851799CE0FFEF
(1675525557.016189) vcan0 1D8#363339343234E043
(1675525557.016266) vcan0 1E0#000CC34300B917E0
(1675525557.017069) vcan0 2A9#8C26008AC0000084
(1675525557.018159) vcan0 008#F58094FA00800080
(1675525557.019194) vcan0 360#6F9C00D3B343A001
(1675525557.020368) vcan0 125#E5727FE4C1D0D735
(1675525557.021402) vcan0 260#D0FF00AA497487B0
(1675525557.023809) vcan0 055#F9F72C28B2729D80
(1675525557.026631) vcan0 065#ADE52CF801EEC702
(1675525557.026712) vcan0 070#000006F8C7E20D00
(1675525557.026856) vcan0 075#0000000000005458
(1675525557.026931) vcan0 080#75508000C2002C00
(1675525557.027006) vcan0 0B0#528319A3E2C152A3
(1675525557.027080) vcan0 0F5#48A461A47F5B928D
(1675525557.027222) vcan0 010#000000002FB031F9
(1675525557.027297) vcan0 072#F000FF3F00B0A038
(1675525557.027371) vcan0 120#5DA477A47FDF5589
(1675525557.027443) vcan0 130#B70A1E5D24120F12
(1675525557.027588) vcan0 145#F912DE80FC4810A1
(1675525557.027663) vcan0 150#5424B667C2F71BC0
(1675525557.027736) vcan0 1D0#0000000000000A61
(1675525557.027811) vcan0 390#80FF0500020A5D4F
(1675525557.027954) vcan0 3CA#00000000550000C8
(1675525557.030633) vcan0 008#F580A4EA00800080
(1675525557.031722) vcan0 1B0#00C0000001B000FC
(1675525557.032820) vcan0 010#000000002FB031F8
(1675525557.033911) vcan0 0E0#E2734DC000808E00
(1675525557.035000) vcan0 1B5#FFA06885A8E0FFEF
(1675525557.036017) vcan0 1D8#363339343234E043
(1675525557.036094) vcan0 1E0#0010B34300B917E0
(1675525557.036244) vcan0 210#06E080A0BF69C245
(1675525557.037119) vcan0 291#0000000000000000
(1675525557.037196) vcan0 2C3#669C00FFFF695450
(1675525557.037273) vcan0 3D0#9B0F6100D11480C3
(1675525557.038283) vcan0 008#F580B4DA00800080
(1675525557.039319) vcan0 072#F000FF3F00B08038
(1675525557.040356) vcan0 288#1CDF609F00000080
(1675525557.041734) vcan0 125#E5727FE4C1D0D735
(1675525557.044693) vcan0 055#F9F72C28B2729D80
(1675525557.044836) vcan0 065#B5E52CF805EEC702
(1675525557.044910) vcan0 070#000006F8C7E20D00
(1675525557.044994) vcan0 075#0000000000005458
(1675525557.045068) vcan0 080#74508000C2002C00
(1675525557.045211) vcan0 0B0#528319A3E2C152A3
(1675525557.045835) vcan0 0F5#61A468A47F5F8290
(1675525557.045910) vcan0 010#000000002FB031F8
(1675525557.045985) vcan0 120#61A477A47FE75589
(1675525557.046059) vcan0 130#BF071E6124FE1512
(1675525557.046203) vcan0 145#F902DF80FC4810A1
(1675525557.046965) vcan0 150#6424B477C2F7FBC0
(1675525557.047038) vcan0 1D0#0000000000000061
(1675525557.047181) vcan0 28C#00000000002EFEA6
(1675525557.047256) vcan0 290#0000000000000000
(1675525557.049765) vcan0 2B5#4B2B1B6293A681D8
(1675525557.049844) vcan0 2C0#669C00000000A0F1
(1675525557.049921) vcan0 2C5#57E77BDBABE50070
(1675525557.050000) vcan0 340#8C00000000000000
(1675525557.050086) vcan0 350#A200000000000080
(1675525557.050164) vcan0 3AF#0000000000000020
(1675525557.050315) vcan0 008#F580C4CA00800080
(1675525557.050828) vcan0 260#D0FF0055497487B0
(1675525557.051988) vcan0 1B0#00C0000004B000FC
(1675525557.053009) vcan0 1B5#FFB78091B4E0FFEF
(1675525557.054100) vcan0 0E0#E2734CC800806F00
(1675525557.055189) vcan0 1D8#363339343234E043
(1675525557.056206) vcan0 1E0#0010B30300B917E0
(1675525557.056286) vcan0 010#000000002FB031F8
(1675525557.056437) vcan0 072#F000FF3F00B0A038
(1675525557.057670) vcan0 2A9#8C260082C0000084
(1675525557.058731) vcan0 008#F580D4BA00800080
(1675525557.059834) vcan0 125#E5727FE4C1D0D735
(1675525557.062656) vcan0 210#06E080A0BF69C24D
(1675525557.063693) vcan0 055#F9F72C28B2729D80
(1675525557.063775) vcan0 065#B4E52CF805EEC702
(1675525557.064743) vcan0 070#000006F8C7E20D00
(1675525557.064885) vcan0 075#0000000000005458
(1675525557.064958) vcan0 080#74508000C2002C00
(1675525557.065034) vcan0 0B0#528319A3E2C152A3
(1675525557.065863) vcan0 0F5#55A473A47F637293
(1675525557.065939) vcan0 010#000000002FB031F8
(1675525557.066012) vcan0 120#52A47EA47FE55589
(1675525557.066086) vcan0 130#C70A1E6124EE1212
(1675525557.066228) vcan0 145#F9F2D080FC4810A1
(1675525557.066921) vcan0 150#6424B487C2F7EBC0
(1675525557.066995) vcan0 1D0#0000000000000061
(1675525557.067138) vcan0 288#18DF609F00000080
(1675525557.068246) vcan0 291#0000000000000000
(1675525557.069265) vcan0 008#F580E4AA00800080
(1675525557.070354) vcan0 072#F000FF3F00B08038
(1675525557.070442) vcan0 3B0#00D8733880B0C400
(1675525557.074347) vcan0 290#0000000000000000
(1675525557.075435) vcan0 1B0#00C0000002B000FC
(1675525557.075513) vcan0 1B5#FFCF989CC0E0FFEF
(1675525557.075592) vcan0 010#000000002FB031F8
(1675525557.075668) vcan0 0E0#E2734ED000804D00
(1675525557.075746) vcan0 1D8#363339343234E043
(1675525557.076402) vcan0 1E0#0014A34300B917E0
(1675525557.076479) vcan0 2C3#669C00FFFF695450
(1675525557.076558) vcan0 330#2800000000000000
(1675525557.077503) vcan0 008#F580F49A00800080
(1675525557.078570) vcan0 125#E5727FE4C1D0D735
(1675525557.079606) vcan0 260#D0FF0055497487B0
(1675525557.082084) vcan0 055#F9F72C28B2729D80
(1675525557.084835) vcan0 065#B0E52CF8FFEDC702
(1675525557.084909) vcan0 070#000006F8C7E20D00
(1675525557.085061) vcan0 075#0000000000005458
(1675525557.085143) vcan0 080#74508000C2002C00
(1675525557.085209) vcan0 010#000000002FB031F8
(1675525557.085902) vcan0 072#F000FF3F00B0A038
(1675525557.086045) vcan0 0B0#528319A3E2C152A3
(1675525557.086119) vcan0 0F5#59A482A47F676295
(1675525557.086193) vcan0 120#59A473A47FE65589
(1675525557.087022) vcan0 130#CF0A1E6124DE0D12
(1675525557.087097) vcan0 145#F9E2D180FC4810A1
(1675525557.087170) vcan0 150#6D24B197C2F7D2C0
(1675525557.087242) vcan0 1D0#0000000000000061
(1675525557.087388) vcan0 210#06E080A0BF69C245
(1675525557.088102) vcan0 28C#00000000002EFEA6
(1675525557.090930) vcan0 2B5#4B2B1B6293A681D8
(1675525557.091009) vcan0 370#2728C0007E03CB1F
(1675525557.091086) vcan0 3C8#669C008E882C008E
(1675525557.091172) vcan0 008#F580048A00800080
(1675525557.091252) vcan0 288#1CDF609F00000080
(1675525557.091979) vcan0 1B0#00C0000003B000FC
(1675525557.093071) vcan0 010#000000002FB031F8
(1675525557.094087) vcan0 0E0#E2734ED800802D00
(1675525557.095177) vcan0 1B5#FFE6AFA8CCE0FFEF
(1675525557.096270) vcan0 1D8#363339343234E043
(1675525557.096347) vcan0 1E0#0018934300B917E0
(1675525557.096425) vcan0 291#0000000000000000
(1675525557.096503) vcan0 2A9#8C26009BC0000084
(1675525557.097304) vcan0 008#F580147A00800080
(1675525557.098315) vcan0 072#F000FF3F00B08038
(1675525557.100793) vcan0 125#E5727FE4C1D0D735
(1675525557.103611) vcan0 055#F9F72C28B2729D80
(1675525557.104713) vcan0 065#B0E52CF800EEC702
(1675525557.104789) vcan0 070#000006F8C7E20D00
(1675525557.104886) vcan0 075#0000000000005458
(1675525557.104961) vcan0 080#74508000C2002C00
(1675525557.105035) vcan0 0B0#528319A3E2C152A3
(1675525557.105794) vcan0 010#000000002FB031F9
(1675525557.105870) vcan0 0F5#5DA46FA47F6B5298
(1675525557.105945) vcan0 120#55A48CA47FE45589
(1675525557.106018) vcan0 130#D70A1E6124CE0712
(1675525557.106849) vcan0 145#F9D2D280FC4810A1
(1675525557.106922) vcan0 150#6624B4A7C2F7C9C0
(1675525557.106996) vcan0 1D0#0000000000000A61
(1675525557.107140) vcan0 290#0000000000000000
(1675525557.107213) vcan0 2C0#669C00000000A0F1
(1675525557.108101) vcan0 2C5#57E77BDBB0E50070
(1675525557.109194) vcan0 008#F580246A00800080
(1675525557.110285) vcan0 210#06E080A0BF69C24D
(1675525557.111302) vcan0 260#D0FF0055497487B0
(1675525557.115219) vcan0 288#20DF609F00000080
(1675525557.115297) vcan0 1B0#00C0000003B000FC
(1675525557.115374) vcan0 010#000000002FB031F8
(1675525557.115525) vcan0 072#F000FF3F00B0A038
(1675525557.116325) vcan0 0E0#E27352E000800900
(1675525557.116402) vcan0 1B5#FFFEC7B4D7E0FFEF
(1675525557.116479) vcan0 1D8#363339343234E043
(1675525557.116559) vcan0 1E0#0018930300B917E0
(1675525557.117358) vcan0 2C3#669C00FFFF6A5450
(1675525557.118432) vcan0 008#F580345A00800080
(1675525557.119468) vcan0 360#6F9C00D3B343A001
(1675525557.120572) vcan0 125#E5707FE4C1D0D735
(1675525557.124420) vcan0 055#F9F72C28B2729D80
(1675525557.124563) vcan0 065#B8E52CF805EEC702
(1675525557.124639) vcan0 070#000006F8C7E20D00
(1675525557.124712) vcan0 075#0000000000005458
(1675525557.124796) vcan0 080#74508000C2002C00
(1675525557.125488) vcan0 0B0#528319A3E2C152A3
(1675525557.125631) vcan0 0F5#68A46FA47F6F429B
(1675525557.125707) vcan0 010#000000002FB031F8
(1675525557.125781) vcan0 120#7BA48CA47FE35589
(1675525557.126612) vcan0 130#DF0A1E6F24B00A12
(1675525557.126686) vcan0 145#F9C2D380FC4810A1
(1675525557.126761) vcan0 150#6B24B5B7C2F7B4C0
(1675525557.129563) vcan0 1D0#0000000000000061
(1675525557.129643) vcan0 28C#00000000002EFEA6
(1675525557.129721) vcan0 291#0000000000000000
(1675525557.129798) vcan0 2B5#4B2B1B6293A681D7
(1675525557.129948) vcan0 340#8C00000000000000
(1675525557.130027) vcan0 390#80FF050002065E4F
(1675525557.130103) vcan0 008#F580444A00800080
(1675525557.130181) vcan0 072#F000FF3F00B08038
(1675525557.130640) vcan0 290#0000000000000000
(1675525557.131730) vcan0 1B0#00C0000005B000FC
(1675525557.132746) vcan0 1B5#FF15DEC0E3E0FFEF
(1675525557.133836) vcan0 010#000000002FB031F8
(1675525557.134997) vcan0 0E0#E27357E80080E400
(1675525557.136014) vcan0 1D8#363339343234E043
(1675525557.138874) vcan0 1E0#001C834300B917E0
(1675525557.138949) vcan0 210#06E08020BF69C245
(1675525557.139023) vcan0 2A9#8C260082C0000084
(1675525557.139097) vcan0 350#A200000000000080
(1675525557.139240) vcan0 008#F580543A00800080
(1675525557.140001) vcan0 288#29DF708F00000080
(1675525557.141107) vcan0 125#E5707FE4C1D0D735
(1675525557.141180) vcan0 260#D0FF0055497487B0
(1675525557.142147) vcan0 055#F9F72C28B2749D80
(1675525557.143182) vcan0 065#B3E52CF8FFEDC702
(1675525557.144300) vcan0 070#000006F8C7E20D00
(1675525557.144375) vcan0 075#0000000000005458
(1675525557.147126) vcan0 080#74508000C2002C00
(1675525557.147201) vcan0 0B0#528319A3E2C152A3
(1675525557.147274) vcan0 010#000000002FB031F8
(1675525557.147419) vcan0 072#F000FF3F00B0A038
(1675525557.147492) vcan0 0F5#61A47BA47F73329E
(1675525557.147567) vcan0 120#55A477A47FE35589
(1675525557.147641) vcan0 130#E70A1E6F24A00A12
(1675525557.147784) vcan0 145#F9B2D480FC4810A1
(1675525557.147858) vcan0 150#6E24B9C7C2F7A1C0
(1675525557.147931) vcan0 1D0#0000000000000061
(1675525557.148006) vcan0 3CA#00000000560000C8
(1675525557.148253) vcan0 008#F580642A00800080
(1675525557.149273) vcan0 1B0#00C0000002B000FC
(1675525557.150364) vcan0 1B5#FF2DF6CBEFE0FFEF
(1675525557.151390) vcan0 0E0#E27358F00080C300
(1675525557.155301) vcan0 1D8#363339343234E043
(1675525557.155380) vcan0 1E0#0020734300B917E0
(1675525557.156397) vcan0 2C3#669C00FFFF6A5450
(1675525557.156476) vcan0 010#000000002FB031F8
(1675525557.156551) vcan0 291#0000000000000000
(1675525557.156630) vcan0 330#2800000000000000
(1675525557.157432) vcan0 008#F580741A00800080
(1675525557.158503) vcan0 072#F000FF3F00B08038
(1675525557.159540) vcan0 210#07E080A0BF69C24D
(1675525557.160643) vcan0 125#E5707FE4C1D0D735
(1675525557.163464) vcan0 055#F9F72C28B2729D80
(1675525557.164567) vcan0 065#ACE52CF8FBEDC702
(1675525557.164643) vcan0 070#000006F8C7E20D00
(1675525557.164716) vcan0 075#0000000000005458
(1675525557.164789) vcan0 080#75508000C2002C00
(1675525557.165629) vcan0 0B0#528319A3E2C152A3
(1675525557.165702) vcan0 010#000000002FB031F8
(1675525557.165776) vcan0 0F5#59A47BA47F7722A1
(1675525557.165921) vcan0 120#77A486A47FE55589
(1675525557.165994) vcan0 130#EF0A1E7724880A12
(1675525557.166687) vcan0 145#F9A2D580FC4810A1
(1675525557.166759) vcan0 150#6A24B5D7C2F795C0
(1675525557.169553) vcan0 1D0#0000000000000061
(1675525557.169631) vcan0 288#1CDF708F00000080
(1675525557.169710) vcan0 28C#00000000002EFEA6
(1675525557.169789) vcan0 290#0000000000000000
(1675525557.169938) vcan0 2B5#4B2B1B6293A682D8
(1675525557.170017) vcan0 2C0#669C00000000A0F1
(1675525557.170096) vcan0 2C5#58E77BDBB9E50070
(1675525557.170173) vcan0 3AF#0000000000000020
(1675525557.170251) vcan0 008#F580840A00800080
(1675525557.170555) vcan0 260#D0FF00AA497487B0
(1675525557.171572) vcan0 1B0#00C0000001B000FC
(1675525557.172660) vcan0 1B5#FF450ED7FBE0FFEF
(1675525557.173751) vcan0 010#000000002FB031F8
(1675525557.174769) vcan0 072#F000FF3F00B0A038
(1675525557.175858) vcan0 0E0#E27353F80080A800
(1675525557.177309) vcan0 1D8#363339343234E043
(1675525557.177387) vcan0 1E0#0020730300B917E0
(1675525557.177466) vcan0 2A9#8C26009BC0000084
(1675525557.178359) vcan0 008#F58094FA00800080
(1675525557.181114) vcan0 125#E5707FE4C1D0D735
(1675525557.182149) vcan0 055#F9F72C28B2729D80
(1675525557.183251) vcan0 065#B1E52CF800EEC702
(1675525557.184287) vcan0 070#000006F8C7E20D00
(1675525557.184361) vcan0 075#0000000000005458
(1675525557.185327) vcan0 080#75508000C2002C00
(1675525557.185480) vcan0 0B0#528319A3E2C152A3
(1675525557.185555) vcan0 010#000000002FB031F9
(1675525557.185627) vcan0 0F5#68A477A47F7B12A4
(1675525557.186459) vcan0 120#6CA490A47FE95589
(1675525557.186533) vcan0 130#F70A1E7724780F12
(1675525557.186607) vcan0 145#F992D680FC4810A1
(1675525557.186682) vcan0 150#6F24B8E7C2F780C0
(1675525557.186825) vcan0 1D0#0000000000000A61
(1675525557.187517) vcan0 210#07E080A0BF69C24D
(1675525557.190340) vcan0 291#0000000000000000
(1675525557.190418) vcan0 370#2728C0007E03CB1F
(1675525557.190568) vcan0 008#F580A4EA00800080
(1675525557.190647) vcan0 288#24DF708F00000080
(1675525557.190724) vcan0 072#F000FF3F00B08038
(1675525557.190803) vcan0 3B0#00D8733C80B0C402
(1675525557.191460) vcan0 290#0000000000000000
(1675525557.192486) vcan0 1B0#00C0000003B000FC
(1675525557.193575) vcan0 010#000000002FB031F8
(1675525557.194591) vcan0 0E0#E27351C000808A00
(1675525557.195680) vcan0 1B5#FF5C25E306E0FFEF
(1675525557.197139) vcan0 1D8#363339343234E043
(1675525557.197209) vcan0 1E0#0024634300B917E0
(1675525557.197287) vcan0 2C3#669C00FFFF6B5450
(1675525557.198159) vcan0 008#F580B4DA00800080
(1675525557.199265) vcan0 125#E5707FE4C1D0D735
(1675525557.200300) vcan0 260#D0FF00AA497487B0
(1675525557.204222) vcan0 055#F9F72C28B2729D80
(1675525557.204296) vcan0 065#BAE52CF806EEC702
(1675525557.204371) vcan0 070#000006F8C7E20D00
(1675525557.205268) vcan0 075#0000000000005458
(1675525557.205344) vcan0 080#74508000C2002C00
(1675525557.205485) vcan0 0B0#528319A3E2C152A3
(1675525557.205571) vcan0 010#000000002FB031F8
(1675525557.205645) vcan0 072#F000FF3F00B0A038
(1675525557.206337) vcan0 0F5#64A482A47F7F02A7
(1675525557.206411) vcan0 120#7BA48CA47FE75589
(1675525557.206553) vcan0 130#FF071E7B24641212
(1675525557.206629) vcan0 145#F982D780FC4810A1
(1675525557.207390) vcan0 150#7324B6F7C2F76CC0
(1675525557.207532) vcan0 1D0#0000000000000061
(1675525557.207607) vcan0 28C#00000000002EFEA6
(1675525557.210124) vcan0 2B5#4B2C1B6293A681D7
(1675525557.210203) vcan0 340#8C00000000000000
(1675525557.210282) vcan0 3C8#669C008E882C008E
(1675525557.210360) vcan0 008#F580C4CA00800080
(1675525557.210437) vcan0 210#07E080A0BF69C245
(1675525557.211164) vcan0 288#31DF708F00000080
(1675525557.212255) vcan0 1B0#00C0000004B000FC
(1675525557.213282) vcan0 010#000000002FB031F8
(1675525557.214371) vcan0 0E0#E27353C800806800
(1675525557.215390) vcan0 1B5#FF743DEF12E0FFEF
(1675525557.216840) vcan0 1D8#363339343234E043
(1675525557.216917) vcan0 1E0#0028534300B917E0
(1675525557.217067) vcan0 291#0000000000000000
(1675525557.217146) vcan0 2A9#8C260082C0000084
(1675525557.217948) vcan0 008#F580D4BA00800080
(1675525557.218993) vcan0 072#F000FF3F00B08038
(1675525557.220098) vcan0 360#6F9C00D3B343A001
(1675525557.221136) vcan0 125#E5707FE4C1D0D735
(1675525557.225396) vcan0 055#F9F72C28B2729D80
(1675525557.225470) vcan0 065#B9E52CF801EEC702
(1675525557.225545) vcan0 070#000006F8C7E20D00
(1675525557.225688) vcan0 075#0000000000005458
(1675525557.225762) vcan0 080#74508000C2002C00
(1675525557.225846) vcan0 0B0#52831AA3E2C152A3
(1675525557.225921) vcan0 0F5#73A494A47F43F2AA
(1675525557.225996) vcan0 010#000000002FB031F8
(1675525557.226139) vcan0 120#6FA49BA47FEE5589
(1675525557.226489) vcan0 130#870A1E7B24540F12
(1675525557.226564) vcan0 145#F972D880FC4810A1
(1675525557.226637) vcan0 150#8424BB07C2F74BC0
(1675525557.226779) vcan0 1D0#0000000000000061
(1675525557.227541) vcan0 290#0000000000000000
(1675525557.227615) vcan0 2C0#669C00000000A0F1
(1675525557.227759) vcan0 2C5#58E77CDABCE50070
(1675525557.227832) vcan0 350#A200000000000080
(1675525557.227906) vcan0 390#80FF050002025F6F
(1675525557.228681) vcan0 008#F580E4AA00800080
(1675525557.229699) vcan0 260#D0FF00AA497487B0
(1675525557.233609) vcan0 1B0#00C0000003B000FC
(1675525557.234637) vcan0 1B5#FF8B55FB1EE0FFEF
(1675525557.235727) vcan0 010#000000002FB031F8
(1675525557.235804) vcan0 072#F000FF3F00B0A038
(1675525557.235882) vcan0 0E0#E27355D000804600
(1675525557.236032) vcan0 1D8#363339343234E043
(1675525557.236833) vcan0 1E0#0028530300B917E0
(1675525557.236911) vcan0 210#07E080A0BF69C245
(1675525557.236990) vcan0 2C3#669C00FFFF6C5450
(1675525557.237068) vcan0 330#2800000000000000
(1675525557.237146) vcan0 3D0#9B0F6100D11480C3
(1675525557.237875) vcan0 008#F580F49A00800080
(1675525557.238925) vcan0 288#18DF807F00000080
(1675525557.240028) vcan0 125#E5707FE4C1D0D735
(1675525557.242506) vcan0 055#F9F72C28B2729D80
(1675525557.245257) vcan0 065#B2E52CF8FCEDC702
(1675525557.245332) vcan0 070#000006F8C7E20D00
(1675525557.245426) vcan0 075#0000000000005458
(1675525557.245502) vcan0 080#74508000C2002C00
(1675525557.245576) vcan0 0B0#528319A3E2C152A3
(1675525557.245720) vcan0 0F5#55A486A47F47E2AD
(1675525557.245794) vcan0 120#82A4A7A47FEB5589
(1675525557.246348) vcan0 130#8F0C1E82243D0D12
(1675525557.246423) vcan0 010#000000002FB031F8
(1675525557.246496) vcan0 145#F962D980FC4810A1
(1675525557.246570) vcan0 150#6D24B217C2F752C0
(1675525557.246713) vcan0 1D0#0000000000000061
(1675525557.247406) vcan0 28C#00000000002EFEA6
(1675525557.247479) vcan0 291#0000000000000000
(1675525557.247554) vcan0 2B5#4B2C1C6293A682D8
(1675525557.250270) vcan0 400#010100010204051A
(1675525557.250349) vcan0 405#6F9C003B00333C02
(1675525557.250427) vcan0 008#F580048A00800080
(1675525557.251307) vcan0 072#F000FF3F00B08038
(1675525557.252397) vcan0 290#0000000000000000
(1675525557.253559) vcan0 1B0#00C0000005B000FC
(1675525557.254575) vcan0 1B5#FFA36C062AE0FFEF
(1675525557.255666) vcan0 0E0#E27356D800802500
(1675525557.255742) vcan0 1D8#363339343234E043
(1675525557.255822) vcan0 1E0#002C434300B917E0
(1675525557.256767) vcan0 010#000000002FB031F8
(1675525557.256846) vcan0 2A9#8C26008AC0000084
(1675525557.257791) vcan0 008#F580147A00800080
(1675525557.260216) vcan0 125#E5707FE4C1D0D735
(1675525557.261252) vcan0 210#07E080A0BF69C24D
(1675525557.264073) vcan0 260#D0FF0055497487B0
(1675525557.264216) vcan0 055#F9F72C28B2729D80
(1675525557.264291) vcan0 065#B5E52CF801EEC702
(1675525557.264366) vcan0 070#000006F8C7E20D00
(1675525557.265273) vcan0 075#0000000000005458
(1675525557.265348) vcan0 080#74508000C2002C00
(1675525557.265423) vcan0 0B0#528319A3E2C152A3
(1675525557.265497) vcan0 0F5#86A494A47F4BD2B0
(1675525557.265640) vcan0 120#8CA4ABA47FE85589
(1675525557.266331) vcan0 010#000000002FB031F9
(1675525557.266405) vcan0 072#F000FF3F00B0A038
(1675525557.266480) vcan0 130#970A1E8C24230F12
(1675525557.266623) vcan0 145#F952DA80FC4810A1
(1675525557.267385) vcan0 150#8C24B427C2F723C0
(1675525557.267459) vcan0 1D0#0000000000000A61
(1675525557.268722) vcan0 288#14DF807F00000080
(1675525557.268867) vcan0 3CA#00000000400000C8
(1675525557.268939) vcan0 008#F580246A00800080
(1675525557.269838) vcan0 1B0#00C0000008B000FC
(1675525557.272313) vcan0 010#000000002FB031F8
(1675525557.273360) vcan0 0E0#E27359E000800200
(1675525557.274533) vcan0 1B5#FFBA841236E0FFEF
(1675525557.275569) vcan0 1D8#363339343234E043
(1675525557.276676) vcan0 1E0#0030334300B917E0
(1675525557.276750) vcan0 291#0000000000000000
(1675525557.276824) vcan0 2C3#669C00FFFF6C5450
(1675525557.277722) vcan0 008#F580345A00800080
(1675525557.278775) vcan0 072#F000FF3F00B08038
(1675525557.280086) vcan0 125#E5707FE4C1D0D735
(1675525557.284555) vcan0 055#F9F72C28B2729D80
(1675525557.284631) vcan0 065#BFE52CF806EEC702
(1675525557.284704) vcan0 070#000006F8C7E20D00
(1675525557.284848) vcan0 075#0000000000005458
(1675525557.284922) vcan0 080#74508000C2002C00
(1675525557.285616) vcan0 0B0#528319A3E1C152A3
(1675525557.285690) vcan0 010#000000002FB031F8
(1675525557.285783) vcan0 0F5#77A498A47F4FC2B3
(1675525557.285857) vcan0 120#90A4B6A47FE65589
(1675525557.286688) vcan0 130#9F0A1E90240F1212
(1675525557.286763) vcan0 145#F942DB80FC4810A1
(1675525557.286906) vcan0 150#8824AC37C2F717C0
(1675525557.286980) vcan0 1D0#0000000000000061
(1675525557.287053) vcan0 210#07E08020BF69C245
(1675525557.287747) vcan0 28C#00000000002EFEA6
(1675525557.287820) vcan0 290#0000000000000000
(1675525557.287964) vcan0 2B5#4B2D1C6293A682D6
(1675525557.288038) vcan0 2C0#669C00000000A0F1
(1675525557.288151) vcan0 2C5#58E77CDAB3E50070
(1675525557.288845) vcan0 340#8C00000000000000
(1675525557.290294) vcan0 370#2728C0007E03CB1F
(1675525557.290369) vcan0 3AF#0000000000000020
(1675525557.290443) vcan0 008#F580444A00800080
(1675525557.290526) vcan0 3E0#000000D934808092
(1675525557.290601) vcan0 288#08DF807F00000080
(1675525557.291362) vcan0 260#D0FF0055497487B0
(1675525557.292400) vcan0 1B0#00C0000002B000FC
(1675525557.293435) vcan0 010#000000002FB031F8
(1675525557.294539) vcan0 072#F000FF3F00B0A038
(1675525557.295573) vcan0 0E0#E27352E80080E900
(1675525557.299843) vcan0 1B5#FFD29C1E41E0FFEF
(1675525557.299922) vcan0 1D8#363339343234E043
(1675525557.299999) vcan0 1E0#0030330300B917E0
(1675525557.300148) vcan0 2A9#8C260093C0000084
(1675525557.300227) vcan0 008#F580543A00800080
(1675525557.300957) vcan0 125#E5727FE4C1D0D735
(1675525557.302046) vcan0 055#F9F72C28B2729D80
(1675525557.303137) vcan0 065#BCE52CF801EEC702
(1675525557.304224) vcan0 070#000006F8C7E20D00
(1675525557.305250) vcan0 075#0000000000005458
(1675525557.305327) vcan0 080#74508000C2002C00
(1675525557.305477) vcan0 0B0#52831AA3E2C152A3
(1675525557.305556) vcan0 010#000000002FB031F8
(1675525557.305635) vcan0 0F5#89A4B2A47F53B2B6
(1675525557.306362) vcan0 120#68A489A47FEE5589
(1675525557.306440) vcan0 130#A70C1E9024FF0F12
(1675525557.306519) vcan0 145#F932DC80FC4810A1
(1675525557.306597) vcan0 150#9D24AD47C1F7F2C0
(1675525557.307326) vcan0 1D0#0000000000000061
(1675525557.307405) vcan0 291#0000000000000000
(1675525557.308758) vcan0 008#F580642A00800080
(1675525557.309795) vcan0 072#F000FF3F00B08038
(1675525557.310899) vcan0 210#07E080A0BF69C24D
(1675525557.310974) vcan0 3B0#00D8733880B0C400
(1675525557.313725) vcan0 290#0000000000000000
(1675525557.314769) vcan0 288#10DF807F00000080
(1675525557.314843) vcan0 1B0#00C0000004B000FC
(1675525557.315879) vcan0 010#000000002FB031F8
(1675525557.315951) vcan0 0E0#E2734CF00080CF00
(1675525557.316026) vcan0 1B5#FFEAB32A4DE0FFEF
(1675525557.316101) vcan0 1D8#363339343234E043
(1675525557.316245) vcan0 1E0#0034234300B917E0
(1675525557.316936) vcan0 2C3#669C00FFFF6D5450
(1675525557.317010) vcan0 330#2800000000000000
(1675525557.317084) vcan0 350#A200000000000080
(1675525557.317982) vcan0 008#F580741A00800080
(1675525557.319045) vcan0 360#6F9C00D3B343A001
(1675525557.320134) vcan0 125#E5727FE4C1D0D735
(1675525557.321153) vcan0 260#D0FF0055497487B0
(1675525557.323617) vcan0 055#F9F72C28B2729D80
(1675525557.324634) vcan0 065#B5E52CF8FBEDC702
(1675525557.327467) vcan0 070#000006F8C7E20D00
(1675525557.327546) vcan0 075#0000000000005458
(1675525557.327698) vcan0 080#74508000C2002C00
(1675525557.327776) vcan0 010#000000002FB031F8
(1675525557.327854) vcan0 072#F000FF3F00B0A038
(1675525557.327932) vcan0 0B0#52831AA3E2C152A3
(1675525557.328010) vcan0 0F5#7EA4A7A47F57A2B9
(1675525557.328158) vcan0 120#89A4B2A47FE55589
(1675525557.328233) vcan0 130#AF0C1E9024EF0F12
(1675525557.328307) vcan0 145#F922DD80FC4810A1
(1675525557.328381) vcan0 150#9224B057C1F7EDC0
(1675525557.328525) vcan0 1D0#0000000000000061
(1675525557.328598) vcan0 28C#00000000002EFEA6
(1675525557.328672) vcan0 2B5#4B2D1C6293A682D7
(1675525557.328747) vcan0 390#80FF0500023E504F
(1675525557.331498) vcan0 3C8#669C008E882C008E
(1675525557.331582) vcan0 008#F580840A00800080
(1675525557.332551) vcan0 1B0#00C0000002B000FC
(1675525557.333656) vcan0 1B5#FF01CB3659E0FFEF
(1675525557.334692) vcan0 010#000000002FB031F8
(1675525557.335797) vcan0 0E0#E2734CF80080AF00
(1675525557.335871) vcan0 1D8#363339343234E043
(1675525557.335945) vcan0 1E0#0038134300B917E0
(1675525557.336841) vcan0 210#07E080A0BF69C245
(1675525557.336916) vcan0 291#0000000000000000
(1675525557.337059) vcan0 2A9#8C26008AC0000084
(1675525557.337889) vcan0 008#F58094FA00800080
(1675525557.338899) vcan0 072#F000FF3F00B08038
(1675525557.339988) vcan0 288#04DF906F00000080
(1675525557.341080) vcan0 125#E5727FE4C1D0D735
(1675525557.343471) vcan0 055#F9F72C28B2729D80
(1675525557.346296) vcan0 065#B9E52CF800EEC702
(1675525557.346384) vcan0 070#000006F8C7E20D00
(1675525557.346461) vcan0 075#0000000000005458
(1675525557.346539) vcan0 080#74508000C2002C00
(1675525557.346618) vcan0 0B0#528319A3E2C152A3
(1675525557.346767) vcan0 010#000000002FB031F9
(1675525557.346845) vcan0 0F5#94A4A3A47F5B92BC
(1675525557.346921) vcan0 120#A7A49FA47FE75589
(1675525557.347002) vcan0 130#B70A1E9F24D01512
(1675525557.347080) vcan0 145#F912DE80FC4810A1
(1675525557.347157) vcan0 150#9B24AD67C1F7D4C0
(1675525557.347384) vcan0 1D0#0000000000000A61
(1675525557.347463) vcan0 290#0000000000000000
(1675525557.347539) vcan0 2C0#669C00000000A0F1
(1675525557.347618) vcan0 2C5#58E77CDAB6E50070
(1675525557.350211) vcan0 008#F380A4EC00800080
(1675525557.351318) vcan0 260#D0FF00AA497487B0
(1675525557.352364) vcan0 1B0#00C0000004B000FC
(1675525557.353468) vcan0 1B5#FF19E34165E0FFEF
(1675525557.354505) vcan0 0E0#E2734DC000808E00
(1675525557.355541) vcan0 1D8#363339343234E043
(1675525557.355684) vcan0 1E0#0038130300B917E0
(1675525557.356650) vcan0 2C3#669C00FFFF6D5450
(1675525557.356725) vcan0 010#000000002FB031F8
(1675525557.356798) vcan0 072#F000FF3F00B0A038
(1675525557.357697) vcan0 008#F380B4DC00800080
(1675525557.360197) vcan0 125#E5727FE4C1D0D735
(1675525557.361215) vcan0 210#07E080A0BF69C24D
(1675525557.364180) vcan0 055#F9F72C28B2729D80
(1675525557.364258) vcan0 065#C2E52CF806EEC702
(1675525557.364336) vcan0 070#000006F8C7E20D00
(1675525557.365209) vcan0 075#0000000000005458
(1675525557.365359) vcan0 080#74508000C2002C00
(1675525557.365447) vcan0 0B0#52831AA3E2C152A3
(1675525557.365524) vcan0 010#000000002FB031F8
(1675525557.365602) vcan0 0F5#90A4A7A47F5F82BF
(1675525557.366332) vcan0 120#7BA49FA47FE55589
(1675525557.366410) vcan0 130#BF0A1EA724B81512
(1675525557.366488) vcan0 145#F902DF80FC4810A1
(1675525557.366566) vcan0 150#9B24AC77C1F7C4C0
(1675525557.367367) vcan0 1D0#0000000000000061
(1675525557.367443) vcan0 288#14DF906F00000080
(1675525557.367593) vcan0 28C#00000000002EFEA6
(1675525557.370281) vcan0 291#0000000000000000
(1675525557.370359) vcan0 2B5#4B2E1C6293A682D6
(1675525557.370438) vcan0 340#8C00000000000000
(1675525557.370515) vcan0 008#F380C4CC00800080
(1675525557.370593) vcan0 072#F000FF3F00B08038
(1675525557.371322) vcan0 290#0000000000000000
(1675525557.372427) vcan0 1B0#00C0000002B000FC
(1675525557.373443) vcan0 010#000000002FB031F8
(1675525557.374535) vcan0 0E0#E27350C800806B00
(1675525557.375552) vcan0 1B5#FF31FA4D71E0FFEF
(1675525557.375704) vcan0 1D8#363339343234E043
(1675525557.376651) vcan0 1E0#003C034300B917E0
(1675525557.376729) vcan0 2A9#8C260093C0000084
(1675525557.377747) vcan0 008#F380D4BC00800080
(1675525557.380177) vcan0 125#E5757FE4C1D0D735
(1675525557.383065) vcan0 260#D0FF00AA497487B0
(1675525557.384101) vcan0 055#F9F72C28B2729D80
(1675525557.384174) vcan0 065#C3E52CF802EEC702
(1675525557.384318) vcan0 070#000006F8C7E20D00
(1675525557.385147) vcan0 075#0000000000005458
(1675525557.385289) vcan0 080#74508000C2002C00
(1675525557.385364) vcan0 0B0#52831AA3E2C152A3
(1675525557.385461) vcan0 010#000000002FB031F8
(1675525557.386222) vcan0 072#F000FF3F00B0A038
(1675525557.386367) vcan0 0F5#98A4B6A47F6372C2
(1675525557.386440) vcan0 120#8CA4B6A47FDF5589
(1675525557.386514) vcan0 130#C70A1EA724A80F12
(1675525557.386590) vcan0 145#F9F2D080FC4810A1
(1675525557.387351) vcan0 150#A724B287C1F7A8C0
(1675525557.387425) vcan0 1D0#0000000000000061
(1675525557.388681) vcan0 210#07E080A0BF69C24D
(1675525557.388761) vcan0 370#2728C0007E03CB1F
(1675525557.388838) vcan0 3CA#00000000510000C8
(1675525557.389711) vcan0 008#F380E4AC00800080
(1675525557.389861) vcan0 288#29DF906F00000080
(1675525557.393553) vcan0 1B0#00C0000003B000FC
(1675525557.394642) vcan0 010#000000002FB031F8
(1675525557.395663) vcan0 0E0#E27354D000804700
(1675525557.395749) vcan0 1B5#FF4812597DE0FFEF
(1675525557.395828) vcan0 1D8#363339343234E043
(1675525557.395979) vcan0 1E0#0000F34300B917E0
(1675525557.396780) vcan0 291#0000000000000000
(1675525557.396859) vcan0 2C3#669C00FFFF6E5450
(1675525557.396936) vcan0 330#2800000000000000
(1675525557.397014) vcan0 425#0000000000000000
(1675525557.397888) vcan0 008#F380F49C00800080
