(1675526010.377725) vcan0 150#4A1E05C805F8CBC0
(1675526010.378728) vcan0 260#D0FF0055497487B0
(1675526010.381330) vcan0 008#3680240D1C800080
(1675526010.382490) vcan0 0E0#62732AE000803100
(1675526010.383870) vcan0 010#008800002FB031F9
(1675526010.384091) vcan0 291#0000000000000000
(1675526010.384315) vcan0 2A9#8C26009BC0000084
(1675526010.385042) vcan0 400#010100010101000B
(1675526010.385120) vcan0 405#8F07000000000005
(1675526010.387792) vcan0 055#F6F71028B29A9C80
(1675526010.388013) vcan0 065#B7E510F801DE4002
(1675526010.388236) vcan0 070#000007F83EE20F00
(1675526010.388387) vcan0 075#0000000000005458
(1675526010.388618) vcan0 080#2B508000C2002C00
(1675526010.388769) vcan0 0B0#52830EA3E0C152A3
(1675526010.388994) vcan0 145#F982D780FC4810A1
(1675526010.389072) vcan0 1B0#00C0000005B000FC
(1675526010.389295) vcan0 1B5#FF488F75BDE0FFEF
(1675526010.389445) vcan0 1D8#363339343234DF43
(1675526010.389666) vcan0 125#E51E80E5C1D0D735
(1675526010.389744) vcan0 1E0#0034234300B917E0
(1675526010.389966) vcan0 290#0000000000000000
(1675526010.390043) vcan0 2C0#468700000000A0F1
(1675526010.390266) vcan0 072#F000FF3F00788038
(1675526010.390342) vcan0 2C3#468700FFFFF75450
(1675526010.390640) vcan0 2C5#23D778E8B5E50070
(1675526010.391438) vcan0 008#3680340B0E800080
(1675526010.392453) vcan0 288#26E050AF00000080
(1675526010.393840) vcan0 010#008800002FB031F8
(1675526010.393929) vcan0 1D0#0000000000000261
(1675526010.396455) vcan0 0F5#3C9E419E7F7722D4
(1675526010.396678) vcan0 120#7E9E7B9E7F025689
(1675526010.397477) vcan0 130#EFFF1D661E9F0112
(1675526010.397698) vcan0 150#3E1E02D805F8C7C0
(1675526010.398572) vcan0 210#2BE080A0A869C54D
(1675526010.401102) vcan0 008#368044ED1C800080
(1675526010.402331) vcan0 0E0#627332E800800900
(1675526010.403420) vcan0 010#008800002FB031F8
(1675526010.404507) vcan0 072#F000FF3F0078A038
(1675526010.404728) vcan0 055#F6F71028B2989C80
(1675526010.407327) vcan0 065#BBE510F801DE4002
(1675526010.407551) vcan0 070#000007F83EE20F00
(1675526010.407700) vcan0 075#0000000000005458
(1675526010.407923) vcan0 080#2B508000C2002C00
(1675526010.408145) vcan0 0B0#52830FA3E0C152A3
(1675526010.408233) vcan0 145#F972D880FC4810A1
(1675526010.408526) vcan0 28C#000020000016FEA6
(1675526010.408677) vcan0 2B5#4BA02A6293A66E58
(1675526010.408827) vcan0 1B0#00C0000004B000FC
(1675526010.409049) vcan0 1B5#FF5BA27EC7E0FFEF
(1675526010.409145) vcan0 1D8#363339343234DF43
(1675526010.409347) vcan0 125#E51E80E5C1D0D735
(1675526010.409424) vcan0 1E0#0038134300B917E0
(1675526010.409647) vcan0 360#488700A6BD64A041
(1675526010.409797) vcan0 260#D0FF00AA497487B0
(1675526010.410961) vcan0 008#368054DD1C800080
(1675526010.413490) vcan0 010#008800002FB031F8
(1675526010.414578) vcan0 1D0#0000000000000061
(1675526010.414728) vcan0 291#0000000000000000
(1675526010.414951) vcan0 390#80FF0500021A596F
(1675526010.416038) vcan0 290#0000000000000000
(1675526010.417065) vcan0 0F5#419E4A9E7F7B12D6
(1675526010.417287) vcan0 120#889E669E7F035689
(1675526010.417510) vcan0 130#F7FF1D661E8FFF11
(1675526010.418452) vcan0 150#451E0CE805F8B0C0
(1675526010.418673) vcan0 288#2FE0609F00000080
(1675526010.418824) vcan0 072#F000FF3F00788038
(1675526010.421064) vcan0 008#348064DD0E800080
(1675526010.422150) vcan0 0E0#62733BF00080E000
(1675526010.423405) vcan0 010#008800002FB031F8
(1675526010.424637) vcan0 210#2BE08020A869C54D
(1675526010.424787) vcan0 2A9#8C260082C0000084
(1675526010.425008) vcan0 055#F6F70F28B2989C80
(1675526010.427464) vcan0 065#C1E510F805DE3F02
(1675526010.427543) vcan0 070#000007F83DE20F00
(1675526010.427837) vcan0 075#0000000000005458
(1675526010.427987) vcan0 080#2A508000C2002C00
(1675526010.428230) vcan0 0B0#52830FA3E0C152A3
(1675526010.428379) vcan0 145#F962D980FC4810A1
(1675526010.428530) vcan0 350#A200000000000080
(1675526010.428752) vcan0 1B0#00C0000002B000FC
(1675526010.428831) vcan0 1B5#FF6FB688D1E0FFEF
(1675526010.429054) vcan0 1D8#363339343234DF43
(1675526010.429142) vcan0 125#E51E80E5C1D0D735
(1675526010.429425) vcan0 1E0#0038130300B917E0
(1675526010.429504) vcan0 2C3#468700FFFFF85450
(1675526010.430016) vcan0 008#348074CD0E800080
(1675526010.432540) vcan0 010#008800002FB031F8
(1675526010.433919) vcan0 072#F000FF3F0078A038
(1675526010.434139) vcan0 1D0#0000000000000861
(1675526010.436594) vcan0 0F5#539E509E7F7F02D9
(1675526010.436817) vcan0 120#5D9E6C9E7F125689
(1675526010.436967) vcan0 130#FFFF1D661E7FFF11
(1675526010.437705) vcan0 150#511E0BF805F894C0
(1675526010.439006) vcan0 260#D0FF00AA497487B0
(1675526010.441605) vcan0 008#348084BD0E800080
(1675526010.441826) vcan0 0E0#627339F80080C200
(1675526010.442774) vcan0 288#22E0609F00000080
(1675526010.444077) vcan0 010#008800002FB031F8
(1675526010.444297) vcan0 291#0000000000000000
(1675526010.445241) vcan0 055#F6F70F28B2989C80
(1675526010.445464) vcan0 065#C0E50FF802DE3C02
(1675526010.448063) vcan0 070#000007F83DE20F00
(1675526010.448285) vcan0 075#0000000000005458
(1675526010.448435) vcan0 080#2A508000C2002C00
(1675526010.448657) vcan0 0B0#52830FA3E0C152A3
(1675526010.448880) vcan0 145#F952DA80FC4810A1
(1675526010.449030) vcan0 28C#000020000016FEA6
(1675526010.449251) vcan0 1B0#00C0000003B000FC
(1675526010.449483) vcan0 1B5#FF83CA92DBE0FFEF
(1675526010.449560) vcan0 1D8#363339343234DF43
(1675526010.449785) vcan0 125#E51E80E5C1D0D735
(1675526010.449862) vcan0 1E0#003C034300B917E0
(1675526010.450086) vcan0 290#0000000000000000
(1675526010.450235) vcan0 2B5#4BA02A6293A66F54
(1675526010.450456) vcan0 2C0#468700000000A0F1
(1675526010.450534) vcan0 072#F000FF3F00788038
(1675526010.450757) vcan0 210#2BE080A0A869C545
(1675526010.450836) vcan0 2C5#20D778E9C0E50070
(1675526010.451058) vcan0 330#B400000000000000
(1675526010.451135) vcan0 340#9A00000000000000
(1675526010.451429) vcan0 370#071FC0005E1BC71F
(1675526010.451507) vcan0 3AF#0000000000000020
(1675526010.451729) vcan0 3E0#000000D92E808092
(1675526010.451952) vcan0 008#348094AD0E800080
(1675526010.454708) vcan0 010#008800002FB031F8
(1675526010.454785) vcan0 1D0#0000000000000061
(1675526010.455800) vcan0 0F5#609E4D9E7F43F2DB
(1675526010.456887) vcan0 120#709E789E7F0C5689
(1675526010.456965) vcan0 130#87FF1D661E6FFF11
(1675526010.457981) vcan0 150#561E060804F87FC0
(1675526010.458057) vcan0 3CA#00000000D20000C8
(1675526010.460370) vcan0 008#3280A49F0E800080
(1675526010.461819) vcan0 0E0#627330C00080AB00
(1675526010.462980) vcan0 3C8#4687008E882C008E
(1675526010.463994) vcan0 010#008800002FB031F9
(1675526010.464216) vcan0 072#F000FF3F0078A038
(1675526010.464437) vcan0 2A9#8C26008AC0000084
(1675526010.466820) vcan0 055#F6F70F28B2989C80
(1675526010.467041) vcan0 065#BDE50FF800DE3A02
(1675526010.467265) vcan0 070#000007F83DE20F00
(1675526010.467425) vcan0 075#0000000000005458
(1675526010.467648) vcan0 080#2A508000C2002C00
(1675526010.467871) vcan0 0B0#52830FA3E0C152A3
(1675526010.467948) vcan0 145#F942DB80FC4810A1
(1675526010.468170) vcan0 1B0#00C0000004B000FC
(1675526010.468248) vcan0 1B5#FF96DD9CE4E0FFEF
(1675526010.468470) vcan0 1D8#363339343234DF43
(1675526010.468547) vcan0 125#E51E80E5C1D0D735
(1675526010.468840) vcan0 1E0#0000F34300B917E0
(1675526010.469353) vcan0 288#1AE0609F00000080
(1675526010.469431) vcan0 2C3#468700FFFFF85450
(1675526010.469652) vcan0 260#D0FF00AA497487B0
(1675526010.470377) vcan0 008#3280B48F0E800080
(1675526010.472983) vcan0 010#008800002FB031F8
(1675526010.474069) vcan0 1D0#0000000000000261
(1675526010.475514) vcan0 210#2BE080A0A869C54D
(1675526010.475602) vcan0 291#0000000000000000
(1675526010.475896) vcan0 290#0000000000000000
(1675526010.476623) vcan0 0F5#3E9E509E7F47E2DE
(1675526010.477925) vcan0 120#709E6C9E7F075689
(1675526010.478147) vcan0 130#8FFF1D661E5FFF11
(1675526010.478371) vcan0 150#471E041804F87EC0
(1675526010.478450) vcan0 072#F000FF3F00788038
(1675526010.479033) vcan0 3B0#00D8353840BCC400
(1675526010.481562) vcan0 008#3280C47F0E800080
(1675526010.482650) vcan0 0E0#627337C800808400
(1675526010.483995) vcan0 010#008800002FB031F8
(1675526010.485085) vcan0 055#F6F70F28B2989C80
(1675526010.485308) vcan0 065#B8E50FF8FDDD3A02
(1675526010.485528) vcan0 070#000007F83CE20F00
(1675526010.487915) vcan0 075#0000000000005458
(1675526010.488137) vcan0 080#2A508000C2002C00
(1675526010.488368) vcan0 0B0#52830FA3E0C152A3
(1675526010.488517) vcan0 145#F932DC80FC4810A1
(1675526010.488740) vcan0 28C#000020000016FEA6
(1675526010.488963) vcan0 2B5#4BA02A6293A67153
(1675526010.489040) vcan0 1B0#00C0000006B000FC
(1675526010.489263) vcan0 1B5#FFAAF1A6EEE0FFEF
(1675526010.489340) vcan0 1D8#363339343234DF43
(1675526010.489562) vcan0 125#E51E80E5C1D0D735
(1675526010.489711) vcan0 1E0#0000F30300B917E0
(1675526010.490582) vcan0 008#3280D46F0E800080
(1675526010.491596) vcan0 288#22E0609F00000080
(1675526010.494059) vcan0 010#008800002FB031F8
(1675526010.494281) vcan0 072#F000FF3F0078A038
(1675526010.494431) vcan0 1D0#0000000000000061
(1675526010.496599) vcan0 0F5#4A9E4A9E7F4BD2E0
(1675526010.496823) vcan0 120#4A9E6C9E7F105689
(1675526010.497056) vcan0 130#97FF1D661E4FFF11
(1675526010.497710) vcan0 150#4A1E092804F86BC0
(1675526010.499155) vcan0 210#2BE080A0A869C54D
(1675526010.499305) vcan0 260#D0FF0055497487B0
(1675526010.501690) vcan0 008#3280E45815800080
(1675526010.501912) vcan0 0E0#627338D000806300
(1675526010.502789) vcan0 010#008800002FB031F8
(1675526010.505746) vcan0 291#0000000000000000
(1675526010.505971) vcan0 2A9#8C260093C0000084
(1675526010.506120) vcan0 055#F6F70F28B2969C80
(1675526010.506343) vcan0 065#B9E50FF8FFDD3C02
(1675526010.506565) vcan0 070#000007F83CE20F00
(1675526010.506715) vcan0 075#0000000000005458
(1675526010.506938) vcan0 080#2A508000C2002C00
(1675526010.507089) vcan0 0B0#52830FA3E0C152A3
(1675526010.507238) vcan0 145#F922DD80FC4810A1
(1675526010.507470) vcan0 290#0000000000000000
(1675526010.507548) vcan0 2C0#468700000000A0F1
(1675526010.507770) vcan0 1B0#00C0000004B000FC
(1675526010.509722) vcan0 1B5#FFBE05AFF8E0FFEF
(1675526010.509944) vcan0 1D8#363339343234DF43
(1675526010.510096) vcan0 125#E51E80E5C1D0D735
(1675526010.510245) vcan0 1E0#0004E34300B917E0
(1675526010.510467) vcan0 2C3#468700FFFFF95450
(1675526010.510545) vcan0 2C5#1FD778E9B9E50070
(1675526010.510766) vcan0 072#F000FF3F00788038
(1675526010.510843) vcan0 360#488700A6BD64A041
(1675526010.511065) vcan0 008#3280F44815800080
(1675526010.513346) vcan0 010#008800002FB031F8
(1675526010.514507) vcan0 1D0#0000000000000861
(1675526010.514585) vcan0 390#80FF050002165A4F
(1675526010.515885) vcan0 350#A200000000000080
(1675526010.516911) vcan0 0F5#4A9E449E7F4FC2E3
(1675526010.517142) vcan0 120#729E729E7F055689
(1675526010.518364) vcan0 130#9FFF1D661E3FFF11
(1675526010.518585) vcan0 150#471E063804F85EC0
(1675526010.518736) vcan0 288#12E0708F00000080
(1675526010.520902) vcan0 008#3280043815800080
(1675526010.522060) vcan0 0E0#627334D800804700
(1675526010.523365) vcan0 010#008800002FB031F8
(1675526010.524453) vcan0 072#F000FF3F0078A038
(1675526010.524675) vcan0 210#2BE080A0A869C545
(1675526010.524825) vcan0 330#B400000000000000
(1675526010.527352) vcan0 3D0#870F6100661780C3
(1675526010.527574) vcan0 055#F6F70F28B2969C80
(1675526010.527795) vcan0 065#BBE50FF800DE3C02
(1675526010.528017) vcan0 070#000007F83BE20F00
(1675526010.528167) vcan0 075#0000000000005458
(1675526010.528398) vcan0 080#29508000C2002C00
(1675526010.528548) vcan0 0B0#52830FA3E0C152A3
(1675526010.528699) vcan0 145#F912DE80FC4810A1
(1675526010.528919) vcan0 1B0#00C0000001B000FC
(1675526010.528997) vcan0 1B5#FFD118B902E0FFEF
(1675526010.529220) vcan0 1D8#363339343234DF43
(1675526010.529298) vcan0 125#E51E80E5C1D0D735
(1675526010.529519) vcan0 1E0#0008D34300B917E0
(1675526010.529668) vcan0 28C#000020000016FEA6
(1675526010.529890) vcan0 2B5#4BA02A6293A67254
(1675526010.529968) vcan0 340#9A00000000000000
(1675526010.530191) vcan0 260#D0FF0055497487B0
(1675526010.530918) vcan0 008#3280142815800080
(1675526010.533375) vcan0 010#008800002FB031F8
(1675526010.534536) vcan0 1D0#0000000000000061
(1675526010.534759) vcan0 291#0000000000000000
(1675526010.534845) vcan0 290#0000000000000000
(1675526010.536941) vcan0 0F5#729E4A9E7F53B2E5
(1675526010.537163) vcan0 120#9E9E789E7F095689
(1675526010.537312) vcan0 130#A7FF1D721E230112
(1675526010.538327) vcan0 150#5E1E014804F837C0
(1675526010.538477) vcan0 072#F000FF3F00788038
(1675526010.540932) vcan0 008#3280241815800080
(1675526010.542022) vcan0 0E0#627338E000802300
(1675526010.543120) vcan0 288#0EE0708F00000080
(1675526010.544497) vcan0 010#008800002FB031F9
(1675526010.544645) vcan0 2A9#8C26008AC0000084
(1675526010.547460) vcan0 055#F6F70F28B2939C80
(1675526010.547683) vcan0 065#BEE50FF802DE3C02
(1675526010.547904) vcan0 070#000007F83AE20F00
(1675526010.548056) vcan0 075#0000000000005458
(1675526010.548277) vcan0 080#29508000C2002C00
(1675526010.548437) vcan0 0B0#52830FA3E0C152A3
(1675526010.548658) vcan0 145#F902DF80FC4810A1
(1675526010.548881) vcan0 1B0#00C0000007B000FC
(1675526010.549103) vcan0 1B5#FFE52CC30CE0FFEF
(1675526010.549180) vcan0 125#E51E80E5C1D0D735
(1675526010.549402) vcan0 1D8#363339343234DF43
(1675526010.549481) vcan0 1E0#0008D30300B917E0
(1675526010.549701) vcan0 2C3#468700FFFFF95450
(1675526010.549779) vcan0 370#071FC0005E1BC71F
(1675526010.550073) vcan0 210#2BE080A0A869C545
(1675526010.551088) vcan0 008#3280340815800080
(1675526010.553551) vcan0 010#008800002FB031F8
(1675526010.553774) vcan0 072#F000FF3F0078A038
(1675526010.554643) vcan0 1D0#0000000000000261
(1675526010.557171) vcan0 0F5#479E5D9E7F57A2E8
(1675526010.557392) vcan0 120#699E609E7F0D5689
(1675526010.557551) vcan0 130#AFFF1D691E1C0112
(1675526010.558493) vcan0 150#521E005804F833C0
(1675526010.559508) vcan0 260#D0FF0055497487B0
(1675526010.561962) vcan0 008#328044F815800080
(1675526010.562185) vcan0 0E0#627332E800800900
(1675526010.564715) vcan0 010#008800002FB031F8
(1675526010.564864) vcan0 291#0000000000000000
(1675526010.565086) vcan0 055#F6F70F28B2939C80
(1675526010.565308) vcan0 065#BEE50FF801DE3A02
(1675526010.565458) vcan0 070#000007F83AE20F00
(1675526010.565897) vcan0 075#0000000000005458
(1675526010.566046) vcan0 080#28508000C2002C00
(1675526010.566269) vcan0 0B0#52830FA3E0C152A3
(1675526010.566346) vcan0 145#F9F2D080FC4810A1
(1675526010.566567) vcan0 28C#000020000016FEA6
(1675526010.566933) vcan0 290#0000000000000000
(1675526010.567035) vcan0 1B0#00C0000007B000FC
(1675526010.567040) vcan0 1B5#FFF940CD15E0FFEF
(1675526010.569855) vcan0 1D8#363339343234DF43
(1675526010.570005) vcan0 125#E51E80E5C1D0D735
(1675526010.570227) vcan0 1E0#000CC34300B917E0
(1675526010.570306) vcan0 288#0EE0708F00000080
(1675526010.570528) vcan0 2B5#4BA12A6293A67453
(1675526010.570608) vcan0 2C0#468700000000A0F1
(1675526010.570902) vcan0 2C5#1DD778E9BEE50070
(1675526010.570978) vcan0 072#F000FF3F00788038
(1675526010.571199) vcan0 3AF#0000000000000020
(1675526010.571277) vcan0 008#328054E815800080
(1675526010.573503) vcan0 010#008800002FB031F8
(1675526010.573582) vcan0 1D0#0000000000000061
(1675526010.574597) vcan0 210#2BE08020A869C545
(1675526010.577054) vcan0 0F5#4D9E4D9E7F5B92EA
(1675526010.577221) vcan0 120#729E819E7F145689
(1675526010.577443) vcan0 130#B7FF1D691E0CFF11
(1675526010.578456) vcan0 150#4D1E026804F828C0
(1675526010.578680) vcan0 3CA#00000000D30000C8
(1675526010.581067) vcan0 008#328064D815800080
(1675526010.582227) vcan0 0E0#627335F00080E600
(1675526010.582378) vcan0 3C8#4687008E882C008E
(1675526010.583613) vcan0 010#008800002FB031F8
(1675526010.583762) vcan0 072#F000FF3F0078A038
(1675526010.584705) vcan0 2A9#8C260093C0000084
(1675526010.584855) vcan0 055#F6F70E28B2939C80
(1675526010.587601) vcan0 065#BEE50FF801DE3902
(1675526010.587825) vcan0 070#000007F839E20F00
(1675526010.588048) vcan0 075#0000000000005458
(1675526010.588270) vcan0 080#28508000C2002C00
(1675526010.588492) vcan0 0B0#52830FA3E0C152A3
(1675526010.588587) vcan0 145#F9E2D180FC4810A1
(1675526010.588882) vcan0 1B0#00C0000004B000FC
(1675526010.588957) vcan0 1B5#FF0D53D71FE0FFEF
(1675526010.589180) vcan0 1D8#363339343234DF43
(1675526010.589258) vcan0 1E0#0010B34300B917E0
(1675526010.589481) vcan0 125#E51E80E5C1D0D735
(1675526010.589632) vcan0 2C3#468700FFFFFA5450
(1675526010.589852) vcan0 260#D0FF00AA497487B0
(1675526010.591156) vcan0 008#328074C815800080
(1675526010.592460) vcan0 288#12E0708F00000080
(1675526010.593549) vcan0 010#008800002FB031F8
(1675526010.593772) vcan0 1D0#0000000000000861
(1675526010.594641) vcan0 291#0000000000000000
(1675526010.594864) vcan0 290#0000000000000000
(1675526010.597106) vcan0 0F5#479E479E7F5F82EC
(1675526010.597328) vcan0 120#8B9E669E7F0C5689
(1675526010.597563) vcan0 130#BFFF1D691EFCFF11
(1675526010.598506) vcan0 150#471E047804F81EC0
(1675526010.598728) vcan0 072#F000FF3F00788038
(1675526010.598877) vcan0 210#2BE080A0A869C54D
(1675526010.599029) vcan0 3B0#00D8353840BCC400
(1675526010.601135) vcan0 008#328084CD00800080
(1675526010.602212) vcan0 0E0#627336F80080C500
(1675526010.603444) vcan0 010#008800002FB031F8
(1675526010.604605) vcan0 330#B400000000000000
(1675526010.604828) vcan0 055#F6F70E28B2919C80
(1675526010.607429) vcan0 065#B9E50EF8FEDD3902
(1675526010.607651) vcan0 070#000007F839E20F00
(1675526010.607874) vcan0 075#0000000000005458
(1675526010.608025) vcan0 080#28508000C2002C00
(1675526010.608247) vcan0 0B0#52830FA3E0C152A3
(1675526010.608471) vcan0 145#F9D2D280FC4810A1
(1675526010.608562) vcan0 28C#000020000016FEA6
(1675526010.608857) vcan0 2B5#4BA12A6293A67551
(1675526010.608934) vcan0 1B0#00C0000001B000FC
(1675526010.609154) vcan0 1B5#FF2067E029E0FFEF
(1675526010.609234) vcan0 1D8#363339343234DF43
(1675526010.609454) vcan0 125#E51E80E5C1D0D735
(1675526010.609605) vcan0 1E0#0010B30300B917E0
(1675526010.609828) vcan0 340#9A00000000000000
(1675526010.609906) vcan0 350#A200000000000080
(1675526010.610127) vcan0 360#488700A6BD64A041
(1675526010.611071) vcan0 008#328094BD00800080
(1675526010.613599) vcan0 010#008800002FB031F8
(1675526010.613820) vcan0 072#F000FF3F0078A038
(1675526010.614692) vcan0 1D0#0000000000000061
(1675526010.614915) vcan0 390#80FF050002125B4F
(1675526010.616077) vcan0 0F5#479E4A9E7F6372EF
(1675526010.617245) vcan0 120#729E759E7F085689
(1675526010.617467) vcan0 130#C7FF1D691EECFF11
(1675526010.618555) vcan0 150#481E048803F80DC0
(1675526010.618777) vcan0 288#0AE0807F00000080
(1675526010.618999) vcan0 260#D0FF00AA497487B0
(1675526010.621239) vcan0 008#3280A4AD00800080
(1675526010.622327) vcan0 0E0#62732FC00080AC00
(1675526010.623559) vcan0 010#008800002FB031F9
(1675526010.623781) vcan0 210#2BE080A0A869C54D
(1675526010.624653) vcan0 291#0000000000000000
(1675526010.624875) vcan0 2A9#8C26008AC0000084
(1675526010.625096) vcan0 055#F6F70E28B2919C80
(1675526010.627552) vcan0 065#B8E50EF8FDDD3902
(1675526010.627773) vcan0 070#000007F839E20F00
(1675526010.627995) vcan0 075#0000000000005458
(1675526010.628146) vcan0 080#27508000C2002C00
(1675526010.628386) vcan0 0B0#52830FA3E0C152A3
(1675526010.628463) vcan0 145#F9C2D380FC4810A1
(1675526010.628686) vcan0 290#0000000000000000
(1675526010.628763) vcan0 1B0#00C0000001B000FC
(1675526010.628985) vcan0 1B5#FF347BEA33E0FFEF
(1675526010.629140) vcan0 1D8#363339343234DF43
(1675526010.629357) vcan0 125#E51E80E5C1D0D735
(1675526010.629436) vcan0 1E0#0014A34300B917E0
(1675526010.629658) vcan0 2C0#468700000000A0F1
(1675526010.629735) vcan0 2C3#468700FFFFFA5450
(1675526010.629958) vcan0 2C5#1DD778E9BAE50070
(1675526010.630108) vcan0 072#F000FF3F00788038
(1675526010.631197) vcan0 008#3280B49D00800080
(1675526010.633655) vcan0 581#FFFFFFFFFFFF0081
(1675526010.635246) vcan0 010#008800002FB031F8
(1675526010.635469) vcan0 1D0#0000000000000261
(1675526010.635633) vcan0 400#010102010102010C
(1675526010.635784) vcan0 405#48314C3437564D11
(1675526010.636296) vcan0 0F5#399E4A9E7F6762F1
(1675526010.636373) vcan0 120#849E849E7F135689
(1675526010.637389) vcan0 130#CFFF1D691EDCFD11
(1675526010.637611) vcan0 150#411EFF9703F804C0
(1675526010.641222) vcan0 008#3280C48D00800080
(1675526010.642381) vcan0 0E0#627326C800809500
(1675526010.642604) vcan0 288#0EE0807F00000080
(1675526010.644851) vcan0 055#F6F70E28B2919C80
(1675526010.645074) vcan0 065#B9E50EF8FFDD3902
(1675526010.647746) vcan0 070#000007F838E20F00
(1675526010.647969) vcan0 075#0000000000005458
(1675526010.648192) vcan0 080#27508000C2002C00
(1675526010.648341) vcan0 010#008800002FB031F8
(1675526010.648564) vcan0 072#F000FF3F0078A038
(1675526010.648727) vcan0 0B0#52830FA3E0C152A3
(1675526010.648950) vcan0 145#F9B2D480FC4810A1
(1675526010.649170) vcan0 1B0#00C0000003B000FC
(1675526010.649393) vcan0 1B5#FF488FF43CE0FFEF
(1675526010.649542) vcan0 1D8#363339343234DF43
(1675526010.649620) vcan0 125#E51E80E5C1D0D735
(1675526010.649914) vcan0 1E0#0018934300B917E0
(1675526010.649995) vcan0 28C#000020000016FEA6
(1675526010.650214) vcan0 2B5#4BA12A6293A67552
(1675526010.650293) vcan0 370#071FC0005E1BC71F
(1675526010.650515) vcan0 260#D0FF00AA497487B0
(1675526010.650593) vcan0 210#2BE080A0A869C545
(1675526010.651321) vcan0 008#3280D47D00800080
(1675526010.653854) vcan0 010#008800002FB031F8
(1675526010.654868) vcan0 1D0#0000000000000061
(1675526010.655091) vcan0 290#0000000000000000
(1675526010.655249) vcan0 291#0000000000000000
(1675526010.656193) vcan0 0F5#4D9E479E7F6B52F4
(1675526010.657281) vcan0 120#709E709E7F045689
(1675526010.657503) vcan0 130#D7FF1D691ECCFD11
(1675526010.657724) vcan0 150#4A1E00A803F8EBC0
(1675526010.658595) vcan0 072#F000FF3F00788038
(1675526010.661196) vcan0 008#3280E46D00800080
(1675526010.662284) vcan0 0E0#62732ED000806D00
(1675526010.663663) vcan0 010#008800002FB031F8
(1675526010.663812) vcan0 2A9#8C260082C0000084
(1675526010.664757) vcan0 055#F6F70E28B28F9C80
(1675526010.664835) vcan0 065#BBE50EF801DE3902
(1675526010.667434) vcan0 070#000007F838E20F00
(1675526010.667657) vcan0 075#0000000000005458
(1675526010.667806) vcan0 080#27508000C2002C00
(1675526010.668028) vcan0 0B0#52830FA3E0C152A3
(1675526010.668190) vcan0 145#F9A2D580FC4810A1
(1675526010.668413) vcan0 1B0#00C0000008B000FC
(1675526010.668634) vcan0 1B5#FF5BA2FE46E0FFEF
(1675526010.668711) vcan0 1D8#363339343234DF43
(1675526010.668935) vcan0 125#E51E80E5C1D0D735
(1675526010.669012) vcan0 1E0#0018930300B917E0
(1675526010.669234) vcan0 288#12E0807F00000080
(1675526010.669385) vcan0 2C3#468700FFFFFB5450
(1675526010.671048) vcan0 008#3280F45D00800080
(1675526010.673440) vcan0 010#008800002FB031F8
(1675526010.674525) vcan0 072#F000FF3F0078A038
(1675526010.674747) vcan0 1D0#0000000000000861
(1675526010.674969) vcan0 210#2BE080A0A869C54D
(1675526010.677065) vcan0 0F5#449E3C9E7F6F42F6
(1675526010.677287) vcan0 120#509E709E7F0B5689
(1675526010.677509) vcan0 130#DFFF1D691EBCFF11
(1675526010.678462) vcan0 150#3F1E00B803F8E6C0
(1675526010.679550) vcan0 260#D0FF00AA497487B0
(1675526010.682080) vcan0 008#3280044D00800080
(1675526010.682229) vcan0 0E0#627324D800805700
(1675526010.684982) vcan0 010#008800002FB031F8
(1675526010.685204) vcan0 291#0000000000000000
(1675526010.685355) vcan0 330#B400000000000000
(1675526010.685576) vcan0 425#0000000000000000
(1675526010.685798) vcan0 055#F6F70E28B28D9C80
(1675526010.685948) vcan0 065#BAE50EF800DE3802
(1675526010.686172) vcan0 070#000007F837E20F00
(1675526010.686394) vcan0 075#0000000000005458
(1675526010.686471) vcan0 080#26508000C2002C00
(1675526010.686692) vcan0 0B0#52830FA3E0C152A3
(1675526010.686771) vcan0 145#F992D680FC4810A1
(1675526010.687066) vcan0 28C#000020000016FEA6
(1675526010.687152) vcan0 1B0#00C0000004B000FC
(1675526010.687375) vcan0 1B5#FF6FB60750E0FFEF
(1675526010.687453) vcan0 1D8#363339343234DF43
(1675526010.688610) vcan0 125#E51E80E5C1D0D735
(1675526010.688614) vcan0 1E0#001C834300B917E0
(1675526010.688691) vcan0 290#0000000000000000
(1675526010.688769) vcan0 2B5#4BA12A6293A67651
(1675526010.689206) vcan0 2C0#468700000000A0F1
(1675526010.689285) vcan0 072#F000FF3F00788038
(1675526010.689506) vcan0 2C5#1BD778EABAE50070
(1675526010.689584) vcan0 340#9900000000000000
(1675526010.689808) vcan0 3AF#0000000000000020
(1675526010.691109) vcan0 008#3280143D00800080
(1675526010.692195) vcan0 288#1EE0807F00000080
(1675526010.694799) vcan0 010#008800002FB031F8
(1675526010.695021) vcan0 1D0#0000000000000061
(1675526010.695255) vcan0 350#A200000000000080
(1675526010.695984) vcan0 0F5#339E3C9E7F7332F9
(1675526010.697074) vcan0 120#7E9E729E7FFF5589
(1675526010.697295) vcan0 130#E7FF1D691EACFF11
(1675526010.697445) vcan0 150#371E01C803F8DEC0
(1675526010.697595) vcan0 3CA#00000000D40000C8
(1675526010.698466) vcan0 210#2BE080A0A869C54D
(1675526010.701066) vcan0 008#3280242D00800080
(1675526010.702154) vcan0 0E0#62731AE000804100
(1675526010.702375) vcan0 3C8#4687008E882C008E
(1675526010.703467) vcan0 010#008800002FB031F9
(1675526010.703618) vcan0 072#F000FF3F0078A038
(1675526010.704634) vcan0 2A9#8C26009BC0000084
(1675526010.707449) vcan0 055#F6F70D28B28C9C80
(1675526010.707599) vcan0 065#B8E50EF8FFDD3702
(1675526010.707822) vcan0 070#000007F836E20F00
(1675526010.707997) vcan0 075#0000000000005458
(1675526010.708222) vcan0 080#25508000C2002C00
(1675526010.708443) vcan0 0B0#52830FA3E0C152A3
(1675526010.708594) vcan0 145#F982D780FC4810A1
(1675526010.708745) vcan0 1B0#00C0000003B000FC
(1675526010.708968) vcan0 1B5#FF83CA115AE0FFEF
(1675526010.709045) vcan0 1D8#363339343234DF43
(1675526010.709266) vcan0 125#E51E80E5C1D0D735
(1675526010.709345) vcan0 1E0#0020734300B917E0
(1675526010.709639) vcan0 2C3#468700FFFFFB5450
(1675526010.709720) vcan0 360#488700A6BD64A041
(1675526010.709940) vcan0 260#D0FF0055497487B0
(1675526010.711027) vcan0 008#3280341D00800080
(1675526010.713702) vcan0 010#008800002FB031F8
(1675526010.713779) vcan0 1D0#0000000000000261
(1675526010.714798) vcan0 291#0000000000000000
(1675526010.715028) vcan0 290#0000000000000000
(1675526010.715250) vcan0 390#80FF0500020E5C4F
(1675526010.716193) vcan0 0F5#509E3E9E7F7722FB
(1675526010.717354) vcan0 120#849E6C9E7F085689
(1675526010.717503) vcan0 130#EFFF1D691E9CFF11
(1675526010.717727) vcan0 150#471E02D803F8BEC0
(1675526010.718742) vcan0 288#0AE0906F00000080
(1675526010.718964) vcan0 072#F000FF3F00788038
(1675526010.719114) vcan0 3B0#00D8353840BCC400
(1675526010.721353) vcan0 008#3280440D00800080
(1675526010.722439) vcan0 0E0#62731CE800801F00
(1675526010.723696) vcan0 010#008800002FB031F8
(1675526010.723919) vcan0 210#2BE08020A869C545
(1675526010.724140) vcan0 3D0#870F6100661780C3
(1675526010.724794) vcan0 055#F6F70D28B2889C80
(1675526010.725017) vcan0 065#B9E50EF800DE3602
(1675526010.727768) vcan0 070#000007F835E20F00
(1675526010.727919) vcan0 075#0000000000005458
(1675526010.728141) vcan0 080#24508000C2002C00
(1675526010.728363) vcan0 0B0#52830FA3E0C152A3
(1675526010.728513) vcan0 145#F972D880FC4810A1
(1675526010.728591) vcan0 28C#000020000016FEA6
(1675526010.728887) vcan0 2B5#4BA12A6293A6764F
(1675526010.728964) vcan0 1B0#00C0000005B000FC
(1675526010.729185) vcan0 1B5#FF96DD1B64E0FFEF
(1675526010.729263) vcan0 1D8#363339343234DF43
(1675526010.729486) vcan0 125#E51E80E5C1D0D735
(1675526010.729562) vcan0 1E0#0020730300B917E0
(1675526010.729785) vcan0 430#4A084C00000017A6
(1675526010.731306) vcan0 008#328054FD00800080
(1675526010.733838) vcan0 010#008800002FB031F8
(1675526010.733988) vcan0 072#F000FF3F0078A038
(1675526010.734222) vcan0 1D0#0000000000000061
(1675526010.736323) vcan0 0F5#2F9E4A9E7F7B12FE
(1675526010.737409) vcan0 120#759E669E7F055689
(1675526010.737631) vcan0 130#F7FF1D691E8CFF11
(1675526010.737782) vcan0 150#3C1EFFE703F8B9C0
(1675526010.738652) vcan0 260#D0FF0055497487B0
(1675526010.741398) vcan0 008#328064ED00800080
(1675526010.742487) vcan0 0E0#627312F000800900
(1675526010.742635) vcan0 288#0EE0906F00000080
(1675526010.743799) vcan0 010#008800002FB031F8
(1675526010.744020) vcan0 291#0000000000000000
(1675526010.744892) vcan0 2A9#8C260082C0000084
(1675526010.745116) vcan0 055#F6F70D28B2869C80
(1675526010.747788) vcan0 065#B9E50DF802DE3502
(1675526010.748011) vcan0 070#000007F833E20F00
(1675526010.748232) vcan0 075#0000000000005458
(1675526010.748392) vcan0 080#23508000C2002C00
(1675526010.748615) vcan0 0B0#52830FA3E0C152A3
(1675526010.748836) vcan0 145#F962D980FC4810A1
(1675526010.748986) vcan0 290#0000000000000000
(1675526010.749063) vcan0 1B0#00C0000006B000FC
(1675526010.749358) vcan0 1B5#FFAAF1256DE0FFEF
(1675526010.749436) vcan0 1D8#363339343234DF43
(1675526010.749659) vcan0 125#E51E80E5C1D0D735
(1675526010.749736) vcan0 1E0#0024634300B917E0
(1675526010.749959) vcan0 2C0#468700000000A0F1
(1675526010.750108) vcan0 2C3#468700FFFFFB5450
(1675526010.750331) vcan0 2C5#1AD778EAB9E50070
(1675526010.750410) vcan0 370#071FC0005E1BC71F
(1675526010.750632) vcan0 072#F000FF3F00788038
(1675526010.750711) vcan0 210#2BE080A0A869C545
(1675526010.750931) vcan0 3E0#000000D92E808092
(1675526010.751017) vcan0 008#328074DD00800080
(1675526010.752904) vcan0 010#008800002FB031F8
(1675526010.754065) vcan0 1D0#0000000000000061
(1675526010.756453) vcan0 0F5#399E3C9E7F7F0200
(1675526010.757756) vcan0 120#6C9E759E7F015689
(1675526010.757907) vcan0 130#FFFF1D691E7CFF11
(1675526010.758129) vcan0 150#3A1E00F803F8ABC0
(1675526010.760298) vcan0 008#328084CD00800080
(1675526010.761386) vcan0 0E0#627315F80080E600
(1675526010.763849) vcan0 010#008800002FB031F8
(1675526010.766742) vcan0 072#F000FF3F0078A038
(1675526010.766964) vcan0 330#B400000000000000
(1675526010.767113) vcan0 055#F6F70C28B2819C80
(1675526010.767335) vcan0 065#B5E50DF8FFDD3302
(1675526010.767558) vcan0 070#000007F830E20F00
(1675526010.767709) vcan0 075#0000000000005458
(1675526010.767953) vcan0 080#21508000C2002C00
(1675526010.768102) vcan0 0B0#52830FA3E0C152A3
(1675526010.768324) vcan0 145#F952DA80FC4810A1
(1675526010.768547) vcan0 28C#000020000016FEA6
(1675526010.768696) vcan0 2B5#4BA12A6293A6774C
(1675526010.768847) vcan0 1B0#00C0000002B000FC
(1675526010.769069) vcan0 1B5#FFBE052F77E0FFEF
(1675526010.769147) vcan0 1D8#363339343234DF43
(1675526010.769369) vcan0 125#E51E80E5C1D0D735
(1675526010.769447) vcan0 1E0#0028534300B917E0
(1675526010.769668) vcan0 288#26E0906F00000080
(1675526010.769746) vcan0 340#9900000000000000
(1675526010.770041) vcan0 260#D0FF0055497487B0
(1675526010.770336) vcan0 008#328094BD00800080
(1675526010.773021) vcan0 010#008800002FB031F8
(1675526010.773966) vcan0 1D0#0000000000000861
(1675526010.775353) vcan0 210#2BE080A0A869C545
(1675526010.775576) vcan0 291#0000000000000000
(1675526010.775798) vcan0 290#0000000000000000
(1675526010.776814) vcan0 0F5#399E399E7F43F203
(1675526010.777040) vcan0 120#609E5D9E7F0C5689
(1675526010.777262) vcan0 130#87FF1D601E75FD11
(1675526010.777341) vcan0 150#391E080803F89CC0
(1675526010.777923) vcan0 072#F000FF3F00788038
(1675526010.780380) vcan0 008#3280A4AD00800080
(1675526010.781826) vcan0 0E0#627313C00080C800
(1675526010.782919) vcan0 010#008800002FB031F9
(1675526010.784151) vcan0 2A9#8C26009BC0000084
(1675526010.786895) vcan0 055#F6F70C28B27F9C80
(1675526010.787116) vcan0 065#B5E50CF8FFDD3102
(1675526010.787339) vcan0 070#000007F82FE20F00
(1675526010.787490) vcan0 075#0000000000005458
(1675526010.787722) vcan0 080#20508000C2002C00
(1675526010.787945) vcan0 0B0#52830FA3E0C152A3
(1675526010.788165) vcan0 145#F942DB80FC4810A1
(1675526010.788315) vcan0 350#A200000000000080
(1675526010.788537) vcan0 1B0#00C0000003B000FC
(1675526010.788617) vcan0 1B5#FFD2183881E0FFEF
(1675526010.788838) vcan0 1D8#363339343234DF43
(1675526010.788988) vcan0 125#E51B80E5C1D0D735
(1675526010.789210) vcan0 1E0#0028530300B917E0
(1675526010.789288) vcan0 2C3#468700FFFFFC5450
(1675526010.790517) vcan0 008#3280B49D00800080
(1675526010.792977) vcan0 288#16E0906F00000080
(1675526010.794062) vcan0 010#008800002FB031F8
(1675526010.794211) vcan0 072#F000FF3F0078A038
(1675526010.794434) vcan0 1D0#0000000000000261
(1675526010.796458) vcan0 0F5#449E3C9E7F47E205
(1675526010.797848) vcan0 120#789E709E7F055689
(1675526010.797997) vcan0 130#8FFF1D601E65FA11
(1675526010.798222) vcan0 150#3F1E081803F886C0
(1675526010.798945) vcan0 210#2BE080A0A869C54D
(1675526010.799023) vcan0 260#D0FF00AA497487B0
(1675526010.801481) vcan0 008#3280C48D00800080
(1675526010.802570) vcan0 0E0#627312C80080A900
(1675526010.803874) vcan0 010#008800002FB031F8
(1675526010.804096) vcan0 291#0000000000000000
(1675526010.804970) vcan0 055#F6F70B28B27D9C80
(1675526010.805119) vcan0 065#B6E50CF800DE3002
(1675526010.805340) vcan0 070#000007F82EE20F00
(1675526010.807795) vcan0 075#0000000000005458
(1675526010.808017) vcan0 080#20508000C2002C00
(1675526010.808240) vcan0 0B0#52830EA3E0C152A3
(1675526010.808389) vcan0 145#F932DC80FC4810A1
(1675526010.808622) vcan0 28C#000020000016FEA6
(1675526010.808699) vcan0 290#0000000000000000
(1675526010.808922) vcan0 1B0#00C0000002B000FC
(1675526010.809000) vcan0 1B5#FFE52C428BE0FFEF
(1675526010.809220) vcan0 125#E51B80E5C1D0D735
(1675526010.809372) vcan0 1D8#363339343234DF43
(1675526010.809592) vcan0 1E0#002C434300B917E0
(1675526010.809671) vcan0 2B5#4BA22A6293A6774A
(1675526010.809894) vcan0 2C0#468700000000A0F1
(1675526010.809972) vcan0 072#F000FF3F00788038
(1675526010.810264) vcan0 2C5#18D778EAB6E50070
(1675526010.810344) vcan0 360#488700A6BD64A041
(1675526010.810565) vcan0 3AF#0000000000000020
(1675526010.811437) vcan0 008#3280D47D00800080
(1675526010.813906) vcan0 010#008800002FB031F8
(1675526010.813984) vcan0 1D0#0000000000000061
(1675526010.814216) vcan0 390#80FF0500020A5D4F
(1675526010.816460) vcan0 0F5#4D9E479E7F4BD208
(1675526010.816611) vcan0 120#849E6C9E7F035689
(1675526010.817629) vcan0 130#97FF1D601E55FA11
(1675526010.817778) vcan0 150#4A1E042803F86BC0
(1675526010.818001) vcan0 3CA#00000000D50000C8
(1675526010.818945) vcan0 288#12E0A05F00000080
(1675526010.821544) vcan0 008#3280E46D00800080
(1675526010.821694) vcan0 0E0#62730CD000808F00
(1675526010.822566) vcan0 3C8#4687008E882C008E
(1675526010.823728) vcan0 010#008800002FB031F8
(1675526010.826615) vcan0 072#F000FF3F0078A038
(1675526010.826838) vcan0 210#2BE080A0A869C54D
(1675526010.826917) vcan0 2A9#8C260082C0000084
(1675526010.827212) vcan0 055#F6F70B28B27D9C80
(1675526010.827433) vcan0 065#B9E50CF801DE2F02
(1675526010.827520) vcan0 070#000007F82EE20F00
(1675526010.827817) vcan0 075#0000000000005458
(1675526010.827967) vcan0 080#1F508000C2002C00
(1675526010.828045) vcan0 0B0#52830FA3E0C152A3
(1675526010.828339) vcan0 145#F922DD80FC4810A1
(1675526010.828417) vcan0 1B0#00C0000004B000FC
(1675526010.828639) vcan0 1B5#FFF9404C94E0FFEF
(1675526010.828717) vcan0 1D8#363339343234DF43
(1675526010.828939) vcan0 125#E51B80E5C1D0D735
(1675526010.829017) vcan0 1E0#0030334300B917E0
(1675526010.829312) vcan0 2C3#468700FFFFFC5450
(1675526010.829390) vcan0 260#D0FF00AA497487B0
(1675526010.831699) vcan0 008#3280F45D00800080
(1675526010.834088) vcan0 010#008800002FB031F8
(1675526010.834240) vcan0 1D0#0000000000000861
(1675526010.834461) vcan0 291#0000000000000000
(1675526010.835124) vcan0 290#0000000000000000
(1675526010.836500) vcan0 0F5#369E449E7F4FC20A
(1675526010.836723) vcan0 120#4A9E709E7F085689
(1675526010.837521) vcan0 130#9FFF1D601E45FA11
(1675526010.837743) vcan0 150#3C1E013803F869C0
(1675526010.839045) vcan0 072#F000FF3F00788038
(1675526010.839194) vcan0 3B0#00FC193840BCC400
(1675526010.841580) vcan0 008#3280044D00800080
(1675526010.841803) vcan0 0E0#627319D800806200
(1675526010.842680) vcan0 288#16E0A05F00000080
(1675526010.844129) vcan0 010#008800002FB031F8
(1675526010.844351) vcan0 330#B400000000000000
(1675526010.845221) vcan0 055#F6F70B28B27D9C80
(1675526010.845372) vcan0 065#BAE50BF802DE2E02
(1675526010.845592) vcan0 070#000007F82DE20F00
(1675526010.848120) vcan0 075#0000000000005458
(1675526010.848220) vcan0 080#1F508000C2002C00
(1675526010.848514) vcan0 0B0#52830FA3E0C152A3
(1675526010.848664) vcan0 145#F912DE80FC4810A1
(1675526010.848886) vcan0 28C#000020000016FEA6
(1675526010.848966) vcan0 1B0#00C0000005B000FC
(1675526010.849186) vcan0 1B5#FF0D53569EE0FFEF
(1675526010.849264) vcan0 1D8#363339343234DF43
(1675526010.849557) vcan0 125#E51B80E5C1D0D735
(1675526010.849635) vcan0 1E0#0030330300B917E0
(1675526010.849858) vcan0 2B5#4BA22A6293A67748
(1675526010.849935) vcan0 340#9900000000000000
(1675526010.850158) vcan0 370#071FC0005E1BC71F
(1675526010.850308) vcan0 210#2BE080A0A869C545
(1675526010.850675) vcan0 008#3280143D00800080
(1675526010.853211) vcan0 010#008800002FB031F8
(1675526010.854298) vcan0 072#F000FF3F0078A038
(1675526010.854457) vcan0 1D0#0000000000000061
(1675526010.856627) vcan0 0F5#119E449E7F53B20C
(1675526010.858005) vcan0 120#669E709E7F0C5689
(1675526010.858229) vcan0 130#A7FF1D601E35FA11
(1675526010.858379) vcan0 150#2B1E024803F86AC0
(1675526010.859105) vcan0 260#D0FF00AA497487B0
(1675526010.861416) vcan0 008#3280242D00800080
(1675526010.861639) vcan0 0E0#627312E000804900
(1675526010.864100) vcan0 010#008800002FB031F9
(1675526010.864249) vcan0 291#0000000000000000
(1675526010.864471) vcan0 2A9#8C26008AC0000084
(1675526010.864694) vcan0 055#F6F70B28B27D9C80
(1675526010.865204) vcan0 065#B9E50BF800DE2D02
(1675526010.865281) vcan0 070#000007F82DE20F00
(1675526010.865575) vcan0 075#0000000000005458
(1675526010.869331) vcan0 080#1F508000C2002C00
(1675526010.869492) vcan0 0B0#52830FA3E0C152A3
(1675526010.869714) vcan0 145#F902DF80FC4810A1
(1675526010.869936) vcan0 290#0000000000000000
(1675526010.870088) vcan0 2C0#468700000000A0F1
(1675526010.870311) vcan0 1B0#00C0000006B000FC
(1675526010.870532) vcan0 1B5#FF20675FA8E0FFEF
(1675526010.870610) vcan0 125#E51B80E5C1D0D735
(1675526010.870831) vcan0 1D8#363339343234DF43
(1675526010.870908) vcan0 1E0#0034234300B917E0
(1675526010.871128) vcan0 288#0EE0A05F00000080
(1675526010.871279) vcan0 2C3#468700FFFFFD5450
(1675526010.871500) vcan0 2C5#18D778EABAE50070
(1675526010.871579) vcan0 072#F000FF3F00788038
(1675526010.871800) vcan0 008#3280341D00800080
(1675526010.873193) vcan0 010#008800002FB031F8
(1675526010.874065) vcan0 1D0#0000000000000261
(1675526010.875454) vcan0 210#2BE08020A869C54D
(1675526010.875534) vcan0 350#A200000000000080
(1675526010.876622) vcan0 0F5#3C9E399E7F57A20F
(1675526010.877925) vcan0 120#639E5D9E7F085689
(1675526010.878146) vcan0 130#AFFF1D601E25FF11
(1675526010.878367) vcan0 150#3A1E025803F84BC0
(1675526010.880611) vcan0 008#3280440D00800080
(1675526010.881699) vcan0 0E0#627305E800803600
(1675526010.884232) vcan0 010#008800002FB031F8
(1675526010.884382) vcan0 072#F000FF3F0078A038
(1675526010.884605) vcan0 400#010102010101010D
(1675526010.887132) vcan0 405#D507529745186701
(1675526010.887353) vcan0 055#F6F70B28B27D9C80
(1675526010.887504) vcan0 065#B6E50BF8FEDD2D02
(1675526010.887726) vcan0 070#000007F82DE20F00
(1675526010.887949) vcan0 075#0000000000005458
(1675526010.888109) vcan0 080#1F508000C2002C00
(1675526010.888332) vcan0 0B0#52830FA3E0C152A3
(1675526010.888552) vcan0 145#F9F2D080FC4810A1
(1675526010.888631) vcan0 28C#000020000016FEA6
(1675526010.888851) vcan0 2B5#4BA22A6293A67847
(1675526010.889001) vcan0 1B0#00C0000007B000FC
(1675526010.889225) vcan0 1B5#FF347B69B2E0FFEF
(1675526010.889302) vcan0 1D8#363339343234DF43
(1675526010.889524) vcan0 125#E51880E5C1D0D735
(1675526010.889602) vcan0 1E0#0038134300B917E0
(1675526010.889823) vcan0 260#D0FF0055497487B0
(1675526010.890693) vcan0 008#328054FD00800080
(1675526010.893081) vcan0 288#02E0A05F00000080
(1675526010.894095) vcan0 010#008800002FB031F8
(1675526010.894317) vcan0 1D0#0000000000000061
(1675526010.894540) vcan0 291#0000000000000000
(1675526010.895637) vcan0 290#0000000000000000
(1675526010.896654) vcan0 0F5#539E3C9E7F5B9211
(1675526010.898102) vcan0 120#699E639E7F005689
(1675526010.898324) vcan0 130#B7FF1D631E12FF11
(1675526010.898544) vcan0 150#471EFE6703F82EC0
(1675526010.898768) vcan0 072#F000FF3F00788038
(1675526010.899208) vcan0 210#2BE080A0A869C54D
(1675526010.901734) vcan0 008#328064ED00800080
(1675526010.901883) vcan0 0E0#627306F000801500
(1675526010.904559) vcan0 010#008800002FB031F8
(1675526010.904781) vcan0 2A9#8C260093C0000084
(1675526010.904933) vcan0 055#F6F70B28B27B9C80
(1675526010.905153) vcan0 065#BBE50BF800DE2D02
(1675526010.905737) vcan0 070#000007F82CE20F00
(1675526010.905958) vcan0 075#0000000000005458
(1675526010.906114) vcan0 080#1E508000C2002C00
(1675526010.906202) vcan0 0B0#52830FA3E0C152A3
(1675526010.906497) vcan0 145#F9E2D180FC4810A1
(1675526010.906862) vcan0 1B0#00C000000AB000FC
(1675526010.906941) vcan0 1B5#FF488E73BCE0FFEF
(1675526010.907163) vcan0 1D8#363339343234DF43
(1675526010.908176) vcan0 125#E51880E5C1D0D735
(1675526010.908253) vcan0 1E0#0038130300B917E0
(1675526010.908331) vcan0 2C3#468700FFFFFD5450
(1675526010.908624) vcan0 360#488700A6BD64A041
(1675526010.910792) vcan0 008#328074DD00800080
(1675526010.913324) vcan0 010#008800002FB031F8
(1675526010.914485) vcan0 072#F000FF3F0078A038
(1675526010.914709) vcan0 1D0#0000000000000861
(1675526010.915869) vcan0 390#80FF050002065E4F
(1675526010.917031) vcan0 0F5#0E9E539E7F5F8214
(1675526010.917254) vcan0 120#709E609E7F025689
(1675526010.918279) vcan0 130#BFFF1D631E02FF11
(1675526010.918503) vcan0 150#311EFE7703F834C0
(1675526010.918723) vcan0 288#22E0B04F00000080
(1675526010.919451) vcan0 260#D0FF0055497487B0
(1675526010.921982) vcan0 008#328084CD00800080
(1675526010.922132) vcan0 0E0#E27304F80080F700
(1675526010.924876) vcan0 010#008800002FB031F8
(1675526010.925098) vcan0 210#2BE080A0A869C545
(1675526010.925321) vcan0 291#0000000000000000
(1675526010.925398) vcan0 330#B400000000000000
(1675526010.925693) vcan0 3D0#870F6100661780C3
(1675526010.925843) vcan0 055#F6F70B28B27B9C80
(1675526010.926064) vcan0 065#BBE50BF803DE2D02
(1675526010.926143) vcan0 070#000007F82CE20F00
(1675526010.926364) vcan0 075#0000000000005458
(1675526010.926515) vcan0 080#1E508000C2002C00
(1675526010.926744) vcan0 0B0#52830FA3E0C152A3
(1675526010.926821) vcan0 145#F9D2D280FC4810A1
(1675526010.927045) vcan0 28C#000020000016FEA6
(1675526010.927122) vcan0 1B0#00C000000CB000FC
(1675526010.927345) vcan0 1B5#FF5BA27DC5E0FFEF
(1675526010.928648) vcan0 125#E51680E5C1D0D735
(1675526010.928652) vcan0 1D8#363339343234DF43
(1675526010.928801) vcan0 1E0#003C034300B917E0
(1675526010.928805) vcan0 290#0000000000000000
(1675526010.929241) vcan0 2B5#4BA22A6293A67846
(1675526010.929319) vcan0 2C0#468700000000A0F1
(1675526010.929541) vcan0 2C5#16D778EBBCE50070
(1675526010.929622) vcan0 072#F000FF3F00788038
(1675526010.929915) vcan0 340#9900000000000000
(1675526010.929994) vcan0 3AF#0000000000000020
(1675526010.930936) vcan0 008#328094BD00800080
(1675526010.932333) vcan0 010#008800002FB031F8
(1675526010.933424) vcan0 1D0#0000000000000061
(1675526010.935952) vcan0 0F5#299E339E7F637216
(1675526010.937328) vcan0 120#669E5D9E7F045689
(1675526010.937548) vcan0 130#C7FF1D531E02FA11
(1675526010.937770) vcan0 150#2E1E068803F827C0
(1675526010.937921) vcan0 3CA#00000000D60000C8
(1675526010.940018) vcan0 008#3280A4AD00800080
(1675526010.941176) vcan0 0E0#627301C00080DA00
(1675526010.942550) vcan0 288#26E0B04F00000080
(1675526010.942627) vcan0 3C8#4687008E882C008E
(1675526010.945445) vcan0 010#008800002FB031F9
(1675526010.945668) vcan0 072#F000FF3F0078A038
(1675526010.945818) vcan0 055#F6F70B28B2799C80
(1675526010.946039) vcan0 065#B9E50BF800DE2C02
(1675526010.946262) vcan0 070#000007F82CE20F00
(1675526010.946424) vcan0 075#0000000000005458
(1675526010.946648) vcan0 080#1E508000C2002C00
(1675526010.946726) vcan0 0B0#52830FA3E0C152A3
(1675526010.946949) vcan0 145#F9C2D380FC4810A1
(1675526010.947098) vcan0 2A9#8C26008AC0000084
(1675526010.947321) vcan0 370#071FC0005E1BC71F
(1675526010.947399) vcan0 1B0#00C0000009B000FC
(1675526010.947623) vcan0 1B5#FF6FB686CFE0FFEF
(1675526010.947701) vcan0 125#E51680E5C1D0D735
(1675526010.947995) vcan0 1D8#363339343234DF43
(1675526010.949082) vcan0 1E0#0000F34300B917E0
(1675526010.949161) vcan0 2C3#468700FFFFFE5450
(1675526010.949380) vcan0 210#2AE080A0A869C545
(1675526010.949458) vcan0 260#D0FF0055497487B0
(1675526010.951699) vcan0 008#3280BC1D00800080
(1675526010.952937) vcan0 010#008800002FB031F8
(1675526010.954250) vcan0 1D0#0000000000000261
(1675526010.954399) vcan0 291#0000000000000000
(1675526010.955343) vcan0 290#0000000000000000
(1675526010.956791) vcan0 0F5#339E369E7F676219
(1675526010.957013) vcan0 120#7B9E449E7FFA5589
(1675526010.957165) vcan0 130#CFFF1D531EF2F711
(1675526010.957387) vcan0 150#341E089803F811C0
(1675526010.957973) vcan0 072#F000FF3F00788038
(1675526010.958987) vcan0 3B0#00D8193C3FBCC600
(1675526010.961661) vcan0 008#3480CC0B00800080
(1675526010.961881) vcan0 0E0#627308C80080B300
(1675526010.962768) vcan0 010#008800002FB031F8
(1675526010.963856) vcan0 055#F6F70B28B27B9C80
(1675526010.964945) vcan0 065#B6E50AF8FEDD2B02
(1675526010.967831) vcan0 070#000007F82BE20F00
(1675526010.968053) vcan0 075#0000000000005458
(1675526010.968145) vcan0 080#1E508000C2002C00
(1675526010.968440) vcan0 0B0#52830FA3E0C152A3
(1675526010.968590) vcan0 145#F9B2D480FC4810A1
(1675526010.968813) vcan0 28C#000020000016FEA6
(1675526010.969036) vcan0 2B5#4BA22A6293A67945
(1675526010.969187) vcan0 1B0#00C0000005B000FC
(1675526010.969261) vcan0 1B5#FF83C990D9E0FFEF
(1675526010.969556) vcan0 125#E51680E5C1D0D735
(1675526010.969634) vcan0 1D8#363339343234DF43
(1675526010.969855) vcan0 1E0#0000F30300B917E0
(1675526010.969934) vcan0 288#22E0B04F00000080
(1675526010.970155) vcan0 350#A200000000000080
(1675526010.970378) vcan0 008#3480DCFB00800080
(1675526010.972986) vcan0 010#008800002FB031F8
(1675526010.974075) vcan0 072#F000FF3F0078A038
(1675526010.974297) vcan0 1D0#0000000000000061
(1675526010.975465) vcan0 210#2AE080A0A869C545
(1675526010.976984) vcan0 0F5#399E369E7F6B521B
(1675526010.977137) vcan0 120#9A9E699E7F025689
(1675526010.977357) vcan0 130#D7FF1D531EE2F711
(1675526010.977579) vcan0 150#371E02A803F8FEC0
(1675526010.978089) vcan0 260#D0FF0055497487B0
(1675526010.980617) vcan0 008#3480ECEB00800080
(1675526010.981921) vcan0 0E0#62730CD000808F00
(1675526010.983158) vcan0 010#008800002FB031F8
(1675526010.984246) vcan0 291#0000000000000000
(1675526010.984396) vcan0 2A9#8C260093C0000084
(1675526010.987140) vcan0 055#F6F70B28B27B9C80
(1675526010.987290) vcan0 065#B9E50AF8FFDD2B02
(1675526010.987512) vcan0 070#000007F82BE20F00
(1675526010.987735) vcan0 075#0000000000005458
(1675526010.987885) vcan0 080#1E508000C2002C00
(1675526010.988127) vcan0 0B0#52830FA3E0C152A3
(1675526010.988350) vcan0 145#F9A2D580FC4810A1
(1675526010.988500) vcan0 290#0000000000000000
(1675526010.988576) vcan0 1B0#00C0000004B000FC
(1675526010.988799) vcan0 1B5#FF96DD9AE3E0FFEF
(1675526010.988950) vcan0 1D8#363339343234DF43
(1675526010.989172) vcan0 125#E51380E5C1D0D735
(1675526010.989322) vcan0 1E0#0004E34300B917E0
(1675526010.989542) vcan0 2C0#468700000000A0F1
(1675526010.989620) vcan0 2C3#468700FFFFFE5450
(1675526010.989843) vcan0 2C5#16D778EBB7E50070
(1675526010.989921) vcan0 072#F000FF3F00788038
(1675526010.990646) vcan0 008#3480FCDB00800080
(1675526010.993111) vcan0 288#26E0B04F00000080
(1675526010.994198) vcan0 010#008800002FB031F8
(1675526010.994349) vcan0 1D0#0000000000000861
(1675526010.996528) vcan0 0F5#369E3E9E7F6F421E
(1675526010.997974) vcan0 120#369E709E7F165689
(1675526010.998197) vcan0 130#DFFF1D531ED2F411
(1675526010.998419) vcan0 150#3A1E08B803F8EBC0
(1675526010.998569) vcan0 210#2AE080A0A869C54D
(1675526011.000600) vcan0 008#34800CCB00800080
(1675526011.001687) vcan0 0E0#627302D800807900
(1675526011.004070) vcan0 010#008800002FB031F8
(1675526011.004292) vcan0 072#F000FF3F0078A038
(1675526011.006963) vcan0 330#B400000000000000
