(1675525738.381855) vcan0 010#008800002FB031F9
(1675525738.381920) vcan0 072#F000FF3F00788038
(1675525738.382070) vcan0 1D0#0000000000000261
(1675525738.384288) vcan0 125#E5F17FE4C1D0D735
(1675525738.384367) vcan0 1B0#00C0000003B000FC
(1675525738.386760) vcan0 1B5#FF33796D45E0FFEF
(1675525738.386766) vcan0 1D8#363339343234E043
(1675525738.386770) vcan0 1E0#0010B30300B917E0
(1675525738.386846) vcan0 210#73E080A0A869D74D
(1675525738.391980) vcan0 008#5480E44B00800080
(1675525738.391986) vcan0 055#F5F70F28B29A9C80
(1675525738.392003) vcan0 065#08E60FF8FFDD3B02
(1675525738.392007) vcan0 070#000008F83CE20F00
(1675525738.392011) vcan0 075#0000000000005458
(1675525738.392015) vcan0 080#29508000C2002C00
(1675525738.392019) vcan0 0B0#52830FA3DCC152A3
(1675525738.392024) vcan0 145#F942DB80FC4810A1
(1675525738.392028) vcan0 28C#000000000016FEA7
(1675525738.392032) vcan0 2B5#4BEB446293A67E56
(1675525738.392037) vcan0 010#008800002FB031F8
(1675525738.392106) vcan0 291#0000000000000000
(1675525738.392185) vcan0 2A9#8C260082C0000084
(1675525738.394455) vcan0 0F5#DA9FFF9F7F637231
(1675525738.398480) vcan0 120#0DA014A07F025689
(1675525738.398485) vcan0 130#C7FF1DFF1F550112
(1675525738.398489) vcan0 150#EC1FFF87FDF768C0
(1675525738.398493) vcan0 072#F000FF3F0078A038
(1675525738.398501) vcan0 360#538700B5B964A041
(1675525738.398506) vcan0 0E0#627308D000809300
(1675525738.398584) vcan0 290#0000000000000000
(1675525738.398662) vcan0 008#5480F43B00800080
(1675525738.400985) vcan0 010#008800002FB031F8
(1675525738.402353) vcan0 1D0#0000000000000061
(1675525738.402507) vcan0 390#80FF051D020E5C4F
(1675525738.402586) vcan0 260#D0FF0055497487B0
(1675525738.402665) vcan0 125#E5F37FE4C1D0D735
(1675525738.406137) vcan0 1B0#00C0000007B000FC
(1675525738.406142) vcan0 1B5#FF488E774FE0FFEF
(1675525738.406146) vcan0 1D8#363339343234E043
(1675525738.406151) vcan0 1E0#0014A34300B917E0
(1675525738.406155) vcan0 288#FEDF807F00000080
(1675525738.406228) vcan0 2C3#528700FFFFA55450
(1675525738.409013) vcan0 055#F5F70F28B29A9C80
(1675525738.409101) vcan0 008#5480042B00800080
(1675525738.409181) vcan0 065#09E60FF800DE3B02
(1675525738.409258) vcan0 070#000008F83BE20F00
(1675525738.409336) vcan0 075#0000000000005458
(1675525738.409414) vcan0 080#29508000C2002C00
(1675525738.412771) vcan0 0B0#52830FA3DCC152A3
(1675525738.412776) vcan0 145#F932DC80FC4810A1
(1675525738.412781) vcan0 010#008800002FB031F8
(1675525738.412785) vcan0 072#F000FF3F00788038
(1675525738.412789) vcan0 210#73E080A0A869D745
(1675525738.412793) vcan0 3D0#8C0F6100C50580C3
(1675525738.414278) vcan0 0F5#02A0F59F7F676234
(1675525738.417924) vcan0 120#38A005A07F005689
(1675525738.417929) vcan0 130#CFFF1D0220410112
(1675525738.417933) vcan0 150#FB1FFE97FDF749C0
(1675525738.417937) vcan0 0E0#62730BD800807000
(1675525738.417944) vcan0 008#5480141B00800080
(1675525738.423002) vcan0 010#008800002FB031F8
(1675525738.423009) vcan0 1D0#0000000000000061
(1675525738.423013) vcan0 291#0000000000000000
(1675525738.423018) vcan0 125#E5F37FE4C1D0D735
(1675525738.423165) vcan0 400#2401100101010309
(1675525738.424378) vcan0 1B0#00C0000007B000FC
(1675525738.428208) vcan0 1B5#FF5DA3815AE0FFEF
(1675525738.428214) vcan0 1D8#363339343234E043
(1675525738.428217) vcan0 1E0#0018934300B917E0
(1675525738.428222) vcan0 072#F000FF3F0078A038
(1675525738.428226) vcan0 008#5480240B00800080
(1675525738.428374) vcan0 055#F5F70F28B29C9C80
(1675525738.428452) vcan0 065#0DE60FF802DE3B02
(1675525738.432260) vcan0 070#000008F83CE20F00
(1675525738.432265) vcan0 075#0000000000005458
(1675525738.432281) vcan0 080#2A508000C2002C00
(1675525738.432285) vcan0 0B0#52830FA3DCC152A3
(1675525738.432289) vcan0 145#F922DD80FC4810A1
(1675525738.432293) vcan0 288#06E0906F00000080
(1675525738.432297) vcan0 28C#000000000016FEA7
(1675525738.432301) vcan0 290#0000000000000000
(1675525738.432306) vcan0 2B5#4BEB446293A67E56
(1675525738.432310) vcan0 2C0#528700000000A0F1
(1675525738.432314) vcan0 2C5#1BDF7FE509E60070
(1675525738.432318) vcan0 340#9600000000000000
(1675525738.432322) vcan0 010#008800002FB031F8
(1675525738.432388) vcan0 2A9#8C26009BC0000084
(1675525738.432467) vcan0 370#0721C000681BC71F
(1675525738.434813) vcan0 260#D0FF0055497487B0
(1675525738.434818) vcan0 3AF#0000000000000020
(1675525738.434823) vcan0 3E0#000000D930808092
(1675525738.434832) vcan0 0F5#E19FE79F7F6B5236
(1675525738.434911) vcan0 120#17A010A07FFB5589
(1675525738.438671) vcan0 130#D7FF1D0220310112
(1675525738.438676) vcan0 150#E41FFFA7FDF750C0
(1675525738.438680) vcan0 210#73E080A0A869D74D
(1675525738.438684) vcan0 0E0#627306E000805500
(1675525738.438759) vcan0 008#518034FE00800080
(1675525738.441244) vcan0 010#008800002FB031F8
