(1675525591.890189) vcan0 2C5#7BE79BC3FFE60070
(1675525591.890325) vcan0 3AF#0000000000000020
(1675525591.890402) vcan0 0E0#E2735CE00080FF00
(1675525591.890479) vcan0 1B0#00C0000004B000FC
(1675525591.890582) vcan0 1B5#FF25F65054E0FFEF
(1675525591.890730) vcan0 1D8#363339343234E043
(1675525591.890804) vcan0 1E0#0020734300B917E0
(1675525591.891975) vcan0 2C3#669C00FFFF7F5450
(1675525591.892119) vcan0 008#F3806C8923800080
(1675525591.892193) vcan0 010#000000002FB031F9
(1675525591.892266) vcan0 1D0#0000000000000261
(1675525591.892340) vcan0 260#D0FF00AA497487B0
(1675525591.892483) vcan0 125#E5647FE4C1D0D735
(1675525591.892558) vcan0 350#A200000000000080
(1675525591.892632) vcan0 288#5EDFF00F00000080
(1675525591.892706) vcan0 0F5#489B4A9B7F57A241
(1675525591.900120) vcan0 120#509B4E9B7FE35589
(1675525591.900195) vcan0 130#AF1D1E4A1B3E1B12
(1675525591.900269) vcan0 150#491BC457C5F73FC0
(1675525591.900344) vcan0 008#F3807C8715800080
(1675525591.900496) vcan0 010#000000002FB031F8
(1675525591.900570) vcan0 072#F000FF3F009CA038
(1675525591.900673) vcan0 2A9#8C26009BC0000084
(1675525591.900752) vcan0 055#F3F75528B2D59D80
(1675525591.900832) vcan0 065#01E755F801CEE606
(1675525591.900909) vcan0 070#00000FF8E6E21500
(1675525591.901059) vcan0 075#0000000000005458
(1675525591.901143) vcan0 080#DE508000C2002C00
(1675525591.901215) vcan0 0B0#398321A3DFC139A3
(1675525591.902376) vcan0 145#F912DE80FC4810A1
(1675525591.902454) vcan0 370#2727C0007003CB1F
(1675525591.902531) vcan0 0E0#E2735BE80080E000
(1675525591.910478) vcan0 1B0#00C0000002B000FC
(1675525591.910637) vcan0 1B5#FF3708595DE0FFEF
(1675525591.910712) vcan0 1D8#363339343234DF43
(1675525591.910786) vcan0 1E0#0020730300B917E0
(1675525591.910870) vcan0 008#F3808C7715800080
(1675525591.910946) vcan0 3C8#669C008E882C008E
(1675525591.911089) vcan0 010#000000002FB031F8
(1675525591.911164) vcan0 1D0#0000000000000861
(1675525591.911239) vcan0 210#09E080A0BA69B94D
(1675525591.911313) vcan0 291#0000000000000000
(1675525591.911455) vcan0 125#E5647FE4C1D0D735
(1675525591.911528) vcan0 290#0000000000000000
(1675525591.911603) vcan0 072#F000FF3F009C8038
(1675525591.911746) vcan0 3B0#00D84B3C81B0C400
(1675525591.913947) vcan0 0F5#3B9B5D9B7F5B9243
(1675525591.914022) vcan0 120#509B5F9B7FE75589
(1675525591.921105) vcan0 130#B71D1E501B281512
(1675525591.921183) vcan0 150#4B1BC767C5F72DC0
(1675525591.921261) vcan0 008#F3809C7C00800080
(1675525591.921339) vcan0 010#000000002FB031F8
(1675525591.921426) vcan0 288#45DFF00F00000080
(1675525591.921575) vcan0 260#D0FF0055497487B0
(1675525591.921653) vcan0 055#F3F75528B2D59D80
(1675525591.921732) vcan0 065#08E755F804CEE606
(1675525591.921810) vcan0 070#00000FF8E6E21500
(1675525591.921888) vcan0 075#0000000000005458
(1675525591.921965) vcan0 080#DE508000C2002C00
(1675525591.922115) vcan0 0B0#398321A3DFC139A3
(1675525591.922193) vcan0 145#F902DF80FC4810A1
(1675525591.922271) vcan0 28C#00000000002EFEAA
(1675525591.922422) vcan0 2B5#4B4F1B6293A6A6F6
(1675525591.925753) vcan0 340#A200000000000000
(1675525591.925831) vcan0 0E0#E2735DF00080BE00
(1675525591.925982) vcan0 1B0#00C0000003B000FC
(1675525591.926061) vcan0 1B5#FF491A6266E0FFEF
(1675525591.926137) vcan0 1D8#363339343234E043
(1675525591.926224) vcan0 1E0#0024634300B917E0
(1675525591.926302) vcan0 2C3#669C00FFFF7F5450
(1675525591.926380) vcan0 008#F380AC6C00800080
(1675525591.926531) vcan0 010#000000002FB031F8
(1675525591.926608) vcan0 072#F000FF3F009CA038
(1675525591.934856) vcan0 1D0#0000000000000061
(1675525591.934933) vcan0 125#E5677FE4C1D0D735
(1675525591.935084) vcan0 210#09E080A0BA69B945
(1675525591.935161) vcan0 0F5#479B559B7F5F8245
(1675525591.935239) vcan0 120#489B5A9B7FE65589
(1675525591.935318) vcan0 130#BF201E501B181512
(1675525591.935395) vcan0 150#4D1BC277C5F71BC0
(1675525591.935472) vcan0 010#000000002FB031F8
(1675525591.936202) vcan0 008#F380BC5C00800080
(1675525591.936279) vcan0 291#0000000000000000
(1675525591.936356) vcan0 2A9#8C260082C0000084
(1675525591.943520) vcan0 055#F3F75528B2D59D80
(1675525591.943595) vcan0 065#08E755F801CEE606
(1675525591.943668) vcan0 070#00000FF8E6E21500
(1675525591.943813) vcan0 075#0000000000005458
(1675525591.943887) vcan0 080#DE508000C2002C00
(1675525591.943962) vcan0 0B0#398321A3DFC139A3
(1675525591.944036) vcan0 072#F000FF3F009C8038
(1675525591.944180) vcan0 145#F9F2D080FC4810A1
(1675525591.944253) vcan0 288#4DDF00FF00000080
(1675525591.944328) vcan0 290#0000000000000000
(1675525591.944401) vcan0 2C0#669C00000000A0F1
(1675525591.944544) vcan0 2C5#7CE79BC209E70070
(1675525591.944619) vcan0 360#6C9C00D2B343A001
(1675525591.944762) vcan0 0E0#E2735CF800809F00
(1675525591.944836) vcan0 1B0#00C0000002B000FC
