(1675525534.872224) vcan0 1D0#0000000000000261
(1675525534.872286) vcan0 0E0#62732AF80080D100
(1675525534.872363) vcan0 1B0#00C0000000B000FC
(1675525534.879307) vcan0 1B5#FFFDD2B9ADE0FFEF
(1675525534.879458) vcan0 1D8#363339343234E143
(1675525534.879536) vcan0 1E0#0000F34300B917E0
(1675525534.879615) vcan0 288#0AE0A05F00000080
(1675525534.879692) vcan0 2C3#669C00FFFF9E5450
(1675525534.879771) vcan0 210#08E080A0B869BA45
(1675525534.879848) vcan0 125#E51B80E4C1D0D735
(1675525534.879999) vcan0 008#3280E45815800080
(1675525534.880076) vcan0 3C8#669C008E882C008E
(1675525534.880153) vcan0 010#000000002FB031F8
(1675525534.880232) vcan0 055#F4F70228B2419C80
(1675525534.883200) vcan0 065#5AE502F800CE0902
(1675525534.883287) vcan0 070#00000AF80AE21500
(1675525534.883365) vcan0 072#F000FF3F0078A038
(1675525534.883515) vcan0 075#0000000000005458
(1675525534.883591) vcan0 080#08508000C2002C00
(1675525534.883671) vcan0 0B0#39830AA3E1C139A3
(1675525534.883749) vcan0 145#F9D2D280FC4810A1
(1675525534.883826) vcan0 2A9#8C26008AC0000084
(1675525534.883905) vcan0 0F5#C994CA947F67627C
(1675525534.884054) vcan0 120#F594F5947FFD5589
(1675525534.884132) vcan0 130#CFFF1DDB1474FD11
(1675525534.884210) vcan0 150#C914019800F886C0
(1675525534.884288) vcan0 360#6B9C00D3B343A001
(1675525534.892503) vcan0 008#3280F44815800080
(1675525534.892578) vcan0 350#A200000000000080
(1675525534.892652) vcan0 010#000000002FB031F8
(1675525534.892795) vcan0 1D0#0000000000000861
(1675525534.892879) vcan0 290#0000000000000000
(1675525534.892952) vcan0 291#0000000000000000
(1675525534.893026) vcan0 390#80FF050002025F4F
(1675525534.893170) vcan0 0E0#627327C00080B400
(1675525534.893243) vcan0 1B0#00C0000001B000FC
(1675525534.893317) vcan0 1B5#FF0BE0BFB4E0FFEF
(1675525534.893393) vcan0 1D8#363339343234E143
(1675525534.893810) vcan0 1E0#0000F30300B917E0
(1675525534.893953) vcan0 072#F000FF3F00788038
(1675525534.894027) vcan0 3B0#00D886387FB0C400
(1675525534.901194) vcan0 260#D0FF0055497487B0
(1675525534.901272) vcan0 125#E51B80E4C1D0D735
(1675525534.901350) vcan0 008#2F80043B15800080
(1675525534.901428) vcan0 288#1AE0A05F00000080
(1675525534.901506) vcan0 010#000000002FB031F8
(1675525534.901657) vcan0 055#F4F70228B2439C80
(1675525534.901744) vcan0 065#57E502F8FECD0902
(1675525534.901823) vcan0 070#00000AF80AE21500
(1675525534.901900) vcan0 075#0000000000005458
(1675525534.901978) vcan0 080#09508000C2002C00
(1675525534.902057) vcan0 0B0#39830AA3E0C139A3
(1675525534.902207) vcan0 145#F9C2D380FC4810A1
(1675525534.902285) vcan0 210#08E080A0B869BA4D
(1675525534.902362) vcan0 28C#00000000002CFEA5
(1675525534.902513) vcan0 2B5#4B621B6293A67528
(1675525534.908280) vcan0 340#8A00000000000000
(1675525534.908424) vcan0 3D0#940F6100D11480C3
(1675525534.908498) vcan0 0F5#BF94D2947F6B527D
(1675525534.908573) vcan0 120#EF94ED947FFD5589
(1675525534.908646) vcan0 130#D7FF1DDB1464FD11
(1675525534.908789) vcan0 150#C91405A800F876C0
(1675525534.908863) vcan0 430#2808280000002BC6
(1675525534.908946) vcan0 008#2F80141D23800080
(1675525534.909019) vcan0 010#000000002FB031F8
(1675525534.909094) vcan0 072#F000FF3F0078A038
(1675525534.909238) vcan0 1D0#0000000000000061
(1675525534.910684) vcan0 0E0#62732EC800808D00
(1675525534.920037) vcan0 1B0#00C0000001B000FC
(1675525534.920115) vcan0 1B5#FF18EDC6BAE0FFEF
(1675525534.920193) vcan0 1D8#363339343234E143
(1675525534.920273) vcan0 1E0#0004E34300B917E0
(1675525534.920423) vcan0 2C3#669C00FFFF9E5450
(1675525534.920501) vcan0 125#E51B80E4C1D0D735
(1675525534.920578) vcan0 008#2F80240D23800080
(1675525534.920656) vcan0 055#F4F70328B2439C80
(1675525534.920733) vcan0 065#54E502F8FECD0902
(1675525534.920811) vcan0 010#000000002FB031F8
(1675525534.920962) vcan0 070#00000AF80AE21500
(1675525534.922867) vcan0 075#0000000000005458
(1675525534.922945) vcan0 080#09508000C2002C00
(1675525534.923023) vcan0 0B0#39830AA3E0C139A3
(1675525534.923175) vcan0 145#F9B2D480FC4810A1
(1675525534.923252) vcan0 290#0000000000000000
(1675525534.923329) vcan0 291#0000000000000000
(1675525534.923409) vcan0 2A9#8C260093C0000084
(1675525534.923487) vcan0 2C0#669C00000000A0F1
(1675525534.923563) vcan0 2C5#04E76EE556E50070
(1675525534.923714) vcan0 0F5#C394C8947F6F427F
(1675525534.923793) vcan0 120#F194DF947FFE5589
(1675525534.923871) vcan0 130#DFFF1DD91456FD11
(1675525534.931155) vcan0 150#C51406B801F86AC0
(1675525534.931298) vcan0 288#0EE0A05F00000080
(1675525534.931373) vcan0 072#F000FF3F00788038
(1675525534.931449) vcan0 210#08E08020B869BA45
(1675525534.931530) vcan0 260#D0FF00AA497487B0
(1675525534.931675) vcan0 008#2D8034F032800080
(1675525534.931748) vcan0 010#000000002FB031F8
(1675525534.931823) vcan0 1D0#0000000000000061
(1675525534.931897) vcan0 0E0#627332D000806900
(1675525534.932039) vcan0 1B0#00C0000001B000FC
(1675525534.932596) vcan0 1B5#FF26FBCDC1E0FFEF
(1675525534.932670) vcan0 1D8#363339343234E143
(1675525534.932812) vcan0 1E0#0008D34300B917E0
(1675525534.941986) vcan0 125#E51D80E4C1D0D735
(1675525534.942064) vcan0 008#2D8044E032800080
(1675525534.942143) vcan0 010#000000002FB031F8
(1675525534.942293) vcan0 055#F4F70328B2459C80
(1675525534.942371) vcan0 065#56E502F800CE0A02
(1675525534.942448) vcan0 070#00000AF80BE21500
(1675525534.942527) vcan0 072#F000FF3F0078A038
(1675525534.942613) vcan0 075#0000000000005458
(1675525534.942694) vcan0 080#09508000C2002C00
(1675525534.942841) vcan0 0B0#39830AA3E1C139A3
(1675525534.942919) vcan0 145#F9A2D580FC4810A1
(1675525534.942997) vcan0 28C#00000000002CFEA5
(1675525534.943075) vcan0 2B5#4B621B6293A67529
(1675525534.943224) vcan0 330#2800000000000000
(1675525534.943374) vcan0 370#0726C0006D03CB1F
(1675525534.943452) vcan0 0F5#CA94C6947F733281
(1675525534.943530) vcan0 120#0495E8947F025689
(1675525534.943607) vcan0 130#E7FF1DD91446FD11
(1675525534.943757) vcan0 150#C81404C801F857C0
(1675525534.952761) vcan0 008#2B8054BD47800080
(1675525534.952834) vcan0 288#06E0A05F00000080
(1675525534.952909) vcan0 010#000000002FB031F9
(1675525534.952984) vcan0 1D0#0000000000000261
(1675525534.953067) vcan0 210#08E080A0B869BA4D
(1675525534.953211) vcan0 290#0000000000000000
(1675525534.953285) vcan0 291#0000000000000000
(1675525534.953359) vcan0 0E0#62733AD800804100
(1675525534.953434) vcan0 1B0#00C0000001B000FC
(1675525534.953577) vcan0 1B5#FF3308D4C8E0FFEF
(1675525534.953650) vcan0 1D8#363339343234E143
(1675525534.953725) vcan0 1E0#0008D30300B917E0
(1675525534.954074) vcan0 2C3#669C00FFFF9E5450
(1675525534.954148) vcan0 072#F000FF3F00788038
(1675525534.962488) vcan0 260#D0FF00AA497487B0
(1675525534.962567) vcan0 125#E52080E4C1D0D735
(1675525534.962644) vcan0 008#2B8064AD47800080
(1675525534.962722) vcan0 010#000000002FB031F8
(1675525534.962801) vcan0 2A9#8C260082C0000084
(1675525534.962951) vcan0 055#F4F70328B2469C80
(1675525534.963038) vcan0 065#58E503F801CE0B02
(1675525534.963116) vcan0 070#00000AF80BE21500
(1675525534.963194) vcan0 075#0000000000005458
(1675525534.963271) vcan0 080#0A508000C2002C00
(1675525534.963349) vcan0 0B0#39830AA3E1C139A3
(1675525534.963500) vcan0 145#F992D680FC4810A1
(1675525534.963577) vcan0 0F5#C894BE947F772282
(1675525534.963656) vcan0 120#ED94EA947F035689
(1675525534.963806) vcan0 130#EFFF1DD91436FF11
(1675525534.963884) vcan0 150#C31401D801F84CC0
(1675525534.970699) vcan0 008#288074A740800080
(1675525534.970776) vcan0 010#000000002FB031F8
(1675525534.970926) vcan0 072#F000FF3F0078A038
(1675525534.971004) vcan0 1D0#0000000000000861
(1675525534.971082) vcan0 0E0#62732FE000802C00
(1675525534.973183) vcan0 1B0#00C0000001B000FC
(1675525534.973270) vcan0 1B5#FF4116DACEE0FFEF
(1675525534.973346) vcan0 1D8#363339343234E143
(1675525534.973496) vcan0 1E0#000CC34300B917E0
(1675525534.973574) vcan0 288#16E0B04F00000080
(1675525534.981430) vcan0 210#08E080A0B869BA45
(1675525534.981565) vcan0 125#E52380E4C1D0D735
(1675525534.981640) vcan0 008#2680849940800080
(1675525534.981714) vcan0 350#A200000000000080
(1675525534.981788) vcan0 010#000000002FB031F8
(1675525534.981930) vcan0 291#0000000000000000
(1675525534.982004) vcan0 055#F4F70328B2489C80
(1675525534.982080) vcan0 065#5BE503F802CE0B02
(1675525534.982153) vcan0 070#00000AF80CE21500
(1675525534.982296) vcan0 075#0000000000005458
(1675525534.982369) vcan0 080#0A508000C2002C00
(1675525534.982447) vcan0 0B0#39830AA3E1C139A3
(1675525534.982599) vcan0 145#F982D780FC4810A1
(1675525534.982672) vcan0 28C#00000000002CFEA5
(1675525534.982747) vcan0 290#0000000000000000
(1675525534.986568) vcan0 2B5#4B621B6293A6752A
(1675525534.986640) vcan0 2C0#669C00010000A0F1
(1675525534.986716) vcan0 2C5#04E76EE557E50070
(1675525534.986795) vcan0 340#8A00000000000000
(1675525534.986945) vcan0 0F5#BB94CC947F7B1284
(1675525534.987024) vcan0 120#E494DD947FFE5589
(1675525534.987099) vcan0 130#F7FF1DD91426FF11
(1675525534.987176) vcan0 150#C41402E802F83BC0
(1675525534.987255) vcan0 3AF#0000000000000020
(1675525534.987334) vcan0 3CA#00000000510000C8
(1675525534.987485) vcan0 072#F000FF3F00788038
(1675525534.987563) vcan0 360#6B9C00D3B343A001
(1675525534.987639) vcan0 260#D0FF00AA497487B0
(1675525534.987800) vcan0 008#2680947A4F800080
(1675525534.992137) vcan0 010#000000002FB031F8
(1675525534.992214) vcan0 1D0#0000000000000061
(1675525534.992291) vcan0 390#80FF0500023E504F
(1675525534.992370) vcan0 0E0#627338E800800300
(1675525534.992519) vcan0 1B0#00C0000002B000FC
(1675525534.993467) vcan0 1B5#FF4E23E1D5E0FFEF
(1675525534.993544) vcan0 1D8#363339343234E143
(1675525534.993622) vcan0 1E0#0010B34300B917E0
(1675525534.993773) vcan0 2C3#669C00FFFF9F5450
(1675525535.001897) vcan0 125#E52680E4C1D0D735
(1675525535.001972) vcan0 008#2680A46A4F800080
(1675525535.002045) vcan0 288#1AE0B04F00000080
(1675525535.002188) vcan0 3C8#669C008E882C008E
(1675525535.002262) vcan0 010#000000002FB031F8
(1675525535.002336) vcan0 072#F000FF3F0078A038
(1675525535.002419) vcan0 055#F4F70328B24A9C80
(1675525535.002493) vcan0 065#5BE503F800CE0B02
(1675525535.002636) vcan0 070#00000AF80CE21500
(1675525535.002712) vcan0 075#0000000000005458
(1675525535.002785) vcan0 080#0B508000C2002C00
(1675525535.002928) vcan0 0B0#39830AA3E1C139A3
(1675525535.003003) vcan0 145#F972D880FC4810A1
(1675525535.003076) vcan0 210#08E080A0B869BA4D
(1675525535.003219) vcan0 2A9#8C26008AC0000084
(1675525535.003363) vcan0 0F5#C294BE947F7F0286
(1675525535.003436) vcan0 120#E894E2947FFC5589
(1675525535.003511) vcan0 130#FFFF1DD91416FF11
(1675525535.003584) vcan0 150#C01406F802F82FC0
(1675525535.010109) vcan0 008#2680B46940800080
(1675525535.010187) vcan0 010#000000002FB031F8
(1675525535.010264) vcan0 1D0#0000000000000061
(1675525535.010360) vcan0 290#0000000000000000
(1675525535.010439) vcan0 291#0000000000000000
(1675525535.012539) vcan0 0E0#62732DF00080EE00
(1675525535.012688) vcan0 1B0#00C0000002B000FC
(1675525535.012766) vcan0 1B5#FF5C31E8DCE0FFEF
(1675525535.012845) vcan0 1D8#363339343234E143
(1675525535.019556) vcan0 1E0#0010B30300B917E0
(1675525535.019631) vcan0 072#F000FF3F00788038
(1675525535.019705) vcan0 3B0#00D886387FB0C402
(1675525535.019779) vcan0 260#D0FF0055497487B0
(1675525535.019922) vcan0 125#E52680E4C1D0D735
(1675525535.019998) vcan0 008#2480C44C4F800080
(1675525535.020071) vcan0 055#F4F70428B24A9C80
(1675525535.020145) vcan0 065#5AE503F800CE0C02
(1675525535.020288) vcan0 070#00000AF80DE21500
(1675525535.028083) vcan0 010#000000002FB031F8
(1675525535.028171) vcan0 075#0000000000005458
(1675525535.028249) vcan0 080#0C508000C2002C00
(1675525535.028399) vcan0 0B0#39830AA3E1C139A3
(1675525535.028477) vcan0 145#F962D980FC4810A1
(1675525535.028555) vcan0 28C#00000000002CFEA5
(1675525535.028632) vcan0 2B5#4B621B6293A6752A
(1675525535.028711) vcan0 330#2800000000000000
(1675525535.028861) vcan0 0F5#C194CC947F43F287
(1675525535.028939) vcan0 120#E494EA947FF75589
(1675525535.029017) vcan0 130#87FF1DD91406FF11
(1675525535.029094) vcan0 150#C714090803F818C0
(1675525535.029172) vcan0 288#1EE0B04F00000080
(1675525535.029322) vcan0 210#09E080A0B869BA4D
(1675525535.030554) vcan0 008#2480D44B40800080
(1675525535.030633) vcan0 010#000000002FB031F9
(1675525535.030712) vcan0 072#F000FF3F0078A038
(1675525535.030798) vcan0 1D0#0000000000000261
(1675525535.030876) vcan0 0E0#627336F80080C500
(1675525535.039811) vcan0 1B0#00C0000002B000FC
(1675525535.039955) vcan0 1B5#FF693EEEE3E0FFEF
(1675525535.040029) vcan0 1D8#363339343234E143
(1675525535.040102) vcan0 1E0#0014A34300B917E0
(1675525535.040245) vcan0 2C3#669C00FFFF9F5450
(1675525535.040320) vcan0 125#E52880E4C1D0D735
(1675525535.040394) vcan0 008#2280E42756800080
(1675525535.040468) vcan0 010#000000002FB031F8
(1675525535.040542) vcan0 055#F4F70428B24A9C80
(1675525535.040685) vcan0 065#58E503F8FECD0C02
(1675525535.040759) vcan0 070#00000AF80DE21500
(1675525535.041382) vcan0 075#0000000000005458
(1675525535.041457) vcan0 080#0C508000C2002C00
(1675525535.041532) vcan0 0B0#39830AA3E1C139A3
(1675525535.041614) vcan0 145#F952DA80FC4810A1
(1675525535.041758) vcan0 290#0000000000000000
(1675525535.041832) vcan0 291#0000000000000000
(1675525535.041907) vcan0 2A9#8C260093C0000084
(1675525535.041980) vcan0 2C0#669C00000000A0F1
(1675525535.052131) vcan0 2C5#04E76EE55AE50070
(1675525535.052277) vcan0 370#0726C0006D03CB1F
(1675525535.052356) vcan0 3E0#000000D935808090
(1675525535.052434) vcan0 0F5#BB94C1947F47E289
(1675525535.052511) vcan0 120#DB94D4947F005689
(1675525535.052589) vcan0 130#8FFF1DD914F6FF11
(1675525535.052739) vcan0 150#BE14091804F811C0
(1675525535.052817) vcan0 072#F000FF3F00788038
(1675525535.052896) vcan0 260#D0FF0055497487B0
(1675525535.052972) vcan0 008#2280F42D40800080
(1675525535.053051) vcan0 288#1EE0B04F00000080
(1675525535.053210) vcan0 010#000000002FB031F8
(1675525535.053288) vcan0 1D0#0000000000000861
(1675525535.053366) vcan0 210#09E080A0B869BA45
(1675525535.053444) vcan0 0E0#62733EC000809D00
(1675525535.053595) vcan0 1B0#00C0000002B000FC
(1675525535.053673) vcan0 1B5#FF774CF5E9E0FFEF
(1675525535.053750) vcan0 1D8#363339343234E143
(1675525535.053829) vcan0 1E0#0018934300B917E0
(1675525535.061864) vcan0 125#E52B80E4C1D0D735
(1675525535.061937) vcan0 008#1F8004114F800080
(1675525535.062013) vcan0 010#000000002FB031F8
(1675525535.062086) vcan0 055#F4F70428B24C9C80
(1675525535.062161) vcan0 065#58E503F800CE0D02
(1675525535.062304) vcan0 070#00000AF80EE21500
(1675525535.062378) vcan0 072#F000FF3F0078A038
(1675525535.062451) vcan0 075#0000000000005458
(1675525535.062546) vcan0 080#0D508000C2002C00
(1675525535.062622) vcan0 0B0#39830AA3E0C139A3
(1675525535.062696) vcan0 145#F942DB80FC4810A1
(1675525535.062838) vcan0 28C#00000000002CFEA5
(1675525535.062912) vcan0 2B5#4B621C6293A6752C
(1675525535.062987) vcan0 340#8A00000000000000
(1675525535.063060) vcan0 0F5#C894C1947F4BD28B
(1675525535.063204) vcan0 120#E994E0947F025689
(1675525535.063278) vcan0 130#97FF1DD914E6FF11
(1675525535.063422) vcan0 150#C414092805F8FBC0
(1675525535.070178) vcan0 008#1F80141040800080
(1675525535.070329) vcan0 350#A200000000000080
(1675525535.070408) vcan0 010#000000002FB031F8
(1675525535.070485) vcan0 1D0#0000000000000061
(1675525535.070563) vcan0 290#0000000000000000
(1675525535.070641) vcan0 291#0000000000000000
(1675525535.074988) vcan0 0E0#627340C800807B00
(1675525535.075066) vcan0 1B0#00C0000002B000FC
(1675525535.075143) vcan0 1B5#FF8459FCF0E0FFEF
(1675525535.075239) vcan0 1D8#363339343234E143
(1675525535.075381) vcan0 1E0#0018930300B917E0
(1675525535.075457) vcan0 288#1EE0C03F00000080
(1675525535.075531) vcan0 2C3#669C00FFFF9F5450
(1675525535.075604) vcan0 072#F000FF3F00788038
(1675525535.075747) vcan0 210#09E08020B869BA45
(1675525535.075822) vcan0 260#D0FF0055497487B0
(1675525535.083101) vcan0 125#E52B80E4C1D0D735
(1675525535.083245) vcan0 008#1D8024F34F800080
(1675525535.083319) vcan0 010#000000002FB031F8
(1675525535.083392) vcan0 2A9#8C26008AC0000084
(1675525535.083535) vcan0 055#F4F70428B24C9C80
(1675525535.083609) vcan0 065#56E503F8FECD0D02
(1675525535.083693) vcan0 070#00000AF80FE21500
(1675525535.083767) vcan0 075#0000000000005458
(1675525535.083840) vcan0 080#0D508000C2002C00
(1675525535.083984) vcan0 0B0#39830AA3E0C139A3
(1675525535.084057) vcan0 145#F932DC80FC4810A1
(1675525535.084131) vcan0 0F5#CA94C4947F4FC28C
(1675525535.084274) vcan0 120#E894E8947F025689
(1675525535.084349) vcan0 130#9FFF1DD914D6FF11
(1675525535.084492) vcan0 150#C714043806F8E8C0
(1675525535.084567) vcan0 360#6B9C00D2B343A001
(1675525535.092490) vcan0 008#1D8034F240800080
(1675525535.092569) vcan0 010#000000002FB031F8
(1675525535.092646) vcan0 072#F000FF3F0078A038
(1675525535.092724) vcan0 1D0#0000000000000061
(1675525535.092802) vcan0 390#80FF0500023A514F
(1675525535.092954) vcan0 0E0#62733AD000806100
(1675525535.093041) vcan0 1B0#00C0000000B000FC
(1675525535.093118) vcan0 1B5#FF926703F7E0FFEF
(1675525535.093196) vcan0 1D8#363339343234E143
(1675525535.093852) vcan0 1E0#001C834300B917E0
(1675525535.101137) vcan0 125#E52B80E4C1D0D735
(1675525535.101212) vcan0 008#1D8044E240800080
(1675525535.101285) vcan0 288#0AE0C03F00000080
(1675525535.101361) vcan0 010#000000002FB031F8
(1675525535.101504) vcan0 210#09E080A0B869BA4D
(1675525535.101579) vcan0 055#F4F70428B24E9C80
(1675525535.101652) vcan0 065#57E504F800CE0E02
(1675525535.101726) vcan0 070#00000AF80FE21500
(1675525535.101868) vcan0 075#0000000000005458
(1675525535.101943) vcan0 080#0E508000C2002C00
(1675525535.102019) vcan0 0B0#39830AA3E1C139A3
(1675525535.102161) vcan0 145#F922DD80FC4810A1
(1675525535.102243) vcan0 28C#00000000002CFEA5
(1675525535.102318) vcan0 290#0000000000000000
(1675525535.102461) vcan0 291#0000000000000000
(1675525535.107294) vcan0 2B5#4B621C6293A6752D
(1675525535.107373) vcan0 2C0#669C00000000A0F1
(1675525535.107523) vcan0 2C5#05E76EE558E50070
(1675525535.107603) vcan0 0F5#C294C5947F53B28E
(1675525535.107680) vcan0 120#CC94E8947F005689
(1675525535.107758) vcan0 130#A7FF1DD914C6FF11
(1675525535.107836) vcan0 150#C314064807F8DCC0
(1675525535.107914) vcan0 330#2800000000000000
(1675525535.108065) vcan0 3AF#0000000000000020
(1675525535.108143) vcan0 3CA#00000000520000C8
(1675525535.108221) vcan0 3D0#950F6100D11480C3
(1675525535.108299) vcan0 072#F000FF3F00788038
(1675525535.108448) vcan0 260#D0FF0055497487B0
(1675525535.108536) vcan0 008#1D8054D240800080
(1675525535.108613) vcan0 010#000000002FB031F9
(1675525535.113166) vcan0 1D0#0000000000000261
(1675525535.113317) vcan0 400#0101040201010112
(1675525535.113396) vcan0 405#6B9C003B00333902
(1675525535.113473) vcan0 0E0#627333D800804800
(1675525535.113550) vcan0 1B0#00C0000001B000FC
(1675525535.113628) vcan0 1B5#FF9F7409FDE0FFEF
(1675525535.113779) vcan0 1D8#363339343234E143
(1675525535.113857) vcan0 1E0#0020734300B917E0
(1675525535.113934) vcan0 2C3#669C00FFFFA05450
(1675525535.117848) vcan0 125#E52B80E4C1D0D735
(1675525535.117922) vcan0 008#1D8064D032800080
(1675525535.118064) vcan0 3C8#669C008E882C008E
(1675525535.122873) vcan0 055#F4F70528B24F9C80
(1675525535.122948) vcan0 065#59E504F802CE0F02
(1675525535.123099) vcan0 070#00000AF810E21500
(1675525535.123173) vcan0 075#0000000000005458
(1675525535.123248) vcan0 080#0E508000C2002C00
(1675525535.123321) vcan0 0B0#39830AA3E1C139A3
(1675525535.123465) vcan0 145#F912DE80FC4810A1
(1675525535.123538) vcan0 010#000000002FB031F8
(1675525535.123613) vcan0 072#F000FF3F0078A038
(1675525535.123687) vcan0 2A9#8C26009BC0000084
(1675525535.123829) vcan0 0F5#C294C1947F57A290
(1675525535.123903) vcan0 120#D594EC947F015689
(1675525535.123977) vcan0 130#AFFF1DD914B6FF11
(1675525535.124121) vcan0 150#C114025807F8CEC0
(1675525535.126415) vcan0 288#0AE0C03F00000080
(1675525535.126492) vcan0 210#09E080A0B869BA45
(1675525535.126570) vcan0 008#1D8074C032800080
(1675525535.134588) vcan0 010#000000002FB031F8
(1675525535.134675) vcan0 1D0#0000000000000861
(1675525535.134752) vcan0 290#0000000000000000
(1675525535.134829) vcan0 291#0000000000000000
(1675525535.134979) vcan0 0E0#627330E000802B00
(1675525535.135058) vcan0 1B0#00C0000001B000FC
(1675525535.135135) vcan0 1B5#FFAD821004E0FFEF
(1675525535.135215) vcan0 1D8#363339343234E143
(1675525535.135291) vcan0 1E0#0020730300B917E0
(1675525535.135435) vcan0 072#F000FF3F00788038
(1675525535.135508) vcan0 3B0#00D886387FB0C400
(1675525535.135583) vcan0 260#D0FF00AA497487B0
(1675525535.137031) vcan0 125#E52B80E4C1D0D735
(1675525535.142181) vcan0 008#1D8084C61C800080
(1675525535.142255) vcan0 010#000000002FB031F8
(1675525535.142328) vcan0 055#F4F70528B24F9C80
(1675525535.142403) vcan0 065#5BE504F801CE1002
(1675525535.142554) vcan0 070#00000AF810E21500
(1675525535.142630) vcan0 075#0000000000005458
(1675525535.142704) vcan0 080#0F508000C2002C00
(1675525535.142778) vcan0 0B0#39830AA3E1C139A3
(1675525535.142853) vcan0 145#F902DF80FC4810A1
(1675525535.142996) vcan0 28C#00000000002CFEA5
(1675525535.143070) vcan0 2B5#4B621C6293A6752E
(1675525535.143143) vcan0 340#8900000000000000
(1675525535.143288) vcan0 370#0726C0006D03CB1F
(1675525535.143361) vcan0 0F5#C894CC947F5B9291
(1675525535.145632) vcan0 120#E794EF947FFC5589
(1675525535.145711) vcan0 130#B7FF1DD914A6FF11
(1675525535.145788) vcan0 150#C914026808F8B6C0
(1675525535.145939) vcan0 008#1D8094B61C800080
(1675525535.146016) vcan0 288#1AE0C03F00000080
(1675525535.151294) vcan0 010#000000002FB031F8
(1675525535.151380) vcan0 072#F000FF3F0078A038
(1675525535.151459) vcan0 1D0#0000000000000061
(1675525535.151538) vcan0 210#09E080A0B869BA4D
(1675525535.151615) vcan0 0E0#62732FE800800C00
(1675525535.152561) vcan0 1B0#00C0000002B000FC
(1675525535.152711) vcan0 1B5#FFBA8F170BE0FFEF
(1675525535.152788) vcan0 1D8#363339343234E143
(1675525535.152866) vcan0 1E0#0024634300B917E0
(1675525535.152943) vcan0 2C3#669C00FFFFA05450
(1675525535.162055) vcan0 125#E52B80E4C1D0D735
(1675525535.162129) vcan0 008#1D80A4B40E800080
(1675525535.162203) vcan0 350#A200000000000080
(1675525535.162347) vcan0 010#000000002FB031F8
(1675525535.162420) vcan0 055#F4F70528B24F9C80
(1675525535.162495) vcan0 065#5AE505F800CE1002
(1675525535.162569) vcan0 070#00000AF810E21500
(1675525535.162651) vcan0 075#0000000000005458
(1675525535.162796) vcan0 080#0F508000C2002C00
(1675525535.162870) vcan0 0B0#39830AA3E1C139A3
(1675525535.162944) vcan0 145#F9F2D080FC4810A1
(1675525535.163088) vcan0 290#0000000000000000
(1675525535.163162) vcan0 291#0000000000000000
(1675525535.163235) vcan0 2A9#8C260082C0000084
(1675525535.163378) vcan0 2C0#669C00000000A0F1
(1675525535.168157) vcan0 2C5#06E76EE55BE50070
(1675525535.168235) vcan0 0F5#C594D0947F5F8293
(1675525535.168314) vcan0 120#EF94E8947FFC5589
(1675525535.168392) vcan0 130#BFFF1DD91496FF11
(1675525535.168469) vcan0 150#CA14077809F8A5C0
(1675525535.168618) vcan0 072#F000FF3F00788038
(1675525535.168697) vcan0 260#D0FF00AA497487B0
(1675525535.168775) vcan0 008#1D80B4A40E800080
(1675525535.168861) vcan0 010#000000002FB031F8
(1675525535.168939) vcan0 1D0#0000000000000061
(1675525535.172698) vcan0 0E0#62732EF00080ED00
(1675525535.172848) vcan0 1B0#00C0000000B000FC
(1675525535.172926) vcan0 1B5#FFC89D1D12E0FFEF
(1675525535.173004) vcan0 1D8#363339343234E143
(1675525535.173081) vcan0 1E0#0028534300B917E0
(1675525535.176286) vcan0 288#26E0D02F00000080
(1675525535.176364) vcan0 210#09E080A0B869BA45
(1675525535.176514) vcan0 125#E52B80E4C1D0D735
(1675525535.176592) vcan0 008#1D80C4A200800080
(1675525535.182370) vcan0 010#000000002FB031F8
(1675525535.182449) vcan0 055#F4F70528B24F9C80
(1675525535.182527) vcan0 065#57E505F8FECD1002
(1675525535.182606) vcan0 070#00000AF811E21500
(1675525535.182682) vcan0 072#F000FF3F0078A038
(1675525535.182770) vcan0 075#0000000000005458
(1675525535.182919) vcan0 080#0F508000C2002C00
(1675525535.182998) vcan0 0B0#39830AA3E1C139A3
(1675525535.183075) vcan0 145#F9E2D180FC4810A1
(1675525535.183153) vcan0 28C#00000000002CFEA5
(1675525535.183232) vcan0 2B5#4B621C6293A6752E
(1675525535.183382) vcan0 330#2800000000000000
(1675525535.183460) vcan0 0F5#C294CC947F637295
(1675525535.183538) vcan0 120#FA94F5947FFF5589
(1675525535.183688) vcan0 130#C7FF1DD91486FF11
(1675525535.183766) vcan0 150#C71409880AF898C0
(1675525535.183915) vcan0 360#6B9C00D2B343A001
(1675525535.193268) vcan0 008#1D80D49200800080
(1675525535.193343) vcan0 010#000000002FB031F9
(1675525535.193417) vcan0 1D0#0000000000000261
(1675525535.193491) vcan0 290#0000000000000000
(1675525535.193643) vcan0 291#0000000000000000
(1675525535.193719) vcan0 390#80FF05000236524F
(1675525535.193793) vcan0 0E0#627331F80080CA00
(1675525535.193867) vcan0 1B0#00C0000002B000FC
(1675525535.194010) vcan0 1B5#FFD5AA2418E0FFEF
(1675525535.194083) vcan0 1D8#363339343234E143
(1675525535.194157) vcan0 1E0#0028530300B917E0
(1675525535.194231) vcan0 2C3#669C00FFFFA05450
(1675525535.194580) vcan0 072#F000FF3F00788038
(1675525535.201978) vcan0 260#D0FF00AA497487B0
(1675525535.202057) vcan0 125#E52B80E4C1D0D735
(1675525535.202207) vcan0 008#1D80E48200800080
(1675525535.202286) vcan0 288#2BE0D02F00000080
(1675525535.202363) vcan0 010#000000002FB031F8
(1675525535.202441) vcan0 055#F4F70528B2519C80
(1675525535.202518) vcan0 065#58E505F800CE1002
(1675525535.202617) vcan0 070#00000AF811E21500
(1675525535.202695) vcan0 075#0000000000005458
(1675525535.202845) vcan0 080#10508000C2002C00
(1675525535.202923) vcan0 0B0#39830AA3E1C139A3
(1675525535.203002) vcan0 145#F9D2D280FC4810A1
(1675525535.203080) vcan0 210#09E080A0B869BA4D
(1675525535.203231) vcan0 2A9#8C260082C0000084
(1675525535.203309) vcan0 0F5#C894C2947F676297
(1675525535.203459) vcan0 120#0895E0947FFF5589
(1675525535.203537) vcan0 130#CFFF1DD91476FF11
(1675525535.203615) vcan0 150#C5140D980AF88AC0
(1675525535.209190) vcan0 008#1D80F47200800080
(1675525535.209334) vcan0 010#000000002FB031F8
(1675525535.209408) vcan0 072#F000FF3F0078A038
(1675525535.209483) vcan0 1D0#0000000000000861
(1675525535.212780) vcan0 0E0#627330C00080AB00
(1675525535.212864) vcan0 1B0#00C0000001B000FC
(1675525535.212939) vcan0 1B5#FFE3B82B1FE0FFEF
(1675525535.213081) vcan0 1D8#363339343234E143
(1675525535.213156) vcan0 1E0#002C434300B917E0
(1675525535.216282) vcan0 125#E52B80E4C1D0D735
(1675525535.216360) vcan0 008#1D80046200800080
(1675525535.222433) vcan0 055#F4F70528B2519C80
(1675525535.222509) vcan0 065#57E505F800CE1102
(1675525535.222588) vcan0 070#00000AF811E21500
(1675525535.222666) vcan0 010#000000002FB031F8
(1675525535.222743) vcan0 075#0000000000005458
(1675525535.222821) vcan0 080#10508000C2002C00
(1675525535.222972) vcan0 0B0#39830AA3E1C139A3
(1675525535.223050) vcan0 145#F9C2D380FC4810A1
(1675525535.223128) vcan0 28C#00000000002CFEA5
(1675525535.223204) vcan0 290#0000000000000000
(1675525535.223292) vcan0 291#0000000000000000
(1675525535.223442) vcan0 2B5#4B631C6293A67530
(1675525535.223521) vcan0 2C0#669C00010000A0F1
(1675525535.223598) vcan0 0F5#C494C4947F6B5298
(1675525535.223676) vcan0 120#EA94D5947F025689
(1675525535.229663) vcan0 130#D7FF1DD91466FF11
(1675525535.229737) vcan0 150#C4140FA80AF87BC0
(1675525535.229812) vcan0 288#22E0D02F00000080
(1675525535.229887) vcan0 2C5#06E76EE559E50070
(1675525535.230030) vcan0 340#8900000000000000
(1675525535.230104) vcan0 3AF#0000000000000020
(1675525535.230178) vcan0 3CA#00000000530000C8
(1675525535.230252) vcan0 072#F000FF3F00788038
(1675525535.230396) vcan0 210#09E08020B869BA4D
(1675525535.230470) vcan0 260#D0FF0055497487B0
(1675525535.230543) vcan0 008#1D80145200800080
(1675525535.230696) vcan0 010#000000002FB031F8
(1675525535.230770) vcan0 1D0#0000000000000061
(1675525535.230844) vcan0 0E0#627330C800808B00
(1675525535.233184) vcan0 1B0#00C0000001B000FC
(1675525535.233257) vcan0 1B5#FFF1C53226E0FFEF
(1675525535.233331) vcan0 1D8#363339343234E143
(1675525535.233406) vcan0 1E0#0030334300B917E0
(1675525535.233548) vcan0 2C3#669C00FFFFA15450
(1675525535.238810) vcan0 125#E52B80E4C1D0D735
(1675525535.238888) vcan0 008#1D80244200800080
(1675525535.238966) vcan0 3C8#669C008E882C008E
(1675525535.239044) vcan0 010#000000002FB031F8
(1675525535.243745) vcan0 055#F4F70528B2519C80
(1675525535.243822) vcan0 065#58E505F800CE1102
(1675525535.243900) vcan0 070#00000AF812E21500
(1675525535.244052) vcan0 072#F000FF3F0078A038
(1675525535.244139) vcan0 075#0000000000005458
(1675525535.244216) vcan0 080#10508000C2002C00
(1675525535.244294) vcan0 0B0#39830AA3E1C139A3
(1675525535.244372) vcan0 145#F9B2D480FC4810A1
(1675525535.244449) vcan0 2A9#8C26009BC0000084
(1675525535.244599) vcan0 370#0727C0006D03CB1F
(1675525535.244677) vcan0 0F5#B994C1947F6F429A
(1675525535.244755) vcan0 120#DF94D4947F035689
(1675525535.244832) vcan0 130#DFFF1DD91456FF11
(1675525535.244983) vcan0 150#BD140AB80AF872C0
(1675525535.249390) vcan0 008#1D80343200800080
(1675525535.249464) vcan0 288#1EE0D02F00000080
(1675525535.249539) vcan0 350#A200000000000080
(1675525535.249681) vcan0 010#000000002FB031F8
(1675525535.249755) vcan0 1D0#0000000000000061
(1675525535.249830) vcan0 210#09E080A0B869BA45
(1675525535.257584) vcan0 290#0000000000000000
(1675525535.257662) vcan0 291#0000000000000000
(1675525535.257739) vcan0 0E0#62732CD000806F00
(1675525535.257889) vcan0 1B0#00C0000001B000FC
(1675525535.257967) vcan0 1B5#FFFED3382CE0FFEF
(1675525535.258045) vcan0 1D8#363339343234E143
(1675525535.258123) vcan0 1E0#0030330300B917E0
(1675525535.258201) vcan0 072#F000FF3F00788038
(1675525535.258352) vcan0 3B0#00D8863C7FB0C400
(1675525535.258429) vcan0 260#D0FF0055497487B0
(1675525535.258508) vcan0 125#E52B80E4C1D0D735
(1675525535.258585) vcan0 008#1D80442200800080
(1675525535.262634) vcan0 010#000000002FB031F8
(1675525535.262712) vcan0 055#F4F70528B2539C80
(1675525535.262789) vcan0 065#57E505F800CE1202
(1675525535.262867) vcan0 070#00000AF812E21500
(1675525535.263025) vcan0 075#0000000000005458
(1675525535.263103) vcan0 080#11508000C2002C00
(1675525535.263181) vcan0 0B0#39830AA3E1C139A3
(1675525535.263259) vcan0 145#F9A2D580FC4810A1
(1675525535.263337) vcan0 28C#00000000002CFEA5
(1675525535.263415) vcan0 2B5#4B631C6293A67430
(1675525535.263566) vcan0 330#2800000000000000
(1675525535.263643) vcan0 0F5#BB94BF947F73329C
(1675525535.265021) vcan0 120#E694D9947FFF5589
(1675525535.265173) vcan0 130#E7FF1DD91446FF11
(1675525535.265247) vcan0 150#BD1409C80AF862C0
(1675525535.265321) vcan0 008#1D80541200800080
(1675525535.270610) vcan0 010#000000002FB031F9
(1675525535.270683) vcan0 072#F000FF3F0078A038
(1675525535.270758) vcan0 1D0#0000000000000261
(1675525535.270900) vcan0 0E0#62732CD800804F00
(1675525535.278880) vcan0 1B0#00C0000000B000FC
(1675525535.279032) vcan0 1B5#FF0CE03F33E0FFEF
(1675525535.279109) vcan0 1D8#363339343234E143
(1675525535.279187) vcan0 1E0#0034234300B917E0
(1675525535.279266) vcan0 288#2BE0E01F00000080
(1675525535.279343) vcan0 2C3#669C00FFFFA15450
(1675525535.279493) vcan0 210#09E080A0B869BA45
(1675525535.279572) vcan0 125#E52B80E4C1D0D735
(1675525535.279650) vcan0 008#1D80640200800080
(1675525535.279727) vcan0 010#000000002FB031F8
(1675525535.279806) vcan0 291#0000000000000000
(1675525535.279956) vcan0 055#F4F70628B2539C80
(1675525535.283863) vcan0 065#57E505F800CE1202
(1675525535.283941) vcan0 070#00000AF813E21500
(1675525535.284092) vcan0 075#0000000000005458
(1675525535.284169) vcan0 080#11508000C2002C00
(1675525535.284257) vcan0 0B0#39830AA3E1C139A3
(1675525535.284335) vcan0 145#F992D680FC4810A1
(1675525535.284413) vcan0 290#0000000000000000
(1675525535.284491) vcan0 2A9#8C26008AC0000084
(1675525535.284642) vcan0 2C0#669C00000000A0F1
(1675525535.284719) vcan0 2C5#06E76EE557E50070
(1675525535.284796) vcan0 0F5#C294C1947F77229D
(1675525535.284874) vcan0 120#E294E2947FFF5589
(1675525535.284953) vcan0 130#EFFF1DD91436FF11
(1675525535.285102) vcan0 150#C1140AD80AF84EC0
(1675525535.285200) vcan0 072#F000FF3F00788038
(1675525535.289686) vcan0 360#6B9C00D2B343A001
(1675525535.289762) vcan0 260#D0FF0055497487B0
(1675525535.289840) vcan0 008#1D8074F200800080
(1675525535.289919) vcan0 010#000000002FB031F8
(1675525535.289995) vcan0 1D0#0000000000000861
(1675525535.290154) vcan0 390#80FF05000232536F
(1675525535.293141) vcan0 0E0#627324E000803700
(1675525535.293203) vcan0 1B0#00C0000001B000FC
(1675525535.293354) vcan0 1B5#FF19EE463AE0FFEF
(1675525535.293431) vcan0 1D8#363339343234E143
(1675525535.293508) vcan0 1E0#0038134300B917E0
(1675525535.300120) vcan0 125#E52B80E4C1D0D735
(1675525535.300263) vcan0 008#1D8084E200800080
(1675525535.300337) vcan0 288#16E0E01F00000080
(1675525535.300412) vcan0 010#000000002FB031F8
(1675525535.300486) vcan0 055#F4F70628B2559C80
(1675525535.300629) vcan0 065#56E505F800CE1202
(1675525535.300703) vcan0 070#00000AF813E21500
(1675525535.300778) vcan0 072#F000FF3F0078A038
(1675525535.302707) vcan0 075#0000000000005458
(1675525535.302781) vcan0 080#11508000C2002C00
(1675525535.302864) vcan0 0B0#39830AA3E1C139A3
(1675525535.302938) vcan0 145#F982D780FC4810A1
(1675525535.303082) vcan0 210#07E080A0B869BA45
(1675525535.303156) vcan0 28C#00000000002CFEA5
(1675525535.303229) vcan0 2B5#4B631C6293A67431
(1675525535.303304) vcan0 340#8900000000000000
(1675525535.303447) vcan0 3D0#950F6100D11480C3
(1675525535.303522) vcan0 0F5#B794BD947F7B129F
(1675525535.310835) vcan0 120#D594CE947FFF5589
(1675525535.310914) vcan0 130#F7FF1DD5142AFD11
(1675525535.311064) vcan0 150#BA140AE80AF845C0
(1675525535.311143) vcan0 008#1D8094D200800080
(1675525535.311221) vcan0 290#0000000000000000
(1675525535.311298) vcan0 010#000000002FB031F8
(1675525535.311376) vcan0 1D0#0000000000000061
(1675525535.311454) vcan0 291#0000000000000000
(1675525535.311541) vcan0 0E0#627320E800801B00
(1675525535.313279) vcan0 1B0#00C0000001B000FC
(1675525535.313430) vcan0 1B5#FF27FB4C41E0FFEF
(1675525535.313507) vcan0 1D8#363339343234E143
(1675525535.313587) vcan0 1E0#0038130300B917E0
(1675525535.313664) vcan0 2C3#669C00FFFFA15450
(1675525535.322603) vcan0 072#F000FF3F00788038
(1675525535.322747) vcan0 260#D0FF00AA497487B0
(1675525535.322820) vcan0 125#E52B80E4C1D0D735
(1675525535.322894) vcan0 008#1D80A4C200800080
(1675525535.322968) vcan0 055#F4F70628B2559C80
(1675525535.323112) vcan0 065#59E506F802CE1302
(1675525535.323186) vcan0 070#00000AF813E21500
(1675525535.323260) vcan0 075#0000000000005458
(1675525535.323334) vcan0 010#000000002FB031F8
(1675525535.323478) vcan0 080#12508000C2002C00
(1675525535.323569) vcan0 0B0#39830AA3E1C139A3
(1675525535.323643) vcan0 145#F972D880FC4810A1
(1675525535.323719) vcan0 2A9#8C260093C0000084
(1675525535.323861) vcan0 0F5#C494BF947F7F02A1
(1675525535.323934) vcan0 120#EF94D4947FFF5589
(1675525535.324077) vcan0 130#FFFF1DD5141AFD11
(1675525535.324152) vcan0 150#C11409F80AF82EC0
(1675525535.324225) vcan0 288#1AE0E01F00000080
(1675525535.333358) vcan0 210#07E080A0B869BA4D
(1675525535.333437) vcan0 008#1D80B4B200800080
(1675525535.333514) vcan0 010#000000002FB031F8
(1675525535.333665) vcan0 072#F000FF3F0078A038
(1675525535.333742) vcan0 1D0#0000000000000061
(1675525535.333821) vcan0 0E0#62731DF00080FE00
(1675525535.333898) vcan0 1B0#00C0000002B000FC
(1675525535.333976) vcan0 1B5#FF34095347E0FFEF
(1675525535.334063) vcan0 1D8#363339343234E143
(1675525535.334214) vcan0 1E0#003C034300B917E0
(1675525535.335852) vcan0 125#E52B80E4C1D0D735
(1675525535.342103) vcan0 008#1D80C4A200800080
(1675525535.342177) vcan0 350#A200000000000080
(1675525535.342320) vcan0 010#000000002FB031F8
(1675525535.342394) vcan0 055#F4F70628B2559C80
(1675525535.342468) vcan0 065#58E506F800CE1302
(1675525535.342544) vcan0 070#00000AF813E21500
(1675525535.342686) vcan0 075#0000000000005458
(1675525535.342761) vcan0 080#12508000C2002C00
(1675525535.342834) vcan0 0B0#39830AA3E1C139A3
(1675525535.342910) vcan0 145#F962D980FC4810A1
(1675525535.343051) vcan0 28C#00000000002CFEA5
(1675525535.343127) vcan0 290#0000000000000000
(1675525535.343200) vcan0 291#0000000000000000
(1675525535.343365) vcan0 2B5#4B631C6293A67432
(1675525535.343440) vcan0 2C0#669C00000000A0F1
(1675525535.348084) vcan0 2C5#07E76EE557E50070
(1675525535.348163) vcan0 0F5#CE94C4947F43F2A2
(1675525535.348314) vcan0 120#E294DF947F015689
(1675525535.348391) vcan0 130#87FF1DD5140AFD11
(1675525535.348469) vcan0 150#C91408080AF816C0
(1675525535.348547) vcan0 330#2800000000000000
(1675525535.348625) vcan0 370#0726C0006D03CB1F
(1675525535.348776) vcan0 3AF#0000000000000020
(1675525535.348854) vcan0 072#F000FF3F00788038
(1675525535.348933) vcan0 3CA#00000000540000C8
(1675525535.349010) vcan0 3E0#000000D935808090
(1675525535.349087) vcan0 260#D0FF00AA497487B0
(1675525535.349166) vcan0 008#1D80D49200800080
(1675525535.349314) vcan0 288#16E0E01F00000080
(1675525535.349403) vcan0 010#000000002FB031F9
(1675525535.356083) vcan0 1D0#0000000000000261
(1675525535.356227) vcan0 210#07E080A0B869BA4D
(1675525535.356304) vcan0 0E0#62731AF80080E100
(1675525535.356447) vcan0 1B0#00C0000001B000FC
(1675525535.357688) vcan0 1B5#FF42165A4EE0FFEF
(1675525535.357761) vcan0 1D8#363339343234E143
(1675525535.357904) vcan0 1E0#0000F34300B917E0
(1675525535.357978) vcan0 2C3#669C00FFFFA15450
(1675525535.358052) vcan0 125#E52880E4C1D0D735
(1675525535.358126) vcan0 008#1D80E48200800080
(1675525535.358271) vcan0 3C8#669C008E882C008E
(1675525535.362735) vcan0 010#000000002FB031F8
(1675525535.362878) vcan0 055#F4F70628B2559C80
(1675525535.362954) vcan0 065#56E506F8FECD1302
(1675525535.363028) vcan0 070#00000AF814E21500
(1675525535.363121) vcan0 072#F000FF3F0078A038
(1675525535.363195) vcan0 075#0000000000005458
(1675525535.363338) vcan0 080#12508000C2002C00
(1675525535.363411) vcan0 0B0#39830AA3E1C139A3
(1675525535.363485) vcan0 145#F952DA80FC4810A1
(1675525535.363560) vcan0 2A9#8C260082C0000084
(1675525535.363701) vcan0 400#0000000400010113
(1675525535.363777) vcan0 0F5#C294BF947F47E2A4
(1675525535.363852) vcan0 120#CC94E2947FFF5589
(1675525535.363995) vcan0 130#8FFF1DD514FAFD11
(1675525535.365215) vcan0 150#C01406180AF80FC0
(1675525535.365295) vcan0 008#1D80F47200800080
(1675525535.373391) vcan0 010#000000002FB031F8
(1675525535.373471) vcan0 1D0#0000000000000861
(1675525535.373548) vcan0 290#0000000000000000
(1675525535.373627) vcan0 291#0000000000000000
(1675525535.373716) vcan0 0E0#627311C00080CA00
(1675525535.373793) vcan0 1B0#00C0000002B000FC
(1675525535.373944) vcan0 1B5#FF4F246155E0FFEF
(1675525535.374020) vcan0 1D8#363339343234E143
(1675525535.374099) vcan0 1E0#0000F30300B917E0
(1675525535.374176) vcan0 288#2FE0F00F00000080
(1675525535.374256) vcan0 072#F000FF3F00788038
(1675525535.374406) vcan0 210#07E08020B869BA45
(1675525535.374701) vcan0 3B0#00D886387FB0C400
(1675525535.374779) vcan0 260#D0FF00AA497487B0
(1675525535.382042) vcan0 125#E52880E4C1D0D735
(1675525535.382118) vcan0 008#1D80046200800080
(1675525535.382192) vcan0 010#000000002FB031F8
(1675525535.382336) vcan0 055#F4F70628B2559C80
(1675525535.382410) vcan0 065#57E506F800CE1302
(1675525535.382483) vcan0 070#00000AF814E21500
(1675525535.382567) vcan0 075#0000000000005458
(1675525535.382642) vcan0 080#12508000C2002C00
(1675525535.382785) vcan0 0B0#39830AA3E0C139A3
(1675525535.382859) vcan0 145#F942DB80FC4810A1
(1675525535.382935) vcan0 28C#00000000002CFEA5
(1675525535.383077) vcan0 2B5#4B631C6293A67432
(1675525535.383151) vcan0 340#8900000000000000
(1675525535.383226) vcan0 0F5#BF94C5947F4BD2A6
(1675525535.383369) vcan0 120#D994EA947FFE5589
(1675525535.383443) vcan0 130#97FF1DD514EAFD11
(1675525535.383586) vcan0 150#C2140A280AF8FDC0
(1675525535.383729) vcan0 360#6B9C00D2B343A001
(1675525535.392886) vcan0 008#1D80145200800080
(1675525535.393028) vcan0 010#000000002FB031F8
(1675525535.393103) vcan0 072#F000FF3F0078A038
(1675525535.393176) vcan0 1D0#0000000000000061
(1675525535.393260) vcan0 390#80FF0500022E544F
(1675525535.393335) vcan0 0E0#627312C80080A900
(1675525535.393480) vcan0 1B0#00C0000002B000FC
(1675525535.393554) vcan0 1B5#FF5D31675BE0FFEF
(1675525535.393627) vcan0 1D8#363339343234E143
(1675525535.393703) vcan0 1E0#0004E34300B917E0
(1675525535.394189) vcan0 2C3#669C00FFFFA25450
(1675525535.401970) vcan0 125#E52680E4C1D0D735
(1675525535.402046) vcan0 008#1D80244200800080
(1675525535.402120) vcan0 288#26E0F00F00000080
(1675525535.402195) vcan0 010#000000002FB031F8
(1675525535.402339) vcan0 055#F4F70628B2559C80
(1675525535.402413) vcan0 065#57E506F800CE1402
(1675525535.402486) vcan0 070#00000AF814E21500
(1675525535.402560) vcan0 075#0000000000005458
(1675525535.402703) vcan0 080#12508000C2002C00
(1675525535.402862) vcan0 0B0#39830AA3E0C139A3
(1675525535.402938) vcan0 145#F932DC80FC4810A1
(1675525535.403079) vcan0 210#07E080A0B869BA4D
(1675525535.403153) vcan0 290#0000000000000000
(1675525535.403228) vcan0 291#0000000000000000
(1675525535.403302) vcan0 2A9#8C26008AC0000084
(1675525535.408958) vcan0 2C0#669C00000000A0F1
(1675525535.409036) vcan0 2C5#07E76EE558E50070
(1675525535.409115) vcan0 0F5#C994C4947F4FC2A7
(1675525535.409192) vcan0 120#F194E8947FFB5589
(1675525535.409271) vcan0 130#9FFF1DD514DAFF11
(1675525535.409422) vcan0 150#C71409380AF8E8C0
(1675525535.409646) vcan0 072#F000FF3F00788038
(1675525535.409722) vcan0 260#D0FF00AA497487B0
(1675525535.409800) vcan0 008#1D80343200800080
(1675525535.409950) vcan0 010#000000002FB031F8
(1675525535.410042) vcan0 1D0#0000000000000061
(1675525535.412431) vcan0 0E0#62730BD000809000
(1675525535.412508) vcan0 1B0#00C0000001B000FC
(1675525535.412586) vcan0 1B5#FF6A3F6E62E0FFEF
(1675525535.415883) vcan0 1D8#363339343234E143
(1675525535.416025) vcan0 1E0#0008D34300B917E0
(1675525535.416102) vcan0 125#E52680E4C1D0D735
(1675525535.416175) vcan0 008#1D80442200800080
(1675525535.423039) vcan0 010#000000002FB031F9
(1675525535.423112) vcan0 055#F4F70628B2559C80
(1675525535.423256) vcan0 065#57E506F800CE1402
(1675525535.423331) vcan0 070#00000AF814E21500
(1675525535.423405) vcan0 072#F000FF3F0078A038
(1675525535.423479) vcan0 075#0000000000005458
(1675525535.423622) vcan0 080#12508000C2002C00
(1675525535.423696) vcan0 0B0#39830AA3E1C139A3
(1675525535.423780) vcan0 145#F922DD80FC4810A1
(1675525535.423853) vcan0 28C#00000000002CFEA5
(1675525535.423996) vcan0 2B5#4B631C6293A67432
(1675525535.424070) vcan0 0F5#BF94CE947F53B2A9
(1675525535.424215) vcan0 120#EC94EA947FFF5589
(1675525535.424288) vcan0 130#A7FF1DD514CAFF11
(1675525535.424363) vcan0 150#C71414480AF8D8C0
(1675525535.424437) vcan0 288#22E0F00F00000080
(1675525535.424581) vcan0 330#2800000000000000
(1675525535.424654) vcan0 210#07E080A0B869BA4D
(1675525535.433798) vcan0 008#1D80541200800080
(1675525535.433877) vcan0 350#A200000000000080
(1675525535.433955) vcan0 010#000000002FB031F8
(1675525535.434105) vcan0 1D0#0000000000000261
(1675525535.434183) vcan0 290#0000000000000000
(1675525535.434261) vcan0 291#0000000000000000
(1675525535.434349) vcan0 0E0#62730FD800806C00
(1675525535.434570) vcan0 1B0#00C0000001B000FC
(1675525535.434649) vcan0 1B5#FF784C7569E0FFEF
(1675525535.434726) vcan0 1D8#363339343234E143
(1675525535.434805) vcan0 1E0#0008D30300B917E0
(1675525535.434955) vcan0 2C3#669C00FFFFA25450
(1675525535.435033) vcan0 072#F000FF3F00788038
(1675525535.435253) vcan0 260#D0FF0055497487B0
(1675525535.442533) vcan0 125#E52680E4C1D0D735
(1675525535.442607) vcan0 008#1D80640200800080
(1675525535.442751) vcan0 010#000000002FB031F8
(1675525535.442894) vcan0 055#F4F70628B2559C80
(1675525535.442968) vcan0 065#54E506F8FECD1402
(1675525535.443042) vcan0 070#00000AF814E21500
(1675525535.443184) vcan0 075#0000000000005458
(1675525535.443257) vcan0 080#12508000C2002C00
(1675525535.443342) vcan0 0B0#39830AA3E1C139A3
(1675525535.443418) vcan0 145#F912DE80FC4810A1
(1675525535.443560) vcan0 2A9#8C260093C0000084
(1675525535.443634) vcan0 370#0726C0006D03CB1F
(1675525535.443709) vcan0 0F5#B594BD947F57A2AB
(1675525535.443852) vcan0 120#EF94E4947F055689
(1675525535.443927) vcan0 130#AFFF1DD514BAFF11
(1675525535.444070) vcan0 150#B9140A580AF8D6C0
(1675525535.453436) vcan0 008#1D8074F200800080
(1675525535.453515) vcan0 288#16E0F00F00000080
(1675525535.453665) vcan0 010#000000002FB031F8
(1675525535.453743) vcan0 072#F000FF3F0078A038
(1675525535.453820) vcan0 1D0#0000000000000861
(1675525535.453898) vcan0 210#07E080A0B869BA45
(1675525535.453977) vcan0 0E0#627310E000804B00
(1675525535.454126) vcan0 1B0#00C0000003B000FC
(1675525535.454214) vcan0 1B5#FF855A7B70E0FFEF
(1675525535.454293) vcan0 1D8#363339343234E143
(1675525535.454372) vcan0 1E0#000CC34300B917E0
(1675525535.455861) vcan0 125#E52380E4C1D0D735
(1675525535.461977) vcan0 008#1D8084E200800080
(1675525535.462121) vcan0 010#000000002FB031F8
(1675525535.462195) vcan0 055#F4F70628B2559C80
(1675525535.462270) vcan0 065#55E506F800CE1402
(1675525535.462344) vcan0 070#00000AF814E21500
(1675525535.462487) vcan0 075#0000000000005458
(1675525535.462563) vcan0 080#12508000C2002C00
(1675525535.462636) vcan0 0B0#398309A3E1C139A3
(1675525535.462711) vcan0 145#F902DF80FC4810A1
(1675525535.462854) vcan0 28C#00000000002CFEA5
(1675525535.462928) vcan0 290#0000000000000000
(1675525535.463002) vcan0 291#0000000000000000
(1675525535.463087) vcan0 2B5#4B631C6293A67333
(1675525535.463230) vcan0 2C0#669C00000000A0F1
(1675525535.463303) vcan0 2C5#08E76EE456E50070
(1675525535.469244) vcan0 0F5#BB94B9947F5B92AC
(1675525535.469323) vcan0 120#0195E0947F055689
(1675525535.469399) vcan0 130#B7FF1DD514AAFF11
(1675525535.469477) vcan0 150#BA1406680AF8C5C0
(1675525535.469556) vcan0 340#8900000000000000
(1675525535.469706) vcan0 3AF#0000000000000020
(1675525535.469784) vcan0 3CA#00000000550000C8
(1675525535.469862) vcan0 072#F000FF3F00788038
(1675525535.469940) vcan0 425#0000000000000000
(1675525535.470018) vcan0 260#D0FF0055497487B0
(1675525535.470168) vcan0 008#1D8094D200800080
(1675525535.470246) vcan0 010#000000002FB031F8
(1675525535.470324) vcan0 1D0#0000000000000061
(1675525535.470411) vcan0 0E0#62730EE800802D00
(1675525535.472801) vcan0 1B0#00C0000001B000FC
(1675525535.472951) vcan0 1B5#FF93678276E0FFEF
(1675525535.473029) vcan0 1D8#363339343234E143
(1675525535.473109) vcan0 1E0#0010B34300B917E0
(1675525535.479945) vcan0 288#0EE000FF00000080
(1675525535.480021) vcan0 2C3#669C00FFFFA25450
(1675525535.480094) vcan0 210#07E080A0B869BA45
(1675525535.480238) vcan0 125#E52380E4C1D0D735
(1675525535.480312) vcan0 008#1F80AC4000800080
(1675525535.480386) vcan0 3C8#669C008E882C008E
(1675525535.480461) vcan0 010#000000002FB031F8
(1675525535.480536) vcan0 072#F000FF3F0078A038
(1675525535.480678) vcan0 055#F4F70628B2559C80
(1675525535.480752) vcan0 065#57E506F801CE1402
(1675525535.480826) vcan0 070#00000AF814E21500
(1675525535.487223) vcan0 075#0000000000005458
(1675525535.487372) vcan0 080#12508000C2002C00
(1675525535.487450) vcan0 0B0#39830AA3E1C139A3
(1675525535.487528) vcan0 145#F9F2D080FC4810A1
(1675525535.487606) vcan0 2A9#8C26008AC0000084
(1675525535.487683) vcan0 0F5#BE94BD947F5F82AE
(1675525535.487834) vcan0 120#F394D5947F005689
(1675525535.487912) vcan0 130#BFFF1DD5149AFF11
(1675525535.487989) vcan0 150#BD1408780AF8B2C0
(1675525535.488068) vcan0 360#6B9C00D2B343A001
(1675525535.488145) vcan0 008#1F80BC3000800080
(1675525535.488296) vcan0 010#000000002FB031F8
(1675525535.488374) vcan0 1D0#0000000000000061
(1675525535.489679) vcan0 291#0000000000000000
(1675525535.489756) vcan0 290#0000000000000000
(1675525535.489834) vcan0 390#80FF0500022A554F
(1675525535.497872) vcan0 0E0#627304F000801700
(1675525535.498015) vcan0 1B0#00C0000001B000FC
(1675525535.498091) vcan0 1B5#FFA075897DE0FFEF
(1675525535.498165) vcan0 1D8#363339343234E143
(1675525535.498238) vcan0 1E0#0010B30300B917E0
(1675525535.498382) vcan0 072#F000FF3F00788038
(1675525535.498456) vcan0 3B0#00FC8B387FB0C400
(1675525535.498530) vcan0 260#D0FF0055497487B0
(1675525535.498604) vcan0 125#E52080E4C1D0D735
(1675525535.498749) vcan0 008#2280CC0F0E800080
(1675525535.498822) vcan0 288#12E000FF00000080
(1675525535.501846) vcan0 010#000000002FB031F8
(1675525535.501921) vcan0 055#F4F70628B2579C80
(1675525535.501996) vcan0 065#59E506F802CE1402
(1675525535.502070) vcan0 070#00000AF814E21500
(1675525535.502212) vcan0 075#0000000000005458
(1675525535.502295) vcan0 080#13508000C2002C00
(1675525535.502370) vcan0 0B0#39830AA3E1C139A3
(1675525535.502445) vcan0 145#F9E2D180FC4810A1
(1675525535.502519) vcan0 210#07E080A0B869BA4D
(1675525535.502662) vcan0 28C#00000000002CFEA5
(1675525535.502736) vcan0 2B5#4B631C6293A67333
(1675525535.502811) vcan0 330#2800000000000000
(1675525535.502954) vcan0 3D0#950F6100D11480C3
(1675525535.505552) vcan0 0F5#B894BF947F6372B0
(1675525535.505630) vcan0 120#D994D0947FFF5589
(1675525535.505709) vcan0 130#C7FF1DD5148AFF11
(1675525535.505786) vcan0 150#BB1402880AF8A4C0
(1675525535.505937) vcan0 430#2808280000002BC6
(1675525535.506015) vcan0 008#2280DCEA23800080
(1675525535.512585) vcan0 010#000000002FB031F9
(1675525535.512663) vcan0 072#F000FF3F0078A038
(1675525535.512750) vcan0 1D0#0000000000000261
(1675525535.512828) vcan0 0E0#E27301F80080FA00
(1675525535.512906) vcan0 1B0#00C0000001B000FC
(1675525535.512983) vcan0 1B5#FFAE829084E0FFEF
(1675525535.513134) vcan0 1D8#363339343234E143
(1675525535.513212) vcan0 1E0#0014A34300B917E0
(1675525535.513869) vcan0 2C3#669C00FFFFA35450
(1675525535.522311) vcan0 125#E52080E4C1D0D735
(1675525535.522386) vcan0 008#2680ECC732800080
(1675525535.522460) vcan0 350#A200000000000080
(1675525535.522535) vcan0 055#F4F70628B2559C80
(1675525535.522678) vcan0 065#58E506F800CE1402
(1675525535.522752) vcan0 070#00000AF814E21500
(1675525535.522825) vcan0 010#000000002FB031F8
(1675525535.522899) vcan0 075#0000000000005458
(1675525535.523044) vcan0 080#13508000C2002C00
(1675525535.523126) vcan0 0B0#39830AA3E1C139A3
(1675525535.523201) vcan0 145#F9D2D280FC4810A1
(1675525535.523275) vcan0 290#0000000000000000
(1675525535.523418) vcan0 291#0000000000000000
(1675525535.523493) vcan0 2A9#8C26009BC0000084
(1675525535.523567) vcan0 2C0#669C00000000A0F1
(1675525535.524807) vcan0 2C5#08E76EE45AE50070
(1675525535.524880) vcan0 0F5#BF94B9947F6762B2
(1675525535.525024) vcan0 120#D794DF947FFA5589
(1675525535.525099) vcan0 130#CFFF1DD5147AFF11
(1675525535.525198) vcan0 150#BC1409980AF893C0
(1675525535.525277) vcan0 288#22E000FF00000080
(1675525535.525429) vcan0 072#F000FF3F00788038
(1675525535.525508) vcan0 210#07E08020B869BA45
(1675525535.533029) vcan0 260#D0FF00AA497487B0
(1675525535.533107) vcan0 008#2880FCA740800080
(1675525535.533194) vcan0 010#000000002FB031F8
(1675525535.533347) vcan0 1D0#0000000000000861
(1675525535.533423) vcan0 0E0#E27308C00080D300
(1675525535.533502) vcan0 1B0#00C0000001B000FC
(1675525535.533580) vcan0 1B5#FFBB90968AE0FFEF
(1675525535.533657) vcan0 1D8#363339343234E143
(1675525535.533809) vcan0 1E0#0018934300B917E0
(1675525535.535468) vcan0 125#E51D80E4C1D0D735
(1675525535.542678) vcan0 008#2B800C9440800080
(1675525535.542752) vcan0 010#000000002FB031F8
(1675525535.542826) vcan0 055#F4F70628B2579C80
(1675525535.542969) vcan0 065#57E506F8FECD1402
(1675525535.543043) vcan0 070#00000AF814E21500
(1675525535.543117) vcan0 072#F000FF3F0078A038
(1675525535.543191) vcan0 075#0000000000005458
(1675525535.543335) vcan0 080#13508000C2002C00
(1675525535.543418) vcan0 0B0#39830AA3E1C139A3
(1675525535.543492) vcan0 145#F9C2D380FC4810A1
(1675525535.543566) vcan0 28C#00000000002CFEA5
(1675525535.543709) vcan0 2B5#4B631C6293A67332
(1675525535.543784) vcan0 340#8900000000000000
(1675525535.543857) vcan0 370#0726C0006D03CB1F
(1675525535.543999) vcan0 0F5#C194C8947F6B52B3
(1675525535.544075) vcan0 120#DD94DD947FFB5589
(1675525535.544149) vcan0 130#D7FF1DD5146AFF11
(1675525535.544291) vcan0 150#C4140AA80AF87BC0
(1675525535.553437) vcan0 008#2B801C754F800080
(1675525535.553515) vcan0 288#2FE000FF00000080
(1675525535.553593) vcan0 010#000000002FB031F8
(1675525535.553672) vcan0 1D0#0000000000000061
(1675525535.553822) vcan0 210#07E080A0B869BA4D
(1675525535.553901) vcan0 290#0000000000000000
(1675525535.553987) vcan0 291#0000000000000000
(1675525535.554065) vcan0 0E0#E2730AC80080B100
(1675525535.554142) vcan0 1B0#00C0000002B000FC
(1675525535.554220) vcan0 1B5#FFC99D9D91E0FFEF
(1675525535.554371) vcan0 1D8#363339343234E143
(1675525535.554448) vcan0 1E0#0018930300B917E0
(1675525535.554526) vcan0 2C3#669C00FFFFA35450
(1675525535.554822) vcan0 072#F000FF3F00788038
(1675525535.563220) vcan0 260#D0FF00AA497487B0
(1675525535.563294) vcan0 125#E51B80E4C1D0D735
(1675525535.563438) vcan0 008#2B802C5064800080
(1675525535.563513) vcan0 010#000000002FB031F8
(1675525535.563586) vcan0 055#F4F70628B2579C80
(1675525535.563661) vcan0 065#54E506F8FECD1402
(1675525535.563804) vcan0 070#00000AF815E21500
(1675525535.563879) vcan0 075#0000000000005458
(1675525535.563961) vcan0 080#13508000C2002C00
(1675525535.564036) vcan0 0B0#39830AA3E1C139A3
(1675525535.564109) vcan0 145#F9B2D480FC4810A1
(1675525535.564254) vcan0 2A9#8C260082C0000084
(1675525535.564328) vcan0 0F5#B694C1947F6F42B5
(1675525535.564401) vcan0 120#D294C9947FFC5589
(1675525535.564546) vcan0 130#DFFF1DD2145DFF11
(1675525535.564688) vcan0 150#BB140FB80AF874C0
(1675525535.574082) vcan0 008#2D803C3E64800080
(1675525535.574161) vcan0 010#000000002FB031F8
(1675525535.574239) vcan0 072#F000FF3F0078A038
(1675525535.574316) vcan0 1D0#0000000000000061
(1675525535.574394) vcan0 0E0#E27309D000809200
(1675525535.574544) vcan0 1B0#00C0000001B000FC
(1675525535.574622) vcan0 1B5#FFD6ABA498E0FFEF
(1675525535.574700) vcan0 1D8#363339343234E143
(1675525535.574786) vcan0 1E0#001C834300B917E0
(1675525535.574865) vcan0 288#1AE010EF00000080
(1675525535.574942) vcan0 210#09E080A0B869BA45
(1675525535.576546) vcan0 125#E51880E4C1D0D735
(1675525535.581626) vcan0 008#2D804C2E64800080
(1675525535.581769) vcan0 010#000000002FB031F8
(1675525535.581842) vcan0 055#F4F70628B2579C80
(1675525535.581917) vcan0 065#54E506F800CE1502
(1675525535.581992) vcan0 070#00000AF815E21500
(1675525535.582134) vcan0 075#0000000000005458
(1675525535.582208) vcan0 080#13508000C2002C00
(1675525535.582282) vcan0 0B0#398309A3E1C139A3
(1675525535.582358) vcan0 145#F9A2D580FC4810A1
(1675525535.582500) vcan0 28C#00000000002CFEA5
(1675525535.582575) vcan0 290#0000000000000000
(1675525535.582648) vcan0 291#0000000000000000
(1675525535.582731) vcan0 2B5#4B631C6293A67333
(1675525535.582874) vcan0 2C0#669C00000000A0F1
(1675525535.582949) vcan0 2C5#08E76EE456E50070
(1675525535.589889) vcan0 0F5#BC94BF947F7332B7
(1675525535.589967) vcan0 120#EA94D7947F025689
(1675525535.590118) vcan0 130#E7FF1DD2144DFF11
(1675525535.590196) vcan0 150#BD1409C809F862C0
(1675525535.590274) vcan0 330#2800000000000000
(1675525535.590353) vcan0 3AF#0000000000000020
(1675525535.590432) vcan0 3CA#00000000560000C8
(1675525535.590509) vcan0 072#F000FF3F00788038
(1675525535.590658) vcan0 360#6B9C00D2B343A001
(1675525535.590736) vcan0 260#D0FF00AA497487B0
(1675525535.590815) vcan0 008#2D805C0F73800080
(1675525535.590892) vcan0 010#000000002FB031F9
(1675525535.591042) vcan0 1D0#0000000000000261
(1675525535.591129) vcan0 390#80FF05000226564F
(1675525535.592289) vcan0 0E0#E27306D800807500
(1675525535.592440) vcan0 1B0#00C0000001B000FC
(1675525535.592519) vcan0 1B5#FFE4B8AA9FE0FFEF
(1675525535.600623) vcan0 1D8#363339343234E143
(1675525535.600697) vcan0 1E0#0020734300B917E0
(1675525535.600840) vcan0 2C3#669C00FFFFA35450
(1675525535.600915) vcan0 125#E51880E4C1D0D735
(1675525535.600989) vcan0 008#2F806C0C64800080
(1675525535.601063) vcan0 288#0AE010EF00000080
(1675525535.601206) vcan0 3C8#669C008E882C008E
(1675525535.601279) vcan0 010#000000002FB031F8
(1675525535.601355) vcan0 072#F000FF3F0078A038
(1675525535.601429) vcan0 055#F4F70628B2579C80
(1675525535.601572) vcan0 065#54E506F800CE1502
(1675525535.601645) vcan0 070#00000AF815E21500
(1675525535.601728) vcan0 075#0000000000005458
(1675525535.601872) vcan0 080#13508000C2002C00
(1675525535.601945) vcan0 0B0#39830AA3E1C139A3
(1675525535.607796) vcan0 145#F992D680FC4810A1
(1675525535.607875) vcan0 210#09E080A0B869BA4D
(1675525535.608027) vcan0 2A9#8C260082C0000084
(1675525535.608106) vcan0 0F5#C694BF947F7722B8
(1675525535.608183) vcan0 120#EE94D9947F045689
(1675525535.608262) vcan0 130#EFFF1DD2143DFF11
(1675525535.608339) vcan0 150#C21402D809F84DC0
(1675525535.608417) vcan0 008#2F807C114F800080
(1675525535.608495) vcan0 350#A200000000000080
(1675525535.608574) vcan0 290#0000000000000000
(1675525535.608724) vcan0 581#FFFFFFFFFFFF0081
(1675525535.613783) vcan0 010#000000002FB031F8
(1675525535.613934) vcan0 1D0#0000000000000861
(1675525535.614021) vcan0 291#0000000000000000
(1675525535.614099) vcan0 400#0000000000030014
(1675525535.614177) vcan0 405#3233343638333212
(1675525535.614255) vcan0 0E0#E27309E000805200
(1675525535.614333) vcan0 1B0#00C0000001B000FC
(1675525535.614412) vcan0 1B5#FFF1C6B1A5E0FFEF
(1675525535.614490) vcan0 1D8#363339343234E143
(1675525535.614640) vcan0 1E0#0020730300B917E0
(1675525535.614718) vcan0 260#D0FF0055497487B0
(1675525535.617427) vcan0 072#F000FF3F00788038
(1675525535.617502) vcan0 3B0#00D88B387FB0C400
(1675525535.617576) vcan0 125#E51580E4C1D0D735
(1675525535.617719) vcan0 008#32808CFE4F800080
(1675525535.623485) vcan0 055#F4F70628B2579C80
(1675525535.623558) vcan0 065#53E506F8FFCD1502
(1675525535.623633) vcan0 070#00000AF815E21500
(1675525535.623744) vcan0 075#0000000000005458
(1675525535.623818) vcan0 080#13508000C2002C00
(1675525535.623894) vcan0 0B0#398309A3E1C139A3
(1675525535.624037) vcan0 145#F982D780FC4810A1
(1675525535.624111) vcan0 28C#00000000002CFEA5
(1675525535.624186) vcan0 010#000000002FB031F8
(1675525535.624260) vcan0 2B5#4B641C6293A67333
(1675525535.624403) vcan0 340#8900000000000000
(1675525535.624476) vcan0 0F5#BD94BC947F7B12BA
(1675525535.624551) vcan0 120#CC94E0947F045689
(1675525535.624692) vcan0 130#F7FF1DD2142DFF11
(1675525535.625934) vcan0 150#BC1402E808F843C0
(1675525535.626085) vcan0 288#0AE010EF00000080
(1675525535.626165) vcan0 210#09E080A0B869BA4D
(1675525535.626241) vcan0 008#32809CFD40800080
(1675525535.632892) vcan0 010#000000002FB031F8
(1675525535.632987) vcan0 072#F000FF3F0078A038
(1675525535.633066) vcan0 1D0#0000000000000061
(1675525535.633143) vcan0 0E0#E2730EE800802D00
(1675525535.633221) vcan0 1B0#00C0000001B000FC
(1675525535.633301) vcan0 1B5#FFFFD3B8ACE0FFEF
(1675525535.633378) vcan0 1D8#363339343234E143
(1675525535.633529) vcan0 1E0#0024634300B917E0
(1675525535.633607) vcan0 2C3#669C00FFFFA45450
(1675525535.639942) vcan0 125#E51580E4C1D0D735
(1675525535.640017) vcan0 008#3480ACD556800080
(1675525535.640091) vcan0 010#000000002FB031F8
(1675525535.640234) vcan0 291#0000000000000000
(1675525535.640308) vcan0 2A9#8C26009BC0000084
(1675525535.640383) vcan0 055#F4F70628B2579C80
(1675525535.642857) vcan0 065#57E506F802CE1502
(1675525535.642931) vcan0 070#00000AF815E21500
(1675525535.643083) vcan0 075#0000000000005458
(1675525535.643159) vcan0 080#13508000C2002C00
(1675525535.643232) vcan0 0B0#39830AA3E1C139A3
(1675525535.643307) vcan0 145#F972D880FC4810A1
(1675525535.643449) vcan0 290#0000000000000000
(1675525535.643523) vcan0 2C0#669C00000000A0F1
(1675525535.643596) vcan0 2C5#08E76EE454E50070
(1675525535.643671) vcan0 370#0726C0006D03CB1F
(1675525535.643812) vcan0 0F5#B994BB947F7F02BC
(1675525535.643887) vcan0 120#CE94DF947FFE5589
(1675525535.643961) vcan0 130#FFFF1DD2141DFF11
(1675525535.644104) vcan0 150#BA1402F807F835C0
(1675525535.644178) vcan0 3E0#000000D935808090
(1675525535.652352) vcan0 072#F000FF3F00788038
(1675525535.652430) vcan0 260#D0FF0055497487B0
(1675525535.652506) vcan0 008#3480BCD447800080
(1675525535.652594) vcan0 288#02E010EF00000080
(1675525535.652746) vcan0 010#000000002FB031F8
(1675525535.652823) vcan0 1D0#0000000000000061
(1675525535.652900) vcan0 210#09E080A0B869BA45
(1675525535.652978) vcan0 0E0#E27312F000800900
(1675525535.653056) vcan0 1B0#00C0000002B000FC
(1675525535.653134) vcan0 1B5#FF0CE1BEB3E0FFEF
(1675525535.653719) vcan0 1D8#363339343234E143
(1675525535.653798) vcan0 1E0#0028534300B917E0
(1675525535.662104) vcan0 125#E51580E4C1D0D735
(1675525535.662248) vcan0 008#3480CCD932800080
(1675525535.662322) vcan0 010#000000002FB031F8
(1675525535.662397) vcan0 072#F000FF3F0078A038
(1675525535.662472) vcan0 055#F4F70628B2579C80
(1675525535.662616) vcan0 065#58E506F802CE1502
(1675525535.662690) vcan0 070#00000AF815E21500
(1675525535.662772) vcan0 075#0000000000005458
(1675525535.662846) vcan0 080#13508000C2002C00
(1675525535.662921) vcan0 0B0#39830AA3E1C139A3
(1675525535.663063) vcan0 145#F962D980FC4810A1
(1675525535.663138) vcan0 28C#00000000002CFEA5
(1675525535.663280) vcan0 2B5#4B641C6293A67233
(1675525535.663355) vcan0 330#2800000000000000
(1675525535.663497) vcan0 0F5#BD94C1947F43F2BD
(1675525535.663572) vcan0 120#E894ED947FFC5589
(1675525535.663646) vcan0 130#87FF1DD2140DFF11
(1675525535.663790) vcan0 150#BF14000806F820C0
(1675525535.670468) vcan0 008#3480DCC932800080
(1675525535.670546) vcan0 010#000000002FB031F9
(1675525535.670625) vcan0 1D0#0000000000000261
(1675525535.670776) vcan0 290#0000000000000000
(1675525535.670853) vcan0 291#0000000000000000
(1675525535.670939) vcan0 0E0#E27311F80080EA00
(1675525535.676445) vcan0 1B0#00C0000001B000FC
(1675525535.676519) vcan0 1B5#FF1AEEC5B9E0FFEF
(1675525535.676662) vcan0 1D8#363339343234E143
(1675525535.676738) vcan0 1E0#0028530300B917E0
(1675525535.676812) vcan0 288#0AE020DF00000080
(1675525535.676885) vcan0 2C3#669C00FFFFA45450
(1675525535.677029) vcan0 072#F000FF3F00788038
(1675525535.677104) vcan0 210#09E08020B869BA45
(1675525535.677178) vcan0 260#D0FF0055497487B0
(1675525535.677252) vcan0 125#E51580E4C1D0D735
(1675525535.681235) vcan0 008#3480ECB932800080
(1675525535.681308) vcan0 010#000000002FB031F8
(1675525535.681383) vcan0 2A9#8C260082C0000084
(1675525535.681457) vcan0 055#F4F70628B2579C80
(1675525535.681600) vcan0 065#58E506F800CE1502
(1675525535.681683) vcan0 070#00000AF815E21500
(1675525535.681758) vcan0 075#0000000000005458
(1675525535.681832) vcan0 080#13508000C2002C00
(1675525535.681907) vcan0 0B0#39830AA3E1C139A3
(1675525535.682049) vcan0 145#F952DA80FC4810A1
(1675525535.689315) vcan0 0F5#BE94C6947F47E2BF
(1675525535.689466) vcan0 120#EC94E8947FFC5589
(1675525535.689543) vcan0 130#8FFF1DD214FDFF11
(1675525535.689621) vcan0 150#C214021805F80DC0
(1675525535.689699) vcan0 360#6B9C00D2B343A001
(1675525535.689779) vcan0 008#3480FCB823800080
(1675525535.689855) vcan0 010#000000002FB031F8
(1675525535.689933) vcan0 072#F000FF3F0078A038
(1675525535.690012) vcan0 1D0#0000000000000861
(1675525535.690163) vcan0 390#80FF05000222574F
(1675525535.690674) vcan0 0E0#E2730CC00080CF00
(1675525535.700257) vcan0 1B0#00C0000001B000FC
(1675525535.700331) vcan0 1B5#FF27FCCCC0E0FFEF
(1675525535.700407) vcan0 1D8#363339343234E143
(1675525535.700481) vcan0 1E0#002C434300B917E0
(1675525535.700624) vcan0 125#E51580E4C1D0D735
(1675525535.700697) vcan0 008#34800CA823800080
(1675525535.700772) vcan0 288#0EE020DF00000080
(1675525535.700846) vcan0 350#A200000000000080
(1675525535.700989) vcan0 010#000000002FB031F8
(1675525535.701064) vcan0 055#F4F70728B2579C80
(1675525535.701138) vcan0 065#54E506F8FECD1502
(1675525535.701281) vcan0 070#00000AF815E21500
(1675525535.701355) vcan0 075#0000000000005458
(1675525535.701429) vcan0 080#13508000C2002C00
(1675525535.702945) vcan0 0B0#39830AA3E1C139A3
(1675525535.703087) vcan0 145#F942DB80FC4810A1
(1675525535.703170) vcan0 210#09E080A0B869BA4D
(1675525535.703246) vcan0 28C#00000000002CFEA5
(1675525535.703320) vcan0 290#0000000000000000
(1675525535.703461) vcan0 291#0000000000000000
(1675525535.703536) vcan0 2B5#4B641C6293A67233
(1675525535.703611) vcan0 2C0#669C00000000A0F1
(1675525535.703684) vcan0 0F5#B494B8947F4BD2C1
(1675525535.703827) vcan0 120#EA94D7947FFF5589
(1675525535.703902) vcan0 130#97FF1DD214EDFF11
(1675525535.703976) vcan0 150#B614022805F809C0
(1675525535.708932) vcan0 2C5#08E76EE459E50070
(1675525535.709012) vcan0 340#8900000000000000
(1675525535.709090) vcan0 3AF#0000000000000020
(1675525535.709241) vcan0 072#F000FF3F00788038
(1675525535.709319) vcan0 3CA#00000000400000C8
(1675525535.709397) vcan0 3D0#950F6100D11480C3
(1675525535.709484) vcan0 260#D0FF0055497487B0
(1675525535.709562) vcan0 008#34801C9823800080
(1675525535.709640) vcan0 010#000000002FB031F8
(1675525535.709790) vcan0 1D0#0000000000000061
(1675525535.712396) vcan0 0E0#E27306C80080B500
(1675525535.712475) vcan0 1B0#00C0000002B000FC
(1675525535.712552) vcan0 1B5#FF3509D3C7E0FFEF
(1675525535.720587) vcan0 1D8#363339343234E143
(1675525535.720731) vcan0 1E0#0030334300B917E0
(1675525535.720805) vcan0 2C3#669C00FFFFA45450
(1675525535.720881) vcan0 125#E51580E4C1D0D735
(1675525535.720954) vcan0 008#34802C9615800080
(1675525535.721098) vcan0 3C8#669C008E882C008E
(1675525535.721171) vcan0 055#F4F70728B2579C80
(1675525535.721245) vcan0 065#54E507F800CE1502
(1675525535.721320) vcan0 070#00000AF815E21500
(1675525535.721471) vcan0 010#000000002FB031F8
(1675525535.721545) vcan0 072#F000FF3F0078A038
(1675525535.721621) vcan0 075#0000000000005458
(1675525535.721696) vcan0 080#13508000C2002C00
(1675525535.721838) vcan0 0B0#39830AA3E1C139A3
(1675525535.721913) vcan0 145#F932DC80FC4810A1
(1675525535.730254) vcan0 2A9#8C26009BC0000084
(1675525535.730331) vcan0 0F5#B994B6947F4FC2C2
(1675525535.730409) vcan0 120#0B95DF947F005689
(1675525535.730488) vcan0 130#9FFF1DD214DDFF11
(1675525535.730638) vcan0 150#B714043804F8F8C0
(1675525535.730716) vcan0 288#0EE020DF00000080
(1675525535.730794) vcan0 210#09E080A0B869BA45
(1675525535.730870) vcan0 008#34803C8615800080
(1675525535.730949) vcan0 010#000000002FB031F8
(1675525535.731099) vcan0 1D0#0000000000000061
(1675525535.731187) vcan0 290#0000000000000000
(1675525535.731264) vcan0 291#0000000000000000
(1675525535.731342) vcan0 0E0#E27301D000809A00
(1675525535.732646) vcan0 1B0#00C0000000B000FC
(1675525535.732796) vcan0 1B5#FF4217D9CEE0FFEF
(1675525535.732875) vcan0 1D8#363339343234E143
(1675525535.732953) vcan0 1E0#0030330300B917E0
(1675525535.739460) vcan0 072#F000FF3F00788038
(1675525535.739538) vcan0 3B0#00D88B387FB0C600
(1675525535.739689) vcan0 260#D0FF00AA497487B0
(1675525535.739768) vcan0 125#E51580E4C1D0D735
(1675525535.739844) vcan0 008#34804C8B00800080
(1675525535.739923) vcan0 010#000000002FB031F8
(1675525535.740000) vcan0 055#F4F70728B2599C80
(1675525535.740150) vcan0 065#55E507F800CE1502
(1675525535.740227) vcan0 070#00000AF815E21500
(1675525535.740314) vcan0 075#0000000000005458
(1675525535.750174) vcan0 080#14508000C2002C00
(1675525535.750248) vcan0 0B0#39830AA3E1C139A3
(1675525535.750392) vcan0 145#F922DD80FC4810A1
(1675525535.750466) vcan0 28C#00000000002CFEA5
(1675525535.750540) vcan0 2B5#4B641C6293A67233
(1675525535.750614) vcan0 330#2800000000000000
(1675525535.750756) vcan0 370#0726C0006D03CB1F
(1675525535.750832) vcan0 0F5#C294B8947F53B2C4
(1675525535.750907) vcan0 120#EC94D7947F035689
(1675525535.750981) vcan0 130#A7FF1DD214CDFF11
(1675525535.751124) vcan0 150#BD14044803F8E2C0
(1675525535.751199) vcan0 008#34805C7B00800080
(1675525535.751342) vcan0 288#02E020DF00000080
(1675525535.751417) vcan0 010#000000002FB031F9
(1675525535.751559) vcan0 072#F000FF3F0078A038
(1675525535.751642) vcan0 1D0#0000000000000261
(1675525535.751717) vcan0 210#09E080A0B869BA4D
(1675525535.751791) vcan0 0E0#E27301D800807A00
(1675525535.760896) vcan0 1B0#00C0000001B000FC
(1675525535.760975) vcan0 1B5#FF5024E0D4E0FFEF
(1675525535.761053) vcan0 1D8#363339343234E143
(1675525535.761139) vcan0 1E0#0034234300B917E0
(1675525535.761209) vcan0 2C3#669C00FFFFA55450
(1675525535.761358) vcan0 125#E51580E4C1D0D735
(1675525535.761435) vcan0 008#34806C6B00800080
(1675525535.761513) vcan0 010#000000002FB031F8
(1675525535.761592) vcan0 055#F4F70728B25C9C80
(1675525535.761670) vcan0 065#56E507F801CE1502
(1675525535.761821) vcan0 070#00000AF816E21500
(1675525535.761898) vcan0 075#0000000000005458
(1675525535.761975) vcan0 080#15508000C2002C00
(1675525535.762074) vcan0 0B0#39830AA3E1C139A3
(1675525535.762224) vcan0 145#F912DE80FC4810A1
(1675525535.766987) vcan0 290#0000000000000000
(1675525535.767065) vcan0 291#0000000000000000
(1675525535.767142) vcan0 2A9#8C260082C0000084
(1675525535.767222) vcan0 2C0#669C00000000A0F1
(1675525535.767299) vcan0 2C5#09E76EE455E50070
(1675525535.767378) vcan0 0F5#BB94C1947F57A2C6
(1675525535.767528) vcan0 120#D394CE947FFF5589
(1675525535.767606) vcan0 130#AFFF1DD214BDFF11
(1675525535.767683) vcan0 150#BE14005802F8D1C0
(1675525535.767762) vcan0 072#F000FF3F00788038
(1675525535.767839) vcan0 260#D0FF00AA497487B0
(1675525535.767990) vcan0 008#34807C5B00800080
(1675525535.768067) vcan0 010#000000002FB031F8
(1675525535.770310) vcan0 1D0#0000000000000861
(1675525535.770396) vcan0 0E0#E27302E000805900
(1675525535.779566) vcan0 1B0#00C0000002B000FC
(1675525535.779709) vcan0 1B5#FF5D32E7DBE0FFEF
(1675525535.779783) vcan0 1D8#363339343234E143
(1675525535.779858) vcan0 1E0#0038134300B917E0
(1675525535.779931) vcan0 288#02E030CF00000080
(1675525535.780074) vcan0 210#09E080A0B869BA45
(1675525535.780148) vcan0 125#E51580E4C1D0D735
(1675525535.780223) vcan0 008#34808C4B00800080
(1675525535.780298) vcan0 010#000000002FB031F8
(1675525535.780441) vcan0 055#F4F70828B2609C80
(1675525535.780516) vcan0 065#55E507F800CE1602
(1675525535.780589) vcan0 070#00000AF818E21500
(1675525535.782447) vcan0 072#F000FF3F0078A038
(1675525535.782592) vcan0 075#0000000000005458
(1675525535.782665) vcan0 080#16508000C2002C00
(1675525535.782749) vcan0 0B0#39830AA3E1C139A3
(1675525535.782823) vcan0 145#F902DF80FC4810A1
(1675525535.782966) vcan0 28C#00000000002CFEA5
(1675525535.783040) vcan0 2B5#4B641C6293A67235
(1675525535.783116) vcan0 340#8900000000000000
(1675525535.783189) vcan0 0F5#B994BD947F5B92C7
(1675525535.783333) vcan0 120#D494DB947FFC5589
(1675525535.783406) vcan0 130#B7FF1DD214ADFF11
(1675525535.783480) vcan0 150#BB14016802F8C4C0
(1675525535.789402) vcan0 360#6B9C00D2B343A001
(1675525535.789479) vcan0 008#34809C3B00800080
(1675525535.789559) vcan0 350#A200000000000080
(1675525535.789636) vcan0 010#000000002FB031F8
(1675525535.789714) vcan0 1D0#0000000000000061
(1675525535.789864) vcan0 291#0000000000000000
(1675525535.789942) vcan0 290#0000000000000000
(1675525535.790027) vcan0 390#80FF0500021E584F
(1675525535.793139) vcan0 0E0#E27301E800803A00
(1675525535.793289) vcan0 1B0#00C0000001B000FC
(1675525535.793367) vcan0 1B5#FF6B3FEDE2E0FFEF
(1675525535.793445) vcan0 1D8#363339343234E143
(1675525535.793522) vcan0 1E0#0038130300B917E0
(1675525535.793599) vcan0 2C3#669C00FFFFA55450
(1675525535.799866) vcan0 072#F000FF3F00788038
(1675525535.800009) vcan0 260#D0FF00AA497487B0
(1675525535.800085) vcan0 125#E51580E4C1D0D735
(1675525535.800158) vcan0 008#3480AC2B00800080
(1675525535.800233) vcan0 288#0AE030CF00000080
(1675525535.800376) vcan0 010#000000002FB031F8
(1675525535.800451) vcan0 055#F4F70828B2649C80
(1675525535.800524) vcan0 065#56E507F800CE1702
(1675525535.800599) vcan0 070#00000AF81AE21500
(1675525535.800681) vcan0 075#0000000000005458
(1675525535.805927) vcan0 080#19508000C2002C00
(1675525535.806006) vcan0 0B0#39830AA3E1C139A3
(1675525535.806157) vcan0 145#F9F2D080FC4810A1
(1675525535.806235) vcan0 210#09E080A0B869BA4D
(1675525535.806311) vcan0 2A9#8C26008AC0000084
(1675525535.806391) vcan0 0F5#C194C8947F5F82C9
(1675525535.806467) vcan0 120#DF94DD947FFE5589
(1675525535.806620) vcan0 130#BFFF1DD2149DFF11
(1675525535.806697) vcan0 150#C414017802F8ABC0
(1675525535.806775) vcan0 008#3480BC1B00800080
(1675525535.806853) vcan0 010#000000002FB031F8
(1675525535.806932) vcan0 072#F000FF3F0078A038
(1675525535.812781) vcan0 1D0#0000000000000061
(1675525535.812859) vcan0 0E0#627301F000801A00
(1675525535.813010) vcan0 1B0#00C0000001B000FC
(1675525535.813098) vcan0 1B5#FF784DF4E8E0FFEF
(1675525535.813176) vcan0 1D8#363339343234E143
(1675525535.813253) vcan0 1E0#003C034300B917E0
(1675525535.815279) vcan0 125#E51580E4C1D0D735
(1675525535.822353) vcan0 008#3480CC0B00800080
(1675525535.822426) vcan0 055#F4F70928B26B9C81
(1675525535.822568) vcan0 065#57E508F801CE1902
(1675525535.822645) vcan0 070#00000AF81CE21500
(1675525535.822720) vcan0 010#000000002FB031F9
(1675525535.822794) vcan0 075#0000000000005458
(1675525535.822935) vcan0 080#1D508000C2002C00
(1675525535.823011) vcan0 0B0#39830AA3E1C139A3
(1675525535.823083) vcan0 145#F9E2D180FC4810A1
(1675525535.823159) vcan0 28C#00000000002CFEA5
(1675525535.823301) vcan0 290#0000000000000000
(1675525535.823376) vcan0 291#0000000000000000
(1675525535.823457) vcan0 2B5#4B641C6293A67238
(1675525535.823601) vcan0 2C0#669C00000000A0F1
(1675525535.823676) vcan0 0F5#B694CC947F6372CB
(1675525535.829531) vcan0 120#D594D5947F045689
(1675525535.829609) vcan0 130#C7FF1DD2148DFF11
(1675525535.829760) vcan0 150#C114058801F89EC0
(1675525535.829839) vcan0 288#0EE030CF00000080
(1675525535.829917) vcan0 2C5#09E76EE456E50070
(1675525535.829996) vcan0 330#2800000000000000
(1675525535.830073) vcan0 3AF#0000000000000020
(1675525535.830223) vcan0 3CA#00000000510000C8
(1675525535.830301) vcan0 072#F000FF3F00788038
(1675525535.830380) vcan0 210#09E08020B869BA4D
(1675525535.830456) vcan0 260#D0FF0055497487B0
(1675525535.830608) vcan0 008#3480DCFB00800080
(1675525535.830685) vcan0 010#000000002FB031F8
(1675525535.830770) vcan0 1D0#0000000000000261
(1675525535.833017) vcan0 0E0#627305F80080F600
(1675525535.833095) vcan0 1B0#00C0000001B000FC
(1675525535.833172) vcan0 1B5#FF865AFBEFE0FFEF
(1675525535.833251) vcan0 1D8#363339343234E143
(1675525535.833402) vcan0 1E0#0000F34300B917E0
(1675525535.833479) vcan0 2C3#669C00FFFFA55450
(1675525535.838701) vcan0 125#E51580E4C1D0D735
(1675525535.838781) vcan0 008#3480ECEB00800080
(1675525535.838859) vcan0 3C8#669C008E882C008E
(1675525535.838937) vcan0 010#000000002FB031F8
(1675525535.843629) vcan0 072#F000FF3F0078A038
(1675525535.843707) vcan0 055#F4F70A28B2729C81
(1675525535.843785) vcan0 065#59E508F802CE1B02
(1675525535.843936) vcan0 070#00000AF81EE21500
(1675525535.844014) vcan0 075#0000000000005458
(1675525535.844100) vcan0 080#21508000C2002C00
(1675525535.844177) vcan0 0B0#39830AA3E1C139A3
(1675525535.844255) vcan0 145#F9D2D280FC4810A1
(1675525535.844333) vcan0 2A9#8C260093C0000084
(1675525535.844483) vcan0 370#0726C0006D03CB1F
(1675525535.844561) vcan0 0F5#BD94C4947F6762CD
(1675525535.844639) vcan0 120#E794D2947FFF5589
(1675525535.844717) vcan0 130#CFFF1DD2147DFF11
(1675525535.844869) vcan0 150#C014049801F88FC0
(1675525535.848185) vcan0 008#3480FCDB00800080
(1675525535.848260) vcan0 288#0AE030CF00000080
(1675525535.848404) vcan0 010#000000002FB031F8
(1675525535.848477) vcan0 1D0#0000000000000861
(1675525535.852941) vcan0 210#09E080A0B869BA45
(1675525535.853015) vcan0 290#0000000000000000
(1675525535.853157) vcan0 291#0000000000000000
(1675525535.853241) vcan0 0E0#627308C00080D300
(1675525535.853317) vcan0 1B0#00C0000002B000FC
(1675525535.853390) vcan0 1B5#FF936802F6E0FFEF
(1675525535.853533) vcan0 1D8#363339343234E143
(1675525535.853608) vcan0 1E0#0000F30300B917E0
(1675525535.860033) vcan0 072#F000FF3F00788038
(1675525535.860111) vcan0 3B0#00D88B3C7FB0C400
(1675525535.860188) vcan0 260#D0FF0055497487B0
(1675525535.860338) vcan0 125#E51580E4C1D0D735
(1675525535.860416) vcan0 008#34800CCB00800080
(1675525535.860494) vcan0 010#000000002FB031F8
(1675525535.860572) vcan0 055#F4F70B28B2799C81
(1675525535.860649) vcan0 065#5BE509F802CE1D02
(1675525535.860801) vcan0 070#00000AF820E21500
(1675525535.860879) vcan0 075#0000000000005458
(1675525535.865003) vcan0 080#24508000C2002C00
(1675525535.865090) vcan0 0B0#39830BA3E1C139A3
(1675525535.865241) vcan0 145#F9C2D380FC4810A1
(1675525535.865315) vcan0 28C#00000000002CFEA5
(1675525535.865391) vcan0 2B5#4B641C6293A6723A
(1675525535.865464) vcan0 340#8900000000000000
(1675525535.865607) vcan0 400#0100000000000015
(1675525535.865682) vcan0 405#D5075753111B6701
(1675525535.865755) vcan0 0F5#BF94C1947F6B52CE
(1675525535.865831) vcan0 120#EC94E6947F015689
(1675525535.865974) vcan0 130#D7FF1DD2146DFF11
(1675525535.866048) vcan0 150#C01402A801F87FC0
(1675525535.866121) vcan0 008#34801CBB00800080
(1675525535.866264) vcan0 010#000000002FB031F8
(1675525535.868534) vcan0 072#F000FF3F0078A038
(1675525535.868609) vcan0 1D0#0000000000000061
(1675525535.875704) vcan0 0E0#627308C80080B300
(1675525535.875791) vcan0 1B0#00C0000001B000FC
(1675525535.875868) vcan0 1B5#FFA17508FCE0FFEF
(1675525535.875947) vcan0 1D8#363339343234E143
(1675525535.876025) vcan0 1E0#0004E34300B917E0
(1675525535.876104) vcan0 288#06E040BF00000080
(1675525535.876252) vcan0 2C3#669C00FFFFA55450
(1675525535.876331) vcan0 210#09E080A0B869BA45
(1675525535.876409) vcan0 125#E51580E4C1D0D735
(1675525535.876487) vcan0 008#34802CAB00800080
(1675525535.879165) vcan0 350#A200000000000080
(1675525535.879243) vcan0 010#000000002FB031F8
(1675525535.879321) vcan0 291#0000000000000000
(1675525535.883081) vcan0 055#F4F70B28B27D9C80
(1675525535.883158) vcan0 065#58E50AF8FFCD1F02
(1675525535.883236) vcan0 070#00000AF822E21500
(1675525535.883386) vcan0 075#0000000000005458
(1675525535.883472) vcan0 080#26508000C2002C00
(1675525535.883551) vcan0 0B0#39830AA3E1C139A3
(1675525535.883628) vcan0 145#F9B2D480FC4810A1
(1675525535.883707) vcan0 290#0000000000000000
(1675525535.883784) vcan0 2A9#8C26008AC0000084
(1675525535.883934) vcan0 2C0#669C00000000A0F1
(1675525535.884013) vcan0 2C5#0BE76EE45BE50070
(1675525535.884090) vcan0 0F5#B994BD947F6F42D0
(1675525535.884169) vcan0 120#CC94DD947FFE5589
(1675525535.884318) vcan0 130#DFFF1DD2145DFF11
(1675525535.884396) vcan0 150#BB1402B801F874C0
(1675525535.888904) vcan0 072#F000FF3F00788038
(1675525535.889046) vcan0 360#6B9C00D2B343A001
(1675525535.889121) vcan0 260#D0FF0055497487B0
(1675525535.889195) vcan0 008#34803C9B00800080
(1675525535.889270) vcan0 010#000000002FB031F8
(1675525535.889422) vcan0 1D0#0000000000000061
(1675525535.889497) vcan0 390#80FF0500021A596F
(1675525535.892384) vcan0 0E0#627305D000809600
(1675525535.892458) vcan0 1B0#00C0000001B000FC
(1675525535.892602) vcan0 1B5#FFAE830F03E0FFEF
(1675525535.899500) vcan0 1D8#363339343234E143
(1675525535.899580) vcan0 1E0#0008D34300B917E0
(1675525535.899657) vcan0 125#E51580E4C1D0D735
(1675525535.899734) vcan0 008#34804C8B00800080
(1675525535.899813) vcan0 288#06E040BF00000080
(1675525535.899964) vcan0 010#000000002FB031F8
(1675525535.900042) vcan0 055#F4F70C28B27F9C80
(1675525535.900120) vcan0 065#59E50AF800CE2102
(1675525535.900198) vcan0 070#00000AF824E21500
(1675525535.900277) vcan0 072#F000FF3F0078A038
(1675525535.902087) vcan0 075#0000000000005458
(1675525535.902186) vcan0 080#27508000C2002C00
(1675525535.902264) vcan0 0B0#39830AA3E1C139A3
(1675525535.902342) vcan0 145#F9A2D580FC4810A1
(1675525535.902421) vcan0 210#09E080A0B869BA4D
(1675525535.902499) vcan0 28C#00000000002CFEA5
(1675525535.902576) vcan0 2B5#4B641C6293A6733E
(1675525535.902655) vcan0 330#2800000000000000
(1675525535.902732) vcan0 3D0#950F6100D11480C3
(1675525535.902882) vcan0 0F5#B494B9947F7332D2
(1675525535.911442) vcan0 120#DB94DF947FFF5589
(1675525535.911515) vcan0 130#E7FF1DD2144DFF11
(1675525535.911659) vcan0 150#B61401C801F869C0
(1675525535.911735) vcan0 008#34805C7B00800080
(1675525535.911809) vcan0 010#000000002FB031F9
(1675525535.911883) vcan0 1D0#0000000000000261
(1675525535.911956) vcan0 290#0000000000000000
(1675525535.912110) vcan0 291#0000000000000000
(1675525535.912184) vcan0 0E0#627304D800807700
(1675525535.912739) vcan0 1B0#00C0000001B000FC
(1675525535.912813) vcan0 1B5#FFBC90160AE0FFEF
(1675525535.912886) vcan0 1D8#363339343234E143
(1675525535.913029) vcan0 1E0#0008D30300B917E0
(1675525535.922276) vcan0 2C3#669C00FFFFA65450
(1675525535.922354) vcan0 072#F000FF3F00788038
(1675525535.922432) vcan0 260#D0FF00AA497487B0
(1675525535.922510) vcan0 125#E51580E4C1D0D735
(1675525535.922588) vcan0 008#34806C6B00800080
(1675525535.922738) vcan0 055#F4F70D28B2819C80
(1675525535.922816) vcan0 065#5BE50BF801CE2302
(1675525535.922894) vcan0 070#00000AF826E21500
(1675525535.922972) vcan0 010#000000002FB031F8
(1675525535.923049) vcan0 075#0000000000005458
(1675525535.923208) vcan0 080#28508000C2002C00
(1675525535.923286) vcan0 0B0#39830AA3E1C139A3
(1675525535.923364) vcan0 145#F992D680FC4810A1
(1675525535.923442) vcan0 2A9#8C26009BC0000084
(1675525535.923594) vcan0 0F5#B794BD947F7722D3
(1675525535.923672) vcan0 120#EE94F3947FFF5589
(1675525535.923822) vcan0 130#EFFF1DD2143DFF11
(1675525535.923899) vcan0 150#BA1402D801F855C0
(1675525535.923976) vcan0 288#06E040BF00000080
(1675525535.930635) vcan0 210#09E080A0B869BA45
(1675525535.930709) vcan0 008#34807C5B00800080
(1675525535.930852) vcan0 010#000000002FB031F8
(1675525535.930926) vcan0 072#F000FF3F0078A038
(1675525535.931001) vcan0 1D0#0000000000000861
(1675525535.931075) vcan0 0E0#627304E000805700
(1675525535.933070) vcan0 1B0#00C0000000B000FC
(1675525535.933153) vcan0 1B5#FFC99E1C11E0FFEF
(1675525535.933228) vcan0 1D8#363339343234E143
(1675525535.933302) vcan0 1E0#000CC34300B917E0
(1675525535.942768) vcan0 125#E51580E4C1D0D735
(1675525535.942846) vcan0 008#34808C4B00800080
(1675525535.942924) vcan0 010#000000002FB031F8
(1675525535.943002) vcan0 291#0000000000000000
(1675525535.943080) vcan0 055#F4F70E28B2829C80
(1675525535.943229) vcan0 065#5AE50CF800CE2602
(1675525535.943308) vcan0 070#00000AF829E21500
(1675525535.943386) vcan0 075#0000000000005458
(1675525535.943462) vcan0 080#29508000C2002C00
(1675525535.943540) vcan0 0B0#39830BA3E1C139A3
(1675525535.943691) vcan0 145#F982D780FC4810A1
(1675525535.943768) vcan0 28C#00000000002CFEA5
(1675525535.943846) vcan0 290#0000000000000000
(1675525535.943942) vcan0 2B5#4B641B6293A67443
(1675525535.944093) vcan0 2C0#669C00000000A0F1
(1675525535.944171) vcan0 2C5#0CE76EE45AE50070
(1675525535.944249) vcan0 0F5#C294C4947F7B12D5
(1675525535.944327) vcan0 120#F194E8947FFE5589
(1675525535.944477) vcan0 130#F7FF1DD2142DFF11
(1675525535.944556) vcan0 150#C31401E801F83CC0
(1675525535.949879) vcan0 340#8900000000000000
(1675525535.949954) vcan0 370#0726C0006D03CB1F
(1675525535.950028) vcan0 3AF#0000000000000020
(1675525535.950172) vcan0 072#F000FF3F00788038
(1675525535.950246) vcan0 3CA#00000000520000C8
(1675525535.950321) vcan0 3E0#000000D935808090
(1675525535.950396) vcan0 260#D0FF00AA497487B0
(1675525535.950538) vcan0 008#34809C3B00800080
(1675525535.950613) vcan0 288#02E040BF00000080
(1675525535.950696) vcan0 010#000000002FB031F8
(1675525535.950769) vcan0 1D0#0000000000000061
(1675525535.950914) vcan0 210#09E080A0B869BA4D
(1675525535.958088) vcan0 0E0#627304E800803700
(1675525535.958165) vcan0 1B0#00C0000002B000FC
(1675525535.958244) vcan0 1B5#FFD7AB2317E0FFEF
(1675525535.958322) vcan0 1D8#363339343234E143
(1675525535.958400) vcan0 1E0#0010B34300B917E0
(1675525535.958478) vcan0 2C3#669C00FFFFA65450
(1675525535.958555) vcan0 125#E51580E4C1D0D735
(1675525535.958706) vcan0 008#3480AC2B00800080
(1675525535.958785) vcan0 3C8#669C008E882C008E
(1675525535.958863) vcan0 010#000000002FB031F8
(1675525535.958939) vcan0 055#F3F70F28B2869C80
(1675525535.963135) vcan0 065#57E50DF800CE2802
(1675525535.963213) vcan0 070#00000AF82BE21500
(1675525535.963299) vcan0 072#F000FF3F0078A038
(1675525535.963376) vcan0 075#0000000000005458
(1675525535.963455) vcan0 080#2B508000C2002C00
(1675525535.963533) vcan0 0B0#39830AA3E1C139A3
(1675525535.963683) vcan0 145#F972D880FC4810A1
(1675525535.963761) vcan0 2A9#8C260082C0000084
(1675525535.963838) vcan0 0F5#B894BF947F7F02D7
(1675525535.963916) vcan0 120#EC94CC947FFE5589
(1675525535.963994) vcan0 130#FFFF1DD2141DFF11
(1675525535.964072) vcan0 150#BB1400F801F834C0
(1675525535.966675) vcan0 008#3480BC1B00800080
(1675525535.966748) vcan0 350#A200000000000080
(1675525535.972383) vcan0 010#000000002FB031F8
(1675525535.972457) vcan0 1D0#0000000000000061
(1675525535.972532) vcan0 290#0000000000000000
(1675525535.972674) vcan0 291#0000000000000000
(1675525535.972758) vcan0 0E0#627309F000801200
(1675525535.972832) vcan0 1B0#00C0000001B000FC
(1675525535.972907) vcan0 1B5#FFE4B92A1EE0FFEF
(1675525535.972980) vcan0 1D8#363339343234E143
(1675525535.973131) vcan0 1E0#0010B30300B917E0
(1675525535.979385) vcan0 288#FEDF50AF00000080
(1675525535.979465) vcan0 072#F000FF3F00788038
(1675525535.979615) vcan0 210#09E08020B869BA45
(1675525535.979693) vcan0 3B0#00D88B387FB0C400
(1675525535.979771) vcan0 260#D0FF00AA497487B0
(1675525535.979849) vcan0 125#E51580E4C1D0D735
(1675525535.979928) vcan0 008#3480CC0B00800080
(1675525535.980005) vcan0 010#000000002FB031F8
(1675525535.980155) vcan0 055#F3F71028B2889C80
(1675525535.980234) vcan0 065#59E50EF800CE2802
(1675525535.984356) vcan0 070#00000AF82EE21500
(1675525535.984443) vcan0 075#0000000000005458
(1675525535.984522) vcan0 080#2D508000C2002C00
(1675525535.984671) vcan0 0B0#39830AA3E1C139A3
(1675525535.984748) vcan0 145#F962D980FC4810A1
(1675525535.984827) vcan0 28C#00000000002CFEA5
(1675525535.984905) vcan0 2B5#4B641C6293A6744A
(1675525535.984983) vcan0 330#2800000000000000
(1675525535.985061) vcan0 0F5#C294BF947F43F2D8
(1675525535.985214) vcan0 120#0195CE947F065689
(1675525535.985288) vcan0 130#87FF1DD2140DFF11
(1675525535.985431) vcan0 150#C014000801F81FC0
(1675525535.985506) vcan0 360#6B9C00D2B343A001
(1675525535.985580) vcan0 008#3480DCFB00800080
(1675525535.989978) vcan0 010#000000002FB031F9
(1675525535.990052) vcan0 072#F000FF3F0078A038
(1675525535.990127) vcan0 1D0#0000000000000261
(1675525535.990279) vcan0 390#80FF050002165A4F
(1675525535.998154) vcan0 0E0#627309F80080F200
(1675525535.998304) vcan0 1B0#00C0000001B000FC
(1675525535.998382) vcan0 1B5#FFF2C63125E0FFEF
(1675525535.998461) vcan0 1D8#363339343234E143
(1675525535.998539) vcan0 1E0#0014A34300B917E0
(1675525535.998615) vcan0 2C3#669C00FFFFA65450
(1675525535.998766) vcan0 125#E51580E4C1D0D735
(1675525535.998844) vcan0 008#3480ECEB00800080
(1675525535.998922) vcan0 288#02E050AF00000080
(1675525535.999000) vcan0 010#000000002FB031F8
(1675525535.999078) vcan0 055#F3F71128B28F9C81
(1675525536.000671) vcan0 065#5CE50FF802CE2D02
(1675525536.000750) vcan0 070#00000AF831E21500
(1675525536.000899) vcan0 075#0000000000005458
(1675525536.000977) vcan0 080#30508000C2002C00
(1675525536.001064) vcan0 0B0#39830AA3E1C139A3
(1675525536.001142) vcan0 145#F952DA80FC4810A1
(1675525536.001219) vcan0 210#09E080A0B869BA4D
(1675525536.010348) vcan0 290#0000000000000000
(1675525536.010501) vcan0 291#0000000000000000
(1675525536.010580) vcan0 2A9#8C260082C0000084
(1675525536.010656) vcan0 2C0#669C00000000A0F1
(1675525536.010735) vcan0 0F5#C894CC947F47E2DA
(1675525536.010812) vcan0 120#E994D1947F025689
(1675525536.010964) vcan0 130#8FFF1DD214FDFF11
(1675525536.011041) vcan0 150#C914001801F806C0
(1675525536.011118) vcan0 2C5#0FE76EE35AE50070
(1675525536.011196) vcan0 072#F000FF3F00788038
(1675525536.011346) vcan0 260#D0FF00AA497487B0
(1675525536.011424) vcan0 008#3480FCDB00800080
(1675525536.011502) vcan0 010#000000002FB031F8
(1675525536.011589) vcan0 1D0#0000000000000861
(1675525536.012821) vcan0 0E0#627308C00080D300
(1675525536.012900) vcan0 1B0#00C0000002B000FC
(1675525536.012976) vcan0 1B5#FFFFD3372BE0FFEF
(1675525536.013137) vcan0 1D8#363339343234E143
(1675525536.013204) vcan0 1E0#0018934300B917E0
(1675525536.019555) vcan0 125#E51580E4C1D0D735
(1675525536.019698) vcan0 008#34800CCB00800080
(1675525536.019774) vcan0 055#F3F71228B2959C80
(1675525536.019846) vcan0 065#61E510F804CE2F02
(1675525536.019922) vcan0 070#00000AF834E21500
(1675525536.024589) vcan0 010#000000002FB031F8
(1675525536.024733) vcan0 072#F000FF3F0078A038
(1675525536.024806) vcan0 075#0000000000005458
(1675525536.024882) vcan0 080#33508000C2002C00
(1675525536.024955) vcan0 0B0#39830BA3E1C139A3
(1675525536.025106) vcan0 145#F942DB80FC4810A1
(1675525536.025197) vcan0 28C#00000000002CFEA5
(1675525536.025279) vcan0 2B5#4B651C6293A6744F
(1675525536.025356) vcan0 340#8900000000000000
(1675525536.025435) vcan0 0F5#C894CC947F4BD2DC
(1675525536.025513) vcan0 120#D594DD947F025689
(1675525536.025664) vcan0 130#97FF1DD214EDFF11
(1675525536.025741) vcan0 150#C914012801F8F6C0
(1675525536.025819) vcan0 288#02E050AF00000080
(1675525536.029219) vcan0 210#09E080A0B869BA4D
(1675525536.029297) vcan0 008#34801CBB00800080
(1675525536.029377) vcan0 010#000000002FB031F8
(1675525536.029453) vcan0 1D0#0000000000000061
(1675525536.029532) vcan0 290#0000000000000000
(1675525536.029610) vcan0 291#0000000000000000
(1675525536.033955) vcan0 0E0#627301C80080BA00
(1675525536.034041) vcan0 1B0#00C0000000B000FC
(1675525536.034120) vcan0 1B5#FF0DE13E32E0FFEF
(1675525536.034197) vcan0 1D8#363339343234E143
(1675525536.034276) vcan0 1E0#0018930300B917E0
(1675525536.034352) vcan0 2C3#669C00FFFFA75450
(1675525536.034503) vcan0 072#F000FF3F00788038
(1675525536.039830) vcan0 260#D0FF0055497487B0
(1675525536.039902) vcan0 125#E51580E4C1D0D735
(1675525536.039978) vcan0 008#34802CAB00800080
(1675525536.040121) vcan0 010#000000002FB031F8
(1675525536.040195) vcan0 2A9#8C26009BC0000084
(1675525536.040271) vcan0 055#F3F71328B29C9C80
(1675525536.040344) vcan0 065#61E511F802CE3202
(1675525536.040487) vcan0 070#00000AF837E21500
(1675525536.042415) vcan0 075#0000000000005458
(1675525536.042489) vcan0 080#3A508000C2002C00
(1675525536.042582) vcan0 0B0#39830BA3E0C139A3
(1675525536.042725) vcan0 145#F932DC80FC4810A1
(1675525536.042800) vcan0 370#0726C0006D03CB1F
(1675525536.042874) vcan0 0F5#C994CC947F4FC2DD
(1675525536.042948) vcan0 120#D394DF947FFC5589
(1675525536.043090) vcan0 130#9FFF1DD214DDFF11
(1675525536.043165) vcan0 150#CA14003801F8E5C0
(1675525536.050551) vcan0 008#34803C9B00800080
(1675525536.050700) vcan0 288#02E050AF00000080
(1675525536.050778) vcan0 010#000000002FB031F8
(1675525536.050855) vcan0 072#F000FF3F0078A038
(1675525536.050934) vcan0 1D0#0000000000000061
(1675525536.051014) vcan0 210#09E080A0B869BA45
(1675525536.051164) vcan0 0E0#627300D000809B00
(1675525536.053045) vcan0 1B0#00C0000001B000FC
(1675525536.053131) vcan0 1B5#FF1AEE4539E0FFEF
(1675525536.053211) vcan0 1D8#363339343234E143
(1675525536.053361) vcan0 1E0#001C834300B917E0
(1675525536.061141) vcan0 125#E51580E4C1D0D735
(1675525536.061284) vcan0 008#34804C8B00800080
(1675525536.061359) vcan0 350#A200000000000080
(1675525536.061433) vcan0 010#000000002FB031F8
(1675525536.061577) vcan0 291#0000000000000000
(1675525536.061652) vcan0 330#2800000000000000
(1675525536.061726) vcan0 055#F3F71428B29E9C80
(1675525536.061801) vcan0 065#5CE512F8FECD3402
(1675525536.061874) vcan0 070#00000AF83AE21500
(1675525536.062017) vcan0 075#0000000000005458
(1675525536.062092) vcan0 080#3B508000C2002C00
(1675525536.062165) vcan0 0B0#39830BA3E1C139A3
(1675525536.062307) vcan0 145#F922DD80FC4810A1
(1675525536.062451) vcan0 28C#00000000002CFEA5
(1675525536.067217) vcan0 290#0000000000000000
(1675525536.067296) vcan0 2B5#4B651C6293A67754
(1675525536.067446) vcan0 0F5#CE94D0947F53B2DF
(1675525536.067524) vcan0 120#E494E0947FFF5589
(1675525536.067601) vcan0 130#A7FF1DD214CDFF11
(1675525536.067679) vcan0 150#CF14004801F8D0C0
(1675525536.067757) vcan0 2C0#669C00000000A0F1
(1675525536.067835) vcan0 2C5#11E76EE362E50070
(1675525536.067986) vcan0 3AF#0000000000000020
(1675525536.068064) vcan0 072#F000FF3F00788038
(1675525536.068142) vcan0 3CA#00000000530000C8
(1675525536.068220) vcan0 425#0000000000000000
(1675525536.068298) vcan0 260#D0FF0055497487B0
(1675525536.068449) vcan0 008#34805C7B00800080
(1675525536.070692) vcan0 010#000000002FB031F9
(1675525536.070843) vcan0 1D0#0000000000000261
(1675525536.070931) vcan0 0E0#627300D800807B00
(1675525536.079042) vcan0 1B0#00C0000001B000FC
(1675525536.079116) vcan0 1B5#FF28FC4B40E0FFEF
(1675525536.079190) vcan0 1D8#363339343234E143
(1675525536.079264) vcan0 1E0#0020734300B917E0
(1675525536.079409) vcan0 288#0AE0609F00000080
(1675525536.079481) vcan0 2C3#669C00FFFFA75450
(1675525536.079556) vcan0 210#09E080A0B869BA45
(1675525536.079630) vcan0 125#E51580E4C1D0D735
(1675525536.079773) vcan0 008#34806C6B00800080
(1675525536.079848) vcan0 3C8#669C008E882C008E
(1675525536.079922) vcan0 010#000000002FB031F8
(1675525536.080064) vcan0 072#F000FF3F0078A038
(1675525536.080139) vcan0 055#F3F71628B2A19C80
(1675525536.083988) vcan0 065#5AE513F8FDCD3702
(1675525536.084063) vcan0 070#00000AF83DE21500
(1675525536.084145) vcan0 075#0000000000005458
(1675525536.084289) vcan0 080#3C508000C2002C00
(1675525536.084363) vcan0 0B0#39830BA3E1C139A3
(1675525536.084438) vcan0 145#F912DE80FC4810A1
(1675525536.084513) vcan0 2A9#8C26008AC0000084
(1675525536.084655) vcan0 0F5#C494D8947F57A2E1
(1675525536.084730) vcan0 120#DD94DD947F025689
(1675525536.084804) vcan0 130#AF011ED814B70112
(1675525536.084945) vcan0 150#CD14015801F8C2C0
(1675525536.085020) vcan0 360#6B9C00D2B343A001
(1675525536.093287) vcan0 008#34807C5B00800080
(1675525536.093364) vcan0 010#000000002FB031F8
(1675525536.093443) vcan0 1D0#0000000000000861
(1675525536.093520) vcan0 290#0000000000000000
(1675525536.093599) vcan0 291#0000000000000000
(1675525536.093676) vcan0 390#80FF050002125B4F
(1675525536.093836) vcan0 0E0#627302E000805900
(1675525536.093914) vcan0 1B0#00C0000001B000FC
(1675525536.093991) vcan0 1B5#FF350A5246E0FFEF
(1675525536.094070) vcan0 1D8#363339343234E143
(1675525536.094148) vcan0 1E0#0020730300B917E0
(1675525536.094588) vcan0 072#F000FF3F00788038
(1675525536.094666) vcan0 3B0#00D88B387FB0C402
(1675525536.101907) vcan0 260#D0FF0055497487B0
(1675525536.102048) vcan0 125#E51580E4C1D0D735
(1675525536.102123) vcan0 008#34808C4B00800080
(1675525536.102197) vcan0 288#0AE0609F00000080
(1675525536.102271) vcan0 010#000000002FB031F8
(1675525536.102414) vcan0 210#09E080A0B869BA4D
(1675525536.102490) vcan0 3D0#950F6100D11480C3
(1675525536.102563) vcan0 055#F3F71628B2A39C80
(1675525536.102637) vcan0 065#5CE515F800CE3D02
(1675525536.102789) vcan0 070#00000AF840E21500
(1675525536.102864) vcan0 075#0000000000005458
(1675525536.102938) vcan0 080#3D508000C2002C00
(1675525536.103082) vcan0 0B0#39830AA3E1C139A3
(1675525536.103155) vcan0 145#F902DF80FC4810A1
(1675525536.103229) vcan0 28C#00000000002CFEA5
(1675525536.104539) vcan0 2B5#4B651C6293A6785B
(1675525536.104682) vcan0 340#8800000000000000
(1675525536.104756) vcan0 0F5#C694CC947F5B92E2
(1675525536.104831) vcan0 120#ED94E4947F015689
(1675525536.104905) vcan0 130#B7011ED814A70112
(1675525536.105047) vcan0 150#C914006801F8B6C0
(1675525536.105121) vcan0 430#28082A0000002BC6
(1675525536.112857) vcan0 008#34809C3B00800080
(1675525536.112935) vcan0 010#000000002FB031F8
(1675525536.113013) vcan0 072#F000FF3F0078A038
(1675525536.113101) vcan0 1D0#0000000000000061
(1675525536.113179) vcan0 400#0101010100000016
(1675525536.113330) vcan0 405#6B9C003B00333902
(1675525536.113406) vcan0 0E0#627305E800803600
(1675525536.113485) vcan0 1B0#00C0000002B000FC
(1675525536.113564) vcan0 1B5#FF4317594DE0FFEF
(1675525536.113642) vcan0 1D8#363339343234E143
(1675525536.113718) vcan0 1E0#0024634300B917E0
(1675525536.113797) vcan0 2C3#669C00FFFFA75450
(1675525536.119870) vcan0 125#E51580E4C1D0D735
(1675525536.119948) vcan0 008#3480AC2B00800080
(1675525536.120024) vcan0 055#F3F71728B2A59C80
(1675525536.120175) vcan0 065#61E516F803CE4002
(1675525536.120253) vcan0 070#00000AF841E21500
(1675525536.120331) vcan0 075#0000000000005458
(1675525536.123802) vcan0 010#000000002FB031F8
(1675525536.123888) vcan0 080#3E508000C2002C00
(1675525536.124039) vcan0 0B0#39830BA3E0C139A3
(1675525536.124118) vcan0 145#F9F2D080FC4810A1
(1675525536.124195) vcan0 290#0000000000000000
(1675525536.124273) vcan0 291#0000000000000000
(1675525536.124350) vcan0 2A9#8C260093C0000084
(1675525536.124500) vcan0 2C0#669C00000000A0F1
(1675525536.124578) vcan0 2C5#14E76EE25EE50070
(1675525536.124656) vcan0 0F5#CE94CA947F5F82E4
(1675525536.124734) vcan0 120#F594ED947F055689
(1675525536.124811) vcan0 130#BF011ED814970112
(1675525536.124962) vcan0 150#CC14007801F8A3C0
(1675525536.125041) vcan0 288#FEDF609F00000080
(1675525536.125118) vcan0 072#F000FF3F00788038
(1675525536.128492) vcan0 210#09E08020B869BA45
(1675525536.128565) vcan0 260#D0FF00AA497487B0
(1675525536.128648) vcan0 008#3480BC1B00800080
(1675525536.128724) vcan0 010#000000002FB031F8
(1675525536.128866) vcan0 1D0#0000000000000061
(1675525536.133056) vcan0 0E0#627305F000801600
(1675525536.133141) vcan0 1B0#00C0000001B000FC
(1675525536.133274) vcan0 1B5#FF51256054E0FFEF
(1675525536.133348) vcan0 1D8#363339343234E143
(1675525536.133422) vcan0 1E0#0028534300B917E0
(1675525536.136636) vcan0 125#E51580E4C1D0D735
(1675525536.136712) vcan0 008#3480CC0B00800080
(1675525536.142686) vcan0 010#000000002FB031F8
(1675525536.142828) vcan0 072#F000FF3F0078A038
(1675525536.142902) vcan0 330#2800000000000000
(1675525536.142977) vcan0 055#F3F71828B2AA9C80
(1675525536.143051) vcan0 065#62E517F801CE4102
(1675525536.143194) vcan0 070#00000AF844E21500
(1675525536.143278) vcan0 075#0000000000005458
(1675525536.143351) vcan0 080#41508000C2002C00
(1675525536.143426) vcan0 0B0#39830BA3E0C139A3
(1675525536.143569) vcan0 145#F9E2D180FC4810A1
(1675525536.143643) vcan0 28C#00000000002CFEA5
(1675525536.143717) vcan0 2B5#4B651C6293A6785E
(1675525536.143791) vcan0 370#0726C0006D03CB1F
(1675525536.143934) vcan0 0F5#CE94CC947F6372E6
(1675525536.145182) vcan0 120#E294E4947F045689
(1675525536.145258) vcan0 130#C7011ED814870112
(1675525536.145332) vcan0 150#CD14FF8701F892C0
(1675525536.145406) vcan0 008#3480DCFB00800080
(1675525536.153305) vcan0 288#06E0609F00000080
(1675525536.153381) vcan0 350#A200000000000080
(1675525536.153523) vcan0 010#000000002FB031F9
(1675525536.153596) vcan0 1D0#0000000000000261
(1675525536.153680) vcan0 210#08E080A0B869BA4D
(1675525536.153753) vcan0 290#0000000000000000
(1675525536.153897) vcan0 291#0000000000000000
(1675525536.153970) vcan0 0E0#627301F80080FA00
(1675525536.154045) vcan0 1B0#00C0000002B000FC
(1675525536.154119) vcan0 1B5#FF5E32665BE0FFEF
(1675525536.154262) vcan0 1D8#363339343234E143
(1675525536.154338) vcan0 1E0#0028530300B917E0
(1675525536.154411) vcan0 2C3#669C00FFFFA85450
(1675525536.154554) vcan0 072#F000FF3F00788038
(1675525536.155775) vcan0 260#D0FF00AA497487B0
(1675525536.162865) vcan0 125#E51580E4C1D0D735
(1675525536.163014) vcan0 008#3480ECEB00800080
(1675525536.163092) vcan0 010#000000002FB031F8
(1675525536.163170) vcan0 055#F3F71928B2AE9C80
(1675525536.163249) vcan0 065#63E518F802CE4402
(1675525536.163334) vcan0 070#00000BF847E21500
(1675525536.163413) vcan0 075#0000000000005458
(1675525536.163563) vcan0 080#46508000C2002C00
(1675525536.163641) vcan0 0B0#39830BA3E0C139A3
(1675525536.163719) vcan0 145#F9D2D280FC4810A1
(1675525536.163797) vcan0 2A9#8C260082C0000084
(1675525536.163947) vcan0 0F5#C494D0947F6762E8
(1675525536.164026) vcan0 120#E294EC947F055689
(1675525536.164103) vcan0 130#CF011ED814770112
(1675525536.165333) vcan0 150#C914019801F886C0
(1675525536.165409) vcan0 008#3480FCDB00800080
(1675525536.173580) vcan0 010#000000002FB031F8
(1675525536.173654) vcan0 072#F000FF3F0078A038
(1675525536.173797) vcan0 1D0#0000000000000861
(1675525536.173872) vcan0 0E0#E27302C00080D900
(1675525536.173945) vcan0 1B0#00C0000002B000FC
(1675525536.174029) vcan0 1B5#FF6C406D61E0FFEF
(1675525536.174172) vcan0 1D8#363339343234E143
(1675525536.174248) vcan0 1E0#002C434300B917E0
(1675525536.174322) vcan0 288#02E0708F00000080
(1675525536.174395) vcan0 210#08E080A0B869BA45
(1675525536.176126) vcan0 125#E51580E4C1D0D735
(1675525536.182199) vcan0 008#34800CCB00800080
(1675525536.182277) vcan0 010#000000002FB031F8
(1675525536.182355) vcan0 291#0000000000000000
(1675525536.182506) vcan0 055#F3F71B28B2B49C81
(1675525536.182583) vcan0 065#63E519F800CE4702
(1675525536.182661) vcan0 070#00000BF84BE21500
(1675525536.182739) vcan0 075#0000000000005458
(1675525536.182817) vcan0 080#48508000C2002C00
(1675525536.182966) vcan0 0B0#39830BA3E0C139A3
(1675525536.183044) vcan0 145#F9C2D380FC4810A1
(1675525536.183142) vcan0 28C#00000000002CFEA5
(1675525536.183220) vcan0 290#0000000000000000
(1675525536.183298) vcan0 2B5#4B651C6293A67B64
(1675525536.183449) vcan0 2C0#669C00010000A0F1
(1675525536.183528) vcan0 2C5#16E76EE262E50070
(1675525536.190480) vcan0 0F5#D094D2947F6B52E9
(1675525536.190623) vcan0 120#FC94EF947F005689
(1675525536.190698) vcan0 130#D7011ED81467FF11
(1675525536.190771) vcan0 150#D114FCA701F86EC0
(1675525536.190845) vcan0 340#8800000000000000
(1675525536.190989) vcan0 3AF#0000000000000020
(1675525536.191062) vcan0 072#F000FF3F00788038
(1675525536.191138) vcan0 360#6B9C00D2B343A001
(1675525536.191210) vcan0 3CA#00000000540000C8
(1675525536.191353) vcan0 260#D0FF00AA497487B0
(1675525536.191427) vcan0 008#34801CBB00800080
(1675525536.191513) vcan0 010#000000002FB031F8
(1675525536.191587) vcan0 1D0#0000000000000061
(1675525536.191730) vcan0 390#80FF0500020E5C4F
(1675525536.192899) vcan0 0E0#E27306C80080B500
(1675525536.193042) vcan0 1B0#00C0000002B000FC
(1675525536.193116) vcan0 1B5#FF794D7468E0FFEF
(1675525536.193190) vcan0 1D8#363339343234E143
(1675525536.193335) vcan0 1E0#0030334300B917E0
(1675525536.193409) vcan0 2C3#669C00FFFFA85450
(1675525536.201259) vcan0 125#E51580E4C1D0D735
(1675525536.201337) vcan0 008#34802CAB00800080
(1675525536.201416) vcan0 288#0EE0708F00000080
(1675525536.201565) vcan0 3C8#669C008E882C008E
(1675525536.201644) vcan0 010#000000002FB031F8
(1675525536.201721) vcan0 055#F3F71C28B2B79C80
(1675525536.201798) vcan0 065#62E51AF800CE4A02
