(1675526496.979496) vcan0 290#0000000000000000
(1675526496.980640) vcan0 072#F000FF3F0078A038
(1675526496.980716) vcan0 3B0#00D819383FC0C400
(1675526496.982092) vcan0 125#E58B8BE4C1D0D735
(1675526496.984764) vcan0 260#D0FF0055497487B0
(1675526496.986149) vcan0 008#678B30063D9A0080
(1675526496.986226) vcan0 010#000000002FB031F8
(1675526496.987603) vcan0 288#02E0B04F00000080
(1675526496.989107) vcan0 0F5#428000807F73321F
(1675526496.989250) vcan0 120#008000807FFE5589
(1675526496.989323) vcan0 130#E7FF1D000033FF11
(1675526496.989399) vcan0 055#ACF7E327F2009C80
(1675526496.989473) vcan0 065#ABE30AE8FFFD0702
(1675526496.990850) vcan0 070#000052A8EFE15B00
(1675526496.990924) vcan0 075#0000000000005458
(1675526496.990997) vcan0 080#B54F8000C2002C00
(1675526496.991070) vcan0 0B0#038492A2EEC103A4
(1675526496.991214) vcan0 145#FD72D880FCC810A1
(1675526496.991289) vcan0 150#0000FDC7DAF833C0
(1675526496.991361) vcan0 210#0EE180A0A869F245
(1675526496.991435) vcan0 3CA#00000000540000C8
(1675526496.994609) vcan0 010#000000002FB031F8
(1675526496.995985) vcan0 008#C28B40B8209A0080
(1675526496.996128) vcan0 072#F000FF3F00788038
(1675526496.996201) vcan0 1D0#0000000000000061
(1675526496.997509) vcan0 0E0#627185D000801E00
(1675526497.000385) vcan0 1B0#00C0000000B000EC
(1675526497.000463) vcan0 1B5#FFCFFC7285E0FFEF
(1675526497.000540) vcan0 1D8#363339343234DA43
(1675526497.000690) vcan0 1E0#00207B4140FB17E0
(1675526497.000769) vcan0 2C3#5D8700FFFF025450
(1675526497.001855) vcan0 125#E53C8CE4C1D0D735
(1675526497.004529) vcan0 010#000000002FB031F8
(1675526497.005905) vcan0 008#1D8C50610B9A0080
(1675526497.005982) vcan0 291#0000000000000000
(1675526497.007356) vcan0 2A9#8C260082C0000084
(1675526497.008854) vcan0 0F5#428000807F77221F
(1675526497.008938) vcan0 120#008000807FFE5589
(1675526497.009081) vcan0 130#EFFF1D000023FF11
(1675526497.009156) vcan0 055#ACF7E327F2009C80
(1675526497.011900) vcan0 065#ABE30BE800FE0802
(1675526497.011976) vcan0 070#000052A8EFE15B00
(1675526497.012050) vcan0 072#F000FF3F0078A038
(1675526497.012192) vcan0 075#0000000000005458
(1675526497.012265) vcan0 080#B54F8000C2002C00
(1675526497.012340) vcan0 0B0#018493A2EEC101A4
(1675526497.012415) vcan0 145#FD62D980FCC810A1
(1675526497.012558) vcan0 150#0000FFD7EAF823C0
(1675526497.012630) vcan0 28C#000020000016BE98
(1675526497.012705) vcan0 290#0000000000000000
(1675526497.012780) vcan0 2B5#4B33736293A64B4F
(1675526497.012923) vcan0 2C0#5D8700E80100A0F1
(1675526497.012996) vcan0 2C5#00D72A00B1E30070
(1675526497.013354) vcan0 288#02E0B04F00000080
(1675526497.013496) vcan0 340#5000000000000000
(1675526497.013571) vcan0 3AF#0000000000000020
(1675526497.013645) vcan0 3C8#5D87008E882C008E
(1675526497.014885) vcan0 260#D0FF00AA497487B0
(1675526497.014958) vcan0 008#788C6006FC990080
(1675526497.015101) vcan0 010#000000002FB031F8
(1675526497.016339) vcan0 1D0#0000000000000061
(1675526497.016482) vcan0 210#0EE180A0A869F24D
(1675526497.017857) vcan0 0E0#627187D80080FC00
(1675526497.019391) vcan0 1B0#00C0000000B000EC
(1675526497.019469) vcan0 1B5#FFCFFD7285E0FFEF
(1675526497.019548) vcan0 1D8#363339343234DA43
(1675526497.019624) vcan0 1E0#00246B4140FB17E0
(1675526497.022010) vcan0 125#E5ED8CE4C1D0D735
(1675526497.024542) vcan0 010#000000002FB031F8
(1675526497.025859) vcan0 008#CE8C70E1BB990080
(1675526497.026009) vcan0 072#F000FF3F00788038
(1675526497.027384) vcan0 330#2800000000000000
(1675526497.028839) vcan0 0F5#428000807F7B121F
(1675526497.028983) vcan0 120#008000807FFD5589
(1675526497.029056) vcan0 130#F7FF1D000013FF11
(1675526497.029135) vcan0 055#ACF7E427F2009C80
(1675526497.030575) vcan0 065#A9E30BE8FEFD0702
(1675526497.030649) vcan0 070#000052A8EFE15B00
(1675526497.030792) vcan0 075#0000000000005458
(1675526497.030865) vcan0 080#B74F8000C2002C00
(1675526497.030939) vcan0 0B0#008492A2EEC100A4
(1675526497.031013) vcan0 145#FD52DA80FCC810A1
(1675526497.031155) vcan0 150#000000E8FBF813C0
(1675526497.031229) vcan0 370#0724C000591BC700
(1675526497.035823) vcan0 008#298D809997990080
(1675526497.035977) vcan0 010#000000002FB031F8
(1675526497.036051) vcan0 1D0#0000000000000061
(1675526497.036124) vcan0 291#0000000000000000
(1675526497.037363) vcan0 0E0#627183E00080E000
(1675526497.037437) vcan0 288#02E0B04F00000080
(1675526497.038890) vcan0 1B0#00C0000000B000EC
(1675526497.038970) vcan0 1B5#FFCFFD7286E0FFEF
(1675526497.039046) vcan0 1D8#363339343234DA43
(1675526497.039124) vcan0 1E0#00246B0140FB17E0
(1675526497.040356) vcan0 290#0000000000000000
(1675526497.040435) vcan0 2C3#5D8700FFFF025450
(1675526497.040584) vcan0 072#F000FF3F0078A038
(1675526497.040662) vcan0 210#48E180A0A869F245
(1675526497.041893) vcan0 125#E5A18DE4C1D0D735
(1675526497.044496) vcan0 260#D0FF00AA497487B0
(1675526497.045873) vcan0 008#828D904C7B990080
(1675526497.045959) vcan0 010#000000002FB031F8
(1675526497.047335) vcan0 2A9#8C26009BC0000084
(1675526497.048833) vcan0 0F5#428000807F7F021F
(1675526497.048976) vcan0 120#008000807FFB5589
(1675526497.049051) vcan0 130#FFFF1D000003FF11
(1675526497.049132) vcan0 150#000000F80CF903C0
(1675526497.051870) vcan0 055#ACF7E427F2009C80
(1675526497.052013) vcan0 065#A9E30BE800FE0702
(1675526497.052087) vcan0 070#000052A8EFE15B00
(1675526497.052160) vcan0 075#0000000000005458
(1675526497.052234) vcan0 080#B74F8000C2002C00
(1675526497.052378) vcan0 0B0#FE8392A2EFC1FEA3
(1675526497.052451) vcan0 145#FD42DB80FCC810A1
(1675526497.052527) vcan0 28C#000020000016BE98
(1675526497.052600) vcan0 2B5#4B33746293A64B50
(1675526497.052743) vcan0 360#5D8700D2C364A001
(1675526497.054538) vcan0 010#000000002FB031F9
(1675526497.055915) vcan0 008#DB8DA0EB73990080
(1675526497.055988) vcan0 072#F000FF3F00788038
(1675526497.057363) vcan0 1D0#0000000000000A61
(1675526497.057505) vcan0 390#80FF051D020A5D4F
(1675526497.057580) vcan0 0E0#627187E80080BC00
(1675526497.058880) vcan0 1B0#00C0000000B000EC
(1675526497.058958) vcan0 1B5#FFD0FD7286E0FFEF
(1675526497.059108) vcan0 1D8#363339343234DA43
(1675526497.059187) vcan0 1E0#00285B4140FB17E0
(1675526497.061644) vcan0 125#E5528EE4C1D0D735
(1675526497.063091) vcan0 288#F5DFB04F00000080
(1675526497.064613) vcan0 010#000000002FB031F8
(1675526497.064691) vcan0 008#368EB08D65990080
(1675526497.066139) vcan0 210#48E18020A869F24D
(1675526497.066218) vcan0 291#0000000000000000
(1675526497.066304) vcan0 3D0#880F6100340680C3
(1675526497.067609) vcan0 350#A200000000000080
(1675526497.069098) vcan0 0F5#428000807F43F21F
(1675526497.069173) vcan0 120#008000807FFC5589
(1675526497.069316) vcan0 130#87FF1D0000F3FF11
(1675526497.069389) vcan0 055#ACF7E327F2009C80
(1675526497.069462) vcan0 065#AAE30CE801FE0802
(1675526497.070840) vcan0 070#000052A8EFE15B00
(1675526497.070913) vcan0 072#F000FF3F0078A038
(1675526497.070987) vcan0 075#0000000000005458
(1675526497.071131) vcan0 080#B64F8000C2002C00
(1675526497.071205) vcan0 0B0#FC8392A2EEC1FCA3
(1675526497.071278) vcan0 145#FD32DC80FCC810A1
(1675526497.071352) vcan0 150#0000FD071DF9F3C0
(1675526497.071495) vcan0 290#0000000000000000
(1675526497.072254) vcan0 2C0#5D8700E80100A0F1
(1675526497.072337) vcan0 2C5#00D72A00ACE30070
(1675526497.074880) vcan0 010#000000002FB031F8
(1675526497.077625) vcan0 008#958EC0FA89990080
(1675526497.077700) vcan0 1D0#0000000000000061
(1675526497.077842) vcan0 260#D0FF00AA497487B0
(1675526497.077916) vcan0 0E0#627195F000808E00
(1675526497.079162) vcan0 1B0#00C0000000B000EC
(1675526497.079241) vcan0 1B5#FFD0FD7286E0FFEF
(1675526497.079318) vcan0 1D8#363339343234DB43
(1675526497.079397) vcan0 1E0#002C4B4140FB17E0
(1675526497.079474) vcan0 2C3#5D8700FFFF025450
(1675526497.081859) vcan0 125#E5198FE4C1D0D735
(1675526497.084530) vcan0 008#FC8ED042CA990080
(1675526497.085906) vcan0 010#000000002FB031F8
(1675526497.087353) vcan0 072#F000FF3F00788038
(1675526497.087504) vcan0 2A9#8C260082C0000084
(1675526497.087590) vcan0 288#E5DFC03F00000080
(1675526497.088874) vcan0 0F5#428000807F47E21F
(1675526497.088947) vcan0 120#008000807FFF5589
(1675526497.089091) vcan0 130#8FFF1D0000E3FF11
(1675526497.089164) vcan0 055#ACF7E427F2009C80
(1675526497.091911) vcan0 065#A8E30BE8FFFD0602
(1675526497.091985) vcan0 070#000052A8EFE15B00
(1675526497.092060) vcan0 075#0000000000005458
(1675526497.092133) vcan0 080#B74F8000C2002C00
(1675526497.092208) vcan0 0B0#FB8392A2EEC1FBA3
(1675526497.092350) vcan0 145#FD22DD80FCC810A1
(1675526497.092425) vcan0 150#0000FD172DF9E3C0
(1675526497.092498) vcan0 210#48E180A0A869F24D
(1675526497.092572) vcan0 28C#000020000016BE98
(1675526497.092647) vcan0 2B5#4B33746293A64B4E
(1675526497.092789) vcan0 340#5100000000000000
(1675526497.094516) vcan0 010#000000002FB031F8
(1675526497.095822) vcan0 008#678FE0523D9A0080
(1675526497.097335) vcan0 1D0#0000000000000061
(1675526497.097479) vcan0 291#0000000000000000
(1675526497.097554) vcan0 0E0#627187F800807C00
(1675526497.098886) vcan0 1B0#00C0000000B000EC
(1675526497.098964) vcan0 1B5#FFD0FD7386E0FFEF
(1675526497.099041) vcan0 1D8#363339343234DA43
(1675526497.099192) vcan0 1E0#002C4B0140FB17E0
(1675526497.100349) vcan0 290#0000000000000000
(1675526497.100499) vcan0 072#F000FF3F0078A038
(1675526497.100578) vcan0 3B0#00D8193C3FC0C400
(1675526497.101882) vcan0 125#E5F68FE4C1D0D735
(1675526497.104483) vcan0 010#000000002FB031F8
(1675526497.105859) vcan0 008#D48FF053BF9A0080
(1675526497.106009) vcan0 260#D0FF0055497487B0
(1675526497.107394) vcan0 330#2800000000000000
(1675526497.108894) vcan0 0F5#428000807F4BD21F
(1675526497.108969) vcan0 120#008000807FFC5589
(1675526497.109042) vcan0 130#97FF1D0000D3FF11
(1675526497.109185) vcan0 055#ACF7E427F2009C80
(1675526497.110561) vcan0 065#A8E30AE800FE0602
(1675526497.110636) vcan0 070#000052A8EFE15B00
(1675526497.110777) vcan0 075#0000000000005458
(1675526497.110852) vcan0 080#B84F8000C2002C00
(1675526497.110925) vcan0 0B0#FA8391A2EFC1FAA3
(1675526497.110999) vcan0 145#FD12DE80FCC810A1
(1675526497.111141) vcan0 150#0000F8273EF9D3C0
(1675526497.111216) vcan0 3CA#00000000550000C8
(1675526497.111975) vcan0 288#E1DFC03F00000080
(1675526497.114584) vcan0 008#439000424F9B0080
(1675526497.117399) vcan0 010#000000002FB031F8
(1675526497.117495) vcan0 072#F000FF3F00788038
(1675526497.117568) vcan0 1D0#0000000000000061
(1675526497.117644) vcan0 210#48E180A0A869F245
(1675526497.117717) vcan0 0E0#627186C000805D00
(1675526497.118879) vcan0 1B0#00C0000000B000EC
(1675526497.118957) vcan0 1B5#FFD0FE7386E0FFEF
(1675526497.119108) vcan0 1D8#363339343234DA43
(1675526497.119186) vcan0 1E0#00303B4140FB17E0
(1675526497.120344) vcan0 2C3#5D8700FFFF025450
(1675526497.121863) vcan0 125#E5DF90E4C1D0D735
(1675526497.124465) vcan0 010#000000002FB031F8
(1675526497.125842) vcan0 291#0000000000000000
(1675526497.125992) vcan0 008#B390101DF49B0080
(1675526497.126069) vcan0 2A9#8C26009BC0000084
(1675526497.127374) vcan0 400#010100010101000B
(1675526497.127452) vcan0 405#8F07000000000005
(1675526497.128861) vcan0 0F5#428000807F4FC21F
(1675526497.129012) vcan0 120#008000807FFB5589
(1675526497.129089) vcan0 130#9FFF1D0000C3FF11
(1675526497.129168) vcan0 055#ACF7E427F2009C80
(1675526497.131840) vcan0 065#A8E30AE800FE0602
(1675526497.131990) vcan0 070#000053A8EFE15B00
(1675526497.132068) vcan0 072#F000FF3F0078A038
(1675526497.132145) vcan0 075#0000000000005458
(1675526497.132224) vcan0 080#B84F8000C2002C00
(1675526497.132374) vcan0 0B0#F88391A2EFC1F8A3
(1675526497.132451) vcan0 145#FD02DF80FCC810A1
(1675526497.132528) vcan0 150#0000F5374FF9C3C0
(1675526497.132606) vcan0 28C#000020000016BE97
(1675526497.132685) vcan0 290#0000000000000000
(1675526497.132835) vcan0 2B5#4B33756293A64B4E
(1675526497.132912) vcan0 2C0#5D8700E70100A0F1
(1675526497.132999) vcan0 2C5#00D72A00AAE30070
(1675526497.133365) vcan0 370#0724C000591BC700
(1675526497.133515) vcan0 3AF#0000000000000020
(1675526497.133592) vcan0 3C8#5D87008E882C008E
(1675526497.133671) vcan0 3E0#000000D937808090
(1675526497.134900) vcan0 260#D0FF0055492A84B0
(1675526497.134977) vcan0 008#259120DEAF9C0080
(1675526497.136352) vcan0 010#000000002FB031F9
(1675526497.136501) vcan0 1D0#0000000000000A61
(1675526497.137876) vcan0 0E0#627185C800803E00
(1675526497.137956) vcan0 288#E1DFC03F00000080
(1675526497.139355) vcan0 1B0#00C0000000B000EC
(1675526497.139498) vcan0 1B5#FFD0FE7386E0FFEF
(1675526497.139573) vcan0 1D8#363339343234DB43
(1675526497.139646) vcan0 1E0#00342B4140FB17E0
(1675526497.139720) vcan0 210#48E180A0A869F24D
(1675526497.141995) vcan0 125#E5C691E4C1D0D735
(1675526497.144536) vcan0 010#000000002FB031F8
(1675526497.145842) vcan0 008#949130CE3F9D0080
(1675526497.145983) vcan0 072#F000FF3F00788038
(1675526497.148524) vcan0 0F5#428000807F53B21F
(1675526497.149897) vcan0 120#008000807FFB5589
(1675526497.149975) vcan0 130#A7FF1D0000B3FF11
(1675526497.150054) vcan0 055#ABF7E427F2009C80
(1675526497.151498) vcan0 065#A6E309E8FFFD0602
(1675526497.151578) vcan0 070#000053A8F0E15B00
(1675526497.151657) vcan0 075#0000000000005458
(1675526497.151806) vcan0 080#B94F8000C2002C00
(1675526497.151883) vcan0 0B0#F78391A2EFC1F7A3
(1675526497.151961) vcan0 145#FDF2D080FCC810A1
(1675526497.152039) vcan0 150#0000F74760F9B3C0
(1675526497.152117) vcan0 360#5D8700D2C364A001
(1675526497.155593) vcan0 008#019240C0CF9D0080
(1675526497.155743) vcan0 010#000000002FB031F8
(1675526497.155820) vcan0 1D0#0000000000000061
(1675526497.155899) vcan0 291#0000000000000000
(1675526497.155977) vcan0 390#80FF051D02065E6F
(1675526497.157136) vcan0 0E0#627185D000801E00
(1675526497.158645) vcan0 350#A200000000000080
(1675526497.158720) vcan0 1B0#00C0000000B000EC
(1675526497.158792) vcan0 1B5#FFD1FE7386E0FFEF
(1675526497.158936) vcan0 1D8#363339343234DB43
(1675526497.160107) vcan0 1E0#00342B0140FB17E0
(1675526497.160250) vcan0 290#0000000000000000
(1675526497.160324) vcan0 2C3#5D8700FFFF025450
(1675526497.160398) vcan0 072#F000FF3F0078A038
(1675526497.161637) vcan0 125#E5AF92E4C1D0D735
(1675526497.163083) vcan0 288#DDDFC03F00000080
(1675526497.164604) vcan0 010#000000002FB031F8
(1675526497.164678) vcan0 008#6F9250A9679E0080
(1675526497.166122) vcan0 210#48E180A0A869F245
(1675526497.166265) vcan0 260#D0FF0055492984B0
(1675526497.166341) vcan0 2A9#8C260082C0000084
(1675526497.168731) vcan0 0F5#428000807F57A21F
(1675526497.170107) vcan0 120#458000807FFA5589
(1675526497.170255) vcan0 130#AFFF1D0000A3FF11
(1675526497.170334) vcan0 055#ABF7E527F2009C80
(1675526497.170412) vcan0 065#A3E309E8FEFD0602
(1675526497.171714) vcan0 070#000053A8F0E15B00
(1675526497.171865) vcan0 075#0000000000005458
(1675526497.171944) vcan0 080#BB4F8000C2002C00
(1675526497.172021) vcan0 0B0#F68390A2EFC1F6A3
(1675526497.172100) vcan0 145#FDE2D180FCC810A1
(1675526497.172249) vcan0 150#0000F55773F9A3C0
(1675526497.172336) vcan0 28C#000020000016BE97
(1675526497.172413) vcan0 2B5#4B33756293A64B4E
(1675526497.172491) vcan0 340#5100000000000000
(1675526497.174515) vcan0 008#DA9260EEA79E0080
(1675526497.177330) vcan0 010#000000002FB031F8
(1675526497.177480) vcan0 072#F000FF3F00788038
(1675526497.177559) vcan0 1D0#0000000000000061
(1675526497.177636) vcan0 0E0#627182D800800100
(1675526497.178844) vcan0 1B0#00C0000000B000EC
(1675526497.178986) vcan0 1B5#FFD1FE7386E0FFEF
(1675526497.179060) vcan0 1D8#363339343234DB43
(1675526497.179135) vcan0 1E0#00381B4140FB17E0
(1675526497.181608) vcan0 125#E58F93E4C1D0D735
(1675526497.184354) vcan0 010#000000002FB031F8
(1675526497.185871) vcan0 008#4593703FDA9E0080
(1675526497.185943) vcan0 291#0000000000000000
(1675526497.186026) vcan0 330#2800000000000000
(1675526497.187334) vcan0 288#D5DFD02F00000080
(1675526497.188854) vcan0 0F5#4E8000807F5B921F
(1675526497.188998) vcan0 120#458000807FFB5589
(1675526497.189072) vcan0 130#B7FF1D000093FF11
(1675526497.189146) vcan0 055#ABF7E527F2009C80
(1675526497.191893) vcan0 065#A4E309E800FE0702
(1675526497.191967) vcan0 070#000054A8F0E15B00
(1675526497.192043) vcan0 072#F000FF3F0078A038
(1675526497.192185) vcan0 075#0000000000005458
(1675526497.192260) vcan0 080#BB4F8000C2002C00
(1675526497.192333) vcan0 0B0#F4838FA2F0C1F4A3
(1675526497.192408) vcan0 145#FDD2D280FCC810A1
(1675526497.192550) vcan0 150#0000F76786F993C0
(1675526497.192625) vcan0 210#48E180A0A869F245
(1675526497.192699) vcan0 290#0000000000000000
(1675526497.192781) vcan0 2C0#5D8700E60100A0F1
(1675526497.192925) vcan0 2C5#00D72900A6E30070
(1675526497.194506) vcan0 010#000000002FB031F8
(1675526497.195881) vcan0 008#AB9380FCA79E0080
(1675526497.195955) vcan0 1D0#0000000000000061
(1675526497.197400) vcan0 260#D0FF00AA492A84B0
(1675526497.197473) vcan0 0E0#627185E00080DE00
(1675526497.198911) vcan0 1B0#00C0000002B000EC
(1675526497.198986) vcan0 1B5#FFD1FE7386E0FFEF
(1675526497.199061) vcan0 1D8#363339343234DB43
(1675526497.199134) vcan0 1E0#003C0B4140FB17E0
(1675526497.200373) vcan0 2C3#5D8700FFFF025450
(1675526497.201884) vcan0 125#E55F94E4C1D0D735
(1675526497.204492) vcan0 010#000000002FB031F8
(1675526497.205867) vcan0 008#0D9490D8589E0080
(1675526497.206010) vcan0 072#F000FF3F00788038
(1675526497.207394) vcan0 2A9#8C26008AC0000084
(1675526497.208881) vcan0 0F5#4E8000807F5F821F
(1675526497.208959) vcan0 120#458000807FFC5589
(1675526497.209037) vcan0 130#BFFF1D000083FF11
(1675526497.209188) vcan0 150#4700F3779AF93CC0
(1675526497.211855) vcan0 055#ABF7E627F2009C80
(1675526497.212007) vcan0 065#A1E30AE8FFFD0702
(1675526497.212085) vcan0 070#000054A8F0E15B00
(1675526497.212162) vcan0 075#0000000000005458
(1675526497.212241) vcan0 080#BD4F8000C2002C00
(1675526497.212318) vcan0 0B0#F38390A2F0C1F3A3
(1675526497.212468) vcan0 145#FDC2D380FCC810A1
(1675526497.212547) vcan0 28C#000020000016BE97
(1675526497.212624) vcan0 2B5#4B33766293A64B50
(1675526497.213353) vcan0 288#D9DFD02F00000080
(1675526497.214872) vcan0 010#000000002FB031F9
(1675526497.214958) vcan0 008#6A94A0EDD79D0080
(1675526497.215036) vcan0 1D0#0000000000000A61
(1675526497.216338) vcan0 210#48E18020A869F24D
(1675526497.216489) vcan0 291#0000000000000000
(1675526497.217865) vcan0 0E0#627185E80080BE00
(1675526497.219542) vcan0 1B0#00C0000000B000EC
(1675526497.219617) vcan0 1B5#FFD1FF7386E0FFEF
(1675526497.219691) vcan0 1D8#363339343234DB43
(1675526497.219764) vcan0 1E0#003C0B0140FB17E0
(1675526497.219908) vcan0 290#0000000000000000
(1675526497.219982) vcan0 072#F000FF3F0078A038
(1675526497.220055) vcan0 3B0#00D819383FC0C400
(1675526497.222117) vcan0 125#E51795E4C1D0D735
(1675526497.224656) vcan0 010#000000002FB031F8
(1675526497.226033) vcan0 008#C394B01C3F9D0080
(1675526497.226106) vcan0 260#D0FF00AA492B84B0
(1675526497.228885) vcan0 0F5#4E8000807F63721F
(1675526497.228964) vcan0 120#458049807FF75589
(1675526497.229041) vcan0 130#C7FD1D0000730112
(1675526497.229191) vcan0 055#AAF7E727F2009C80
(1675526497.231867) vcan0 065#9FE30AE8FEFD0602
(1675526497.232016) vcan0 070#000054A8F1E15B00
(1675526497.232095) vcan0 075#0000000000005458
(1675526497.232171) vcan0 080#BF4F8000C2002C00
(1675526497.232248) vcan0 0B0#F2838EA2F0C1F2A3
(1675526497.232327) vcan0 145#FDB2D480FCC810A1
(1675526497.232477) vcan0 150#4700F487AFF92CC0
(1675526497.232554) vcan0 370#0724C000591BC700
(1675526497.232632) vcan0 3CA#00000000560000C8
(1675526497.234513) vcan0 008#1995C08E679C0080
(1675526497.235889) vcan0 010#000000002FB031F8
(1675526497.237336) vcan0 072#F000FF3F00788038
(1675526497.237495) vcan0 1D0#0000000000000061
(1675526497.237572) vcan0 0E0#627183F00080A000
(1675526497.237649) vcan0 288#D5DFD02F00000080
(1675526497.238860) vcan0 1B0#00C0000000B000EC
(1675526497.239004) vcan0 1B5#FFD1FF7386E0FFEF
(1675526497.239078) vcan0 1D8#363339343234DB43
(1675526497.239152) vcan0 1E0#0000FB4140FB17E0
(1675526497.240390) vcan0 2C3#5D8700FFFF025450
(1675526497.240464) vcan0 210#48E180A0A869F245
(1675526497.241839) vcan0 125#E5C395E4C1D0D735
(1675526497.244519) vcan0 010#000000002FB031F8
(1675526497.245895) vcan0 008#6B95D0EFA59B0080
(1675526497.245969) vcan0 291#0000000000000000
(1675526497.247344) vcan0 2A9#8C260093C0000084
(1675526497.248886) vcan0 350#A200000000000080
(1675526497.248965) vcan0 0F5#4E804A807F67621F
(1675526497.249051) vcan0 120#508049807FFB5589
(1675526497.249134) vcan0 130#CFFF1D0000630112
(1675526497.249279) vcan0 055#AAF7E727F2009C80
(1675526497.251881) vcan0 065#9EE30BE8FFFD0802
(1675526497.251960) vcan0 070#000054A8F1E15B00
(1675526497.252110) vcan0 072#F000FF3F0078A038
(1675526497.252187) vcan0 075#0000000000005458
(1675526497.252264) vcan0 080#C04F8000C2002C00
(1675526497.252343) vcan0 0B0#F1838EA2F1C1F1A3
(1675526497.252421) vcan0 145#FDA2D580FCC810A1
(1675526497.252498) vcan0 150#4700F397C4F91CC0
(1675526497.252648) vcan0 28C#000020000016BE97
(1675526497.252726) vcan0 290#0000000000000000
(1675526497.252804) vcan0 2B5#4B33766293A64B54
(1675526497.252882) vcan0 2C0#5D8700E70100A0F1
(1675526497.252960) vcan0 2C5#00D72900A4E30070
(1675526497.253344) vcan0 340#5100000000000000
(1675526497.253494) vcan0 360#5D8700D2C364A001
(1675526497.253572) vcan0 3AF#0000000000000020
(1675526497.253651) vcan0 3C8#5D87008E882C008E
(1675526497.254881) vcan0 010#000000002FB031F8
(1675526497.254960) vcan0 008#BB95E085B09A0080
(1675526497.255109) vcan0 1D0#0000000000000061
(1675526497.256340) vcan0 260#D0FF00AA492B84B0
(1675526497.256490) vcan0 390#80FF051D02025F4F
(1675526497.257865) vcan0 0E0#627185F800807E00
(1675526497.259339) vcan0 1B0#00C0000001B000EC
(1675526497.259483) vcan0 1B5#FFD2FF7387E0FFEF
(1675526497.259556) vcan0 1D8#363339343234DB43
(1675526497.259631) vcan0 1E0#0004EB4140FB17E0
(1675526497.262034) vcan0 125#E55B96E4C1D0D735
(1675526497.263411) vcan0 288#C8DFD02F00000080
(1675526497.264862) vcan0 010#000000002FB031F8
(1675526497.264937) vcan0 008#0496F036A6990080
(1675526497.265079) vcan0 072#F000FF3F00788038
(1675526497.266387) vcan0 210#48E180A0A869F24D
(1675526497.266462) vcan0 330#2800000000000000
(1675526497.266536) vcan0 3D0#880F6100340680C3
(1675526497.267843) vcan0 0F5#58804A807F6B521F
(1675526497.269387) vcan0 120#508049807FFB5589
(1675526497.269464) vcan0 130#D7FF1D4A00090412
(1675526497.269542) vcan0 150#4C00EEA7D8F907C0
(1675526497.269620) vcan0 055#A9F7E827F2009C80
(1675526497.271069) vcan0 065#9BE30CE8FEFD0802
(1675526497.271146) vcan0 070#000055A8F2E15B00
(1675526497.271223) vcan0 075#0000000000005458
(1675526497.271373) vcan0 080#C24F8000C2002C00
(1675526497.271451) vcan0 0B0#F0838DA2F1C1F0A3
(1675526497.271536) vcan0 145#FD92D680FCC810A1
(1675526497.275076) vcan0 008#4A9600E4A3980080
(1675526497.275227) vcan0 010#000000002FB031F8
(1675526497.275305) vcan0 1D0#0000000000000061
(1675526497.275382) vcan0 291#0000000000000000
(1675526497.276615) vcan0 0E0#627184C000805F00
(1675526497.278135) vcan0 1B0#00C0000001B000EC
(1675526497.279798) vcan0 1B5#FFD2FF7487E0FFEF
(1675526497.279941) vcan0 1D8#363339343234DB43
(1675526497.280017) vcan0 1E0#0004EB0140FB17E0
(1675526497.280089) vcan0 290#0000000000000000
(1675526497.280164) vcan0 2C3#5D8700FFFF025450
(1675526497.280306) vcan0 072#F000FF3F0078A038
(1675526497.282365) vcan0 125#E5E696E4C1D0D735
(1675526497.285108) vcan0 008#8E9610AA8A970080
(1675526497.285253) vcan0 260#D0FF00AA492B84B0
(1675526497.285340) vcan0 010#000000002FB031F8
(1675526497.285415) vcan0 2A9#8C26008AC0000084
(1675526497.287750) vcan0 288#B4DFE01F00000080
(1675526497.289175) vcan0 0F5#58804A807F6F421F
(1675526497.292138) vcan0 120#508049807FFB5589
(1675526497.292216) vcan0 130#DFFF1D4A00F90412
(1675526497.292367) vcan0 055#A9F7E927F2009C80
(1675526497.292445) vcan0 065#9AE30DE8FEFD0A02
(1675526497.292521) vcan0 070#000055A8F2E15B00
(1675526497.292599) vcan0 075#0000000000005458
(1675526497.292677) vcan0 080#C44F8000C2002C00
(1675526497.292755) vcan0 0B0#EF838DA2F1C1EFA3
(1675526497.292906) vcan0 145#FD82D780FCC810A1
(1675526497.292984) vcan0 150#5100EAB7EBF9F2C0
(1675526497.293062) vcan0 210#48E180A0A869F24D
(1675526497.293139) vcan0 28C#000020000016BE97
(1675526497.293225) vcan0 2B5#4B33776293A64B56
(1675526497.294745) vcan0 008#D0962040A3960080
(1675526497.296120) vcan0 010#000000002FB031F9
(1675526497.296198) vcan0 072#F000FF3F00788038
(1675526497.296348) vcan0 1D0#0000000000000A61
(1675526497.297654) vcan0 0E0#627186C800803D00
(1675526497.299070) vcan0 1B0#00C0000000B000EC
(1675526497.299214) vcan0 1B5#FFD2FF7487E0FFEF
(1675526497.299288) vcan0 1D8#363339343234DB43
(1675526497.299361) vcan0 1E0#0008DB4140FB17E0
(1675526497.301767) vcan0 125#E55F97E4C1D0D735
(1675526497.304236) vcan0 010#000000002FB031F8
(1675526497.305613) vcan0 291#0000000000000000
(1675526497.305686) vcan0 008#0E9730F5A0950080
(1675526497.308225) vcan0 0F5#58804A807F73321F
(1675526497.309678) vcan0 120#508049807FFB5589
(1675526497.309699) vcan0 130#E7FF1D4A00E90412
(1675526497.312593) vcan0 055#A8F7E927F2009C80
(1675526497.312742) vcan0 065#9AE30EE800FE0902
(1675526497.312820) vcan0 070#000056A8F2E15B00
(1675526497.312899) vcan0 072#F000FF3F0078A038
(1675526497.312976) vcan0 075#0000000000005458
(1675526497.313054) vcan0 080#C44F8000C2002C00
(1675526497.313205) vcan0 0B0#ED838CA2F2C1EDA3
(1675526497.313282) vcan0 145#FD72D880FCC810A1
(1675526497.313359) vcan0 150#5100E4C7FDF9E2C0
(1675526497.313436) vcan0 290#0000000000000000
(1675526497.313515) vcan0 2C0#5D8700E70100A0F1
(1675526497.313664) vcan0 2C5#00D729009DE30070
(1675526497.313743) vcan0 288#97DFE01F00000080
(1675526497.314109) vcan0 010#000000002FB031F8
(1675526497.315630) vcan0 008#479740B796940080
(1675526497.315716) vcan0 1D0#0000000000000061
(1675526497.315794) vcan0 210#51E180A0A869F245
(1675526497.315873) vcan0 260#D0FF0055492C84B0
(1675526497.317104) vcan0 0E0#627185D000801E00
(1675526497.318598) vcan0 1B0#00C0000000B000EC
(1675526497.318748) vcan0 1B5#FFD2007487E0FFEF
(1675526497.318826) vcan0 1D8#363339343234DB43
(1675526497.320129) vcan0 1E0#000CCB4140FB17E0
(1675526497.320207) vcan0 2C3#5D8700FFFF025450
(1675526497.321583) vcan0 125#E5D097E4C1D0D735
(1675526497.324329) vcan0 010#000000002FB031F8
(1675526497.325848) vcan0 008#82975062A1930080
(1675526497.325927) vcan0 072#F000FF3F00788038
(1675526497.326076) vcan0 2A9#8C260093C0000084
(1675526497.328528) vcan0 0F5#58804A807F772220
(1675526497.329835) vcan0 120#5C8052807FFA5589
(1675526497.329987) vcan0 130#EFFF1D5000D30712
(1675526497.330061) vcan0 055#A8F7E827F2009C80
(1675526497.332875) vcan0 065#9CE30FE801FE0A02
(1675526497.332950) vcan0 070#000056A8F2E15B00
(1675526497.333092) vcan0 075#0000000000005458
(1675526497.333167) vcan0 080#C24F8000C2002C00
(1675526497.333241) vcan0 0B0#EC838CA2F1C1ECA3
(1675526497.333313) vcan0 145#FD62D980FCC810A1
(1675526497.333458) vcan0 150#5100DED70CFAD2C0
(1675526497.333532) vcan0 28C#000020000016BE97
(1675526497.333605) vcan0 2B5#4B33786293A64B57
(1675526497.333681) vcan0 340#5100000000000000
(1675526497.333823) vcan0 370#0724C000591BC700
(1675526497.334376) vcan0 008#B99760EDD0920080
(1675526497.335889) vcan0 010#000000002FB031F8
(1675526497.335963) vcan0 1D0#0000000000000061
(1675526497.336045) vcan0 291#0000000000000000
(1675526497.337355) vcan0 0E0#627185D80080FE00
(1675526497.337497) vcan0 288#87DFE01F00000080
(1675526497.338886) vcan0 350#A200000000000080
(1675526497.338965) vcan0 1B0#00C0000001B000EC
(1675526497.339043) vcan0 1B5#FFD3007487E0FFEF
(1675526497.339120) vcan0 1D8#363339343234DB43
(1675526497.339270) vcan0 1E0#000CCB0140FB17E0
(1675526497.340357) vcan0 290#0000000000000000
(1675526497.340507) vcan0 072#F000FF3F0078A038
(1675526497.340586) vcan0 210#51E180A0A869F24D
(1675526497.340663) vcan0 3B0#00D819383FC0C400
(1675526497.341894) vcan0 125#E53798E4C1D0D735
(1675526497.344493) vcan0 010#000000002FB031F8
(1675526497.345867) vcan0 008#EF9770690E920080
(1675526497.346018) vcan0 260#D0FF0055492D84B0
(1675526497.347402) vcan0 330#2800000000000000
(1675526497.348832) vcan0 0F5#628054807F7B1220
(1675526497.348976) vcan0 120#5C8052807FFC5589
(1675526497.349049) vcan0 130#F7FF1D5400BF0A12
(1675526497.349132) vcan0 150#5600D9E71AFABDC0
(1675526497.350498) vcan0 055#A8F7E727F2009C80
(1675526497.350574) vcan0 065#9DE30EE801FE0802
(1675526497.350715) vcan0 070#000056A8F1E15B00
(1675526497.350789) vcan0 075#0000000000005458
(1675526497.350863) vcan0 080#C14F8000C2002C00
(1675526497.350937) vcan0 0B0#EB838DA2F1C1EBA3
(1675526497.351080) vcan0 145#FD52DA80FCC810A1
(1675526497.351153) vcan0 360#5D8700D2C364A001
(1675526497.351980) vcan0 3CA#00000000400000C8
(1675526497.354860) vcan0 010#000000002FB031F8
(1675526497.354934) vcan0 008#269880B977910080
(1675526497.355018) vcan0 072#F000FF3F00788038
(1675526497.356324) vcan0 1D0#0000000000000061
(1675526497.356467) vcan0 390#80FF051D023E504F
(1675526497.357844) vcan0 0E0#62718AE00080D900
(1675526497.359382) vcan0 1B0#00C0000001B000EC
(1675526497.359461) vcan0 1B5#FFD3007487E0FFEF
(1675526497.359538) vcan0 1D8#363339343234DB43
(1675526497.359616) vcan0 1E0#0010BB4140FB17E0
(1675526497.359767) vcan0 2C3#5D8700FFFF025450
(1675526497.362008) vcan0 125#E5A398E4C1D0D735
(1675526497.363386) vcan0 288#7ADFE01F00000080
(1675526497.364834) vcan0 010#000000002FB031F8
(1675526497.364984) vcan0 008#619890CC19910080
(1675526497.365061) vcan0 210#51E18020A869F245
(1675526497.366364) vcan0 291#0000000000000000
(1675526497.366442) vcan0 2A9#8C26008AC0000084
(1675526497.367828) vcan0 0F5#628054807F7F0220
(1675526497.370881) vcan0 120#5C8052807FFB5589
(1675526497.370955) vcan0 130#FFFF1D5400AF0412
(1675526497.371097) vcan0 055#A8F7E627F2009C80
(1675526497.371171) vcan0 065#A1E30DE803FE0802
(1675526497.371245) vcan0 070#000056A8F1E15B00
(1675526497.371320) vcan0 075#0000000000005458
(1675526497.371462) vcan0 080#BE4F8000C2002C00
(1675526497.371536) vcan0 0B0#EB838DA2F1C1EBA3
(1675526497.371610) vcan0 145#FD42DB80FCC810A1
(1675526497.371685) vcan0 072#F000FF3F0078A038
(1675526497.371828) vcan0 150#5B00D4F725FAA8C0
(1675526497.372518) vcan0 28C#000020000016BE97
(1675526497.372593) vcan0 290#0000000000000000
(1675526497.372666) vcan0 2B5#4B33796293A64B52
(1675526497.372809) vcan0 2C0#5D8700E80100A0F1
(1675526497.372892) vcan0 2C5#00D729009DE30070
(1675526497.372966) vcan0 3AF#0000000000000020
(1675526497.373040) vcan0 3C8#5D87008E882C008E
(1675526497.375374) vcan0 008#9E98A0BADF900080
(1675526497.375447) vcan0 260#D0FF0055492E84B0
(1675526497.378265) vcan0 581#FFFFFFFFFFFF0081
(1675526497.378373) vcan0 010#000000002FB031F9
(1675526497.378453) vcan0 1D0#0000000000000A61
(1675526497.378530) vcan0 400#010102010102010C
(1675526497.378608) vcan0 405#48314C3437564D11
(1675526497.378758) vcan0 0E0#62718FE80080B400
(1675526497.379848) vcan0 1B0#00C0000000B000EC
(1675526497.379998) vcan0 1B5#FFD3007487E0FFEF
(1675526497.380075) vcan0 1D8#363339343234DB43
(1675526497.380154) vcan0 1E0#0014AB4140FB17E0
(1675526497.381389) vcan0 125#E51A99E4C1D0D735
(1675526497.384074) vcan0 008#E398B073D1900080
(1675526497.385596) vcan0 010#000000002FB031F8
(1675526497.387116) vcan0 072#F000FF3F00788038
(1675526497.388629) vcan0 288#72DFF00F00000080
(1675526497.388703) vcan0 0F5#628054807F43F220
(1675526497.388847) vcan0 120#5C8052807FFA5589
(1675526497.388920) vcan0 130#87FF1D54009F0412
(1675526497.391598) vcan0 055#A9F7E527F2009C80
(1675526497.391740) vcan0 065#A4E30BE802FE0702
(1675526497.391815) vcan0 070#000055A8F0E15B00
(1675526497.391888) vcan0 075#0000000000005458
(1675526497.391962) vcan0 080#BC4F8000C2002C00
(1675526497.392106) vcan0 0B0#EA838FA2F0C1EAA3
(1675526497.392179) vcan0 145#FD32DC80FCC810A1
(1675526497.392254) vcan0 150#5B00D3072FFA98C0
(1675526497.392328) vcan0 210#51E180A0A869F245
(1675526497.394340) vcan0 010#000000002FB031F8
(1675526497.395852) vcan0 008#2999C006E7900080
(1675526497.395995) vcan0 1D0#0000000000000061
(1675526497.396070) vcan0 291#0000000000000000
(1675526497.397376) vcan0 0E0#627195F000808E00
(1675526497.398881) vcan0 1B0#00C0000000B000EC
(1675526497.398959) vcan0 1B5#FFD4017487E0FFEF
(1675526497.399038) vcan0 1D8#363339343234DB43
(1675526497.399115) vcan0 1E0#0014AB0140FB17E0
(1675526497.400349) vcan0 290#0000000000000000
(1675526497.400426) vcan0 072#F000FF3F0078A038
(1675526497.400577) vcan0 2C3#5D8700FFFF025450
(1675526497.401881) vcan0 125#E5A199E4C1D0D735
(1675526497.404484) vcan0 010#000000002FB031F8
(1675526497.405861) vcan0 008#7499D04D44910080
(1675526497.406011) vcan0 260#D0FF00AA492E84B0
(1675526497.406096) vcan0 2A9#8C260082C0000084
(1675526497.408552) vcan0 0F5#628054807F47E220
(1675526497.409860) vcan0 120#668057807FFB5589
(1675526497.410002) vcan0 130#8FFF1D57008C0712
(1675526497.410078) vcan0 055#A9F7E527F2009C80
(1675526497.412891) vcan0 065#A5E30BE801FE0702
(1675526497.412964) vcan0 070#000055A8F0E15B00
(1675526497.413107) vcan0 075#0000000000005458
(1675526497.413181) vcan0 080#BA4F8000C2002C00
(1675526497.413255) vcan0 0B0#E98390A2EFC1E9A3
(1675526497.413329) vcan0 145#FD22DD80FCC810A1
(1675526497.413472) vcan0 150#5B00D31737FA88C0
(1675526497.413547) vcan0 28C#000020000016BE97
(1675526497.413619) vcan0 2B5#4B337A6293A64B4B
(1675526497.413694) vcan0 340#5100000000000000
(1675526497.413837) vcan0 288#6EDFF00F00000080
(1675526497.414401) vcan0 010#000000002FB031F8
(1675526497.415847) vcan0 008#C299E058DB910080
(1675526497.415989) vcan0 072#F000FF3F00788038
(1675526497.416062) vcan0 1D0#0000000000000061
(1675526497.416136) vcan0 210#51E180A0A869F24D
(1675526497.417376) vcan0 0E0#62718EF800807500
(1675526497.418882) vcan0 1B0#00C0000001B000EC
(1675526497.418959) vcan0 1B5#FFD4017588E0FFEF
(1675526497.419038) vcan0 1D8#363339343234DB43
(1675526497.419115) vcan0 1E0#00189B4140FB17E0
(1675526497.421645) vcan0 125#E5369AE4C1D0D735
(1675526497.424388) vcan0 010#000000002FB031F8
(1675526497.425837) vcan0 008#0D9AF06373920080
(1675526497.425988) vcan0 291#0000000000000000
(1675526497.426065) vcan0 330#2800000000000000
(1675526497.426143) vcan0 425#0000000000000000
(1675526497.427382) vcan0 350#A200000000000080
(1675526497.428878) vcan0 0F5#6C805C807F4BD220
(1675526497.428951) vcan0 120#668057807FFD5589
(1675526497.429026) vcan0 130#97FF1D5C00770712
(1675526497.429168) vcan0 150#6400CF2740FA6FC0
(1675526497.429243) vcan0 055#ABF7E527F2009C80
(1675526497.431922) vcan0 065#A6E306E800FE0302
(1675526497.431996) vcan0 070#000053A8F0E15B00
(1675526497.432069) vcan0 072#F000FF3F0078A038
(1675526497.432143) vcan0 075#0000000000005458
(1675526497.432286) vcan0 080#BA4F8000C2002C00
(1675526497.432360) vcan0 0B0#E88390A2EFC1E8A3
(1675526497.432434) vcan0 145#FD12DE80FCC810A1
(1675526497.432509) vcan0 290#0000000000000000
(1675526497.432650) vcan0 2C0#5D8700E80100A0F1
(1675526497.432724) vcan0 2C5#00D72800A3E30070
(1675526497.432807) vcan0 370#0724C000591BC700
(1675526497.432880) vcan0 3E0#000000D937808090
(1675526497.434531) vcan0 008#5F9A003E35930080
(1675526497.435907) vcan0 010#000000002FB031F8
(1675526497.437351) vcan0 1D0#0000000000000061
(1675526497.437494) vcan0 260#D0FF00AA492E84B0
(1675526497.437569) vcan0 0E0#62718BC000805800
(1675526497.437644) vcan0 288#72DFF00F00000080
(1675526497.438897) vcan0 1B0#00C0000001B000EC
(1675526497.438970) vcan0 1B5#FFD4017588E0FFEF
(1675526497.439044) vcan0 1D8#363339343234DB43
(1675526497.439187) vcan0 1E0#001C8B4140FB17E0
(1675526497.440357) vcan0 2C3#5D8700FFFF025450
(1675526497.440501) vcan0 210#51E180A0A869F245
(1675526497.441878) vcan0 125#E5D49AE4C1D0D735
(1675526497.444483) vcan0 008#B09A1022F0930080
(1675526497.445869) vcan0 010#000000002FB031F8
(1675526497.447383) vcan0 072#F000FF3F00788038
(1675526497.447456) vcan0 2A9#8C26009BC0000084
(1675526497.448887) vcan0 0F5#6C805C807F4FC220
(1675526497.448967) vcan0 120#668057807FFD5589
(1675526497.449045) vcan0 130#9FFD1D5C00670412
(1675526497.449121) vcan0 055#ABF7E527F2009C80
(1675526497.451867) vcan0 065#A5E303E800FE0102
(1675526497.452018) vcan0 070#000053A8F0E15B00
(1675526497.452095) vcan0 075#0000000000005458
(1675526497.452174) vcan0 080#BA4F8000C2002C00
(1675526497.452251) vcan0 0B0#E78390A2EFC1E7A3
(1675526497.452329) vcan0 145#FD02DF80FCC810A1
(1675526497.452406) vcan0 150#6400D23749FA5FC0
(1675526497.452557) vcan0 28C#000020000016BE97
(1675526497.452635) vcan0 2B5#4B347A6293A64B48
(1675526497.452720) vcan0 360#5D8700D2C364A001
(1675526497.454529) vcan0 010#000000002FB031F9
(1675526497.455907) vcan0 008#059B20EAC1940080
(1675526497.455985) vcan0 1D0#0000000000000A61
(1675526497.457360) vcan0 291#0000000000000000
(1675526497.457510) vcan0 390#80FF051D023E504F
(1675526497.457589) vcan0 0E0#627190C800803300
(1675526497.458872) vcan0 1B0#00C0000000B000EC
(1675526497.459015) vcan0 1B5#FFD4017588E0FFEF
(1675526497.459090) vcan0 1D8#363339343234DB43
(1675526497.459164) vcan0 1E0#001C8B0140FB17E0
(1675526497.460402) vcan0 290#0000000000000000
(1675526497.460476) vcan0 072#F000FF3F0078A038
(1675526497.460550) vcan0 3B0#00D819383FC0C400
(1675526497.461858) vcan0 125#E5729BE4C1D0D735
(1675526497.463371) vcan0 288#76DFF00F00000080
(1675526497.464823) vcan0 010#000000002FB031F8
(1675526497.464966) vcan0 008#579B30E95F950080
(1675526497.465040) vcan0 210#51E180A0A869F24D
(1675526497.466347) vcan0 260#D0FF00AA492F84B0
(1675526497.466422) vcan0 3D0#880F6100340680C3
(1675526497.467865) vcan0 0F5#6C805C807F53B220
(1675526497.469460) vcan0 120#6E8057807FFE5589
(1675526497.469611) vcan0 130#A7FD1D5C00570412
(1675526497.469689) vcan0 055#ACF7E527F2009C80
(1675526497.469766) vcan0 065#A4E303E8FFFD0202
(1675526497.469843) vcan0 070#000052A8F0E15B00
(1675526497.469921) vcan0 075#0000000000005458
(1675526497.472378) vcan0 080#BB4F8000C2002C00
(1675526497.472456) vcan0 0B0#E68390A2EFC1E6A3
(1675526497.472535) vcan0 145#FDF2D080FCC810A1
(1675526497.472612) vcan0 150#6400D34754FA4FC0
(1675526497.472771) vcan0 3CA#00000000510000C8
(1675526497.472850) vcan0 430#28082800000015A6
(1675526497.475016) vcan0 008#A99B40FEE8950080
(1675526497.476391) vcan0 010#000000002FB031F8
(1675526497.476468) vcan0 072#F000FF3F00788038
(1675526497.476548) vcan0 1D0#0000000000000061
(1675526497.477852) vcan0 0E0#627192D000801100
(1675526497.479395) vcan0 1B0#00C0000001B000EC
(1675526497.479470) vcan0 1B5#FFD5027588E0FFEF
(1675526497.479543) vcan0 1D8#363339343234DB43
(1675526497.479686) vcan0 1E0#00207B4140FB17E0
(1675526497.479761) vcan0 2C3#5D8700FFFF025450
(1675526497.482029) vcan0 125#E5129CE4C1D0D735
(1675526497.484502) vcan0 008#F89B503254960080
(1675526497.485878) vcan0 010#000000002FB031F8
(1675526497.487393) vcan0 291#0000000000000000
(1675526497.487475) vcan0 2A9#8C260082C0000084
(1675526497.487550) vcan0 288#6ADF00FF00000080
(1675526497.488885) vcan0 0F5#75805C807F57A220
(1675526497.488964) vcan0 120#6E805F807FFC5589
(1675526497.489042) vcan0 130#AFFD1D5F00440712
(1675526497.489191) vcan0 055#ACF7E627F2009C80
(1675526497.489270) vcan0 065#A1E303E8FDFD0202
(1675526497.491873) vcan0 070#000052A8F1E15B00
(1675526497.492021) vcan0 072#F000FF3F0078A038
(1675526497.492101) vcan0 075#0000000000005458
(1675526497.492178) vcan0 080#BE4F8000C2002C00
(1675526497.492255) vcan0 0B0#E58390A2F0C1E5A3
(1675526497.492333) vcan0 145#FDE2D180FCC810A1
(1675526497.492411) vcan0 150#6900D05761FA3AC0
(1675526497.492562) vcan0 210#51E180A0A869F24D
(1675526497.492639) vcan0 28C#000020000016BE97
(1675526497.492726) vcan0 290#0000000000000000
(1675526497.492805) vcan0 2B5#4B34796293A64B49
(1675526497.492882) vcan0 2C0#5D8700E70100A0F1
(1675526497.493392) vcan0 2C5#00D72800A4E30070
(1675526497.493470) vcan0 340#5100000000000000
(1675526497.493547) vcan0 3AF#0000000000000020
(1675526497.493698) vcan0 3C8#5D87008E882C008E
(1675526497.494856) vcan0 008#4C9C6068B9960080
(1675526497.495008) vcan0 010#000000002FB031F8
(1675526497.496384) vcan0 1D0#0000000000000061
(1675526497.496461) vcan0 260#D0FF0055493184B0
(1675526497.497837) vcan0 0E0#627194D80080EF00
(1675526497.499383) vcan0 1B0#00C0000001B000EC
(1675526497.499457) vcan0 1B5#FFD5027588E0FFEF
(1675526497.499530) vcan0 1D8#363339343234DB43
(1675526497.499674) vcan0 1E0#00246B4140FB17E0
(1675526497.502017) vcan0 125#E5B09CE4C1D0D735
(1675526497.504491) vcan0 010#000000002FB031F8
(1675526497.505869) vcan0 008#9E9C70E9D6960080
(1675526497.506012) vcan0 072#F000FF3F00788038
(1675526497.506086) vcan0 330#2800000000000000
(1675526497.508523) vcan0 0F5#758064807F5B9220
(1675526497.509901) vcan0 120#6E805F807FFD5589
(1675526497.509979) vcan0 130#B7FD1D64002F0712
(1675526497.510057) vcan0 055#ADF7E727F2009C80
(1675526497.511504) vcan0 065#9EE304E8FDFD0302
(1675526497.511583) vcan0 070#000051A8F1E15B00
(1675526497.511661) vcan0 075#0000000000005458
(1675526497.511739) vcan0 080#C04F8000C2002C00
(1675526497.511816) vcan0 0B0#E5838FA2F1C1E5A3
(1675526497.511967) vcan0 145#FDD2D280FCC810A1
(1675526497.512044) vcan0 150#6C00D2676FFA27C0
(1675526497.512997) vcan0 288#6ADF00FF00000080
(1675526497.515889) vcan0 008#EE9C8065FA960080
(1675526497.515966) vcan0 010#000000002FB031F8
(1675526497.516043) vcan0 1D0#0000000000000061
(1675526497.516121) vcan0 210#51E18020A869F245
(1675526497.516272) vcan0 291#0000000000000000
(1675526497.517360) vcan0 0E0#627193E00080D000
(1675526497.518858) vcan0 350#A200000000000080
(1675526497.519001) vcan0 1B0#00C0000001B000EC
(1675526497.519076) vcan0 1B5#FFD5027588E0FFEF
(1675526497.519151) vcan0 1D8#363339343234DB43
(1675526497.519224) vcan0 1E0#00246B0140FB17E0
(1675526497.520395) vcan0 290#0000000000000000
(1675526497.520469) vcan0 072#F000FF3F0078A038
(1675526497.520544) vcan0 2C3#5D8700FFFF025450
(1675526497.521851) vcan0 125#E5559DE4C1D0D735
(1675526497.524467) vcan0 010#000000002FB031F8
(1675526497.525845) vcan0 008#409D90F308970080
(1675526497.525988) vcan0 260#D0FF0055493184B0
(1675526497.527364) vcan0 2A9#8C26009BC0000084
(1675526497.528883) vcan0 0F5#758064807F5F8220
(1675526497.528961) vcan0 120#76805F807FFC5589
(1675526497.529039) vcan0 130#BFFD1D64001F0412
(1675526497.529118) vcan0 055#ADF7E827F2009C80
(1675526497.531863) vcan0 065#99E305E8FCFD0302
(1675526497.532013) vcan0 070#000051A8F2E15B00
(1675526497.532092) vcan0 075#0000000000005458
(1675526497.532169) vcan0 080#C34F8000C2002C00
(1675526497.532247) vcan0 0B0#E4838EA2F1C1E4A3
(1675526497.532326) vcan0 145#FDC2D380FCC810A1
(1675526497.532476) vcan0 150#6C00CC777FFA17C0
(1675526497.532553) vcan0 28C#000020000016BE97
(1675526497.532649) vcan0 2B5#4B34796293A64B4B
(1675526497.532728) vcan0 370#0724C000591BC700
(1675526497.534464) vcan0 008#8F9DA09408970080
(1675526497.535837) vcan0 010#000000002FB031F9
(1675526497.537357) vcan0 072#F000FF3F00788038
(1675526497.537507) vcan0 1D0#0000000000000A61
(1675526497.537586) vcan0 0E0#627191E80080B200
(1675526497.537663) vcan0 288#5EDF00FF00000080
(1675526497.538872) vcan0 1B0#00C0000000B000EC
(1675526497.539015) vcan0 1B5#FFD6027588E0FFEF
(1675526497.539089) vcan0 1D8#363339343234DB43
(1675526497.539163) vcan0 1E0#00285B4140FB17E0
(1675526497.540402) vcan0 210#51E180A0A869F24D
(1675526497.541848) vcan0 125#E5F99DE4C1D0D735
(1675526497.544457) vcan0 010#000000002FB031F8
(1675526497.545831) vcan0 008#E19DB041FA960080
(1675526497.545985) vcan0 291#0000000000000000
(1675526497.548525) vcan0 0F5#7D8064807F637220
(1675526497.549903) vcan0 120#76805F807FFC5589
(1675526497.549980) vcan0 130#C7FD1D64000F0412
(1675526497.550058) vcan0 055#ACF7E927F2009C80
(1675526497.552875) vcan0 065#96E307E8FEFD0602
(1675526497.552952) vcan0 070#000052A8F3E15B00
(1675526497.553102) vcan0 072#F000FF3F0078A038
(1675526497.553180) vcan0 075#0000000000005458
(1675526497.553258) vcan0 080#C64F8000C2002C00
(1675526497.553336) vcan0 0B0#E3838DA2F2C1E3A3
(1675526497.553415) vcan0 145#FDB2D480FCC810A1
(1675526497.553564) vcan0 150#6C00CB8791FA07C0
(1675526497.553642) vcan0 290#0000000000000000
(1675526497.553720) vcan0 2C0#5D8700E80100A0F1
(1675526497.553797) vcan0 2C5#00D728009DE30070
(1675526497.553885) vcan0 360#5D8700D2C364A001
(1675526497.554395) vcan0 008#319EC0F6E4960080
(1675526497.555842) vcan0 010#000000002FB031F8
(1675526497.555993) vcan0 1D0#0000000000000061
(1675526497.556070) vcan0 260#D0FF0055493184B0
(1675526497.556147) vcan0 390#80FF051D0236524F
(1675526497.557377) vcan0 0E0#627195F000808E00
(1675526497.558874) vcan0 1B0#00C0000001B000EC
(1675526497.558949) vcan0 1B5#FFD6037689E0FFEF
(1675526497.559092) vcan0 1D8#363339343234DB43
(1675526497.559166) vcan0 1E0#002C4B4140FB17E0
(1675526497.560338) vcan0 2C3#5D8700FFFF025450
(1675526497.561850) vcan0 125#E59C9EE4C1D0D735
(1675526497.563365) vcan0 288#52DF00FF00000080
(1675526497.564878) vcan0 010#000000002FB031F8
(1675526497.564953) vcan0 008#839ED0A2D6960080
(1675526497.565035) vcan0 072#F000FF3F00788038
(1675526497.565178) vcan0 210#51E180A0A869F245
(1675526497.566350) vcan0 2A9#8C260082C0000084
(1675526497.567862) vcan0 0F5#7D806C807F676220
(1675526497.570906) vcan0 120#768068807FFB5589
(1675526497.570984) vcan0 130#CFFD1D6C00F70712
(1675526497.571061) vcan0 055#ACF7EA27F2009C80
(1675526497.571139) vcan0 065#95E309E8FEFD0602
(1675526497.571288) vcan0 070#000052A8F3E15B00
(1675526497.571367) vcan0 075#0000000000005458
(1675526497.571444) vcan0 080#C84F8000C2002C00
(1675526497.571522) vcan0 0B0#E3838CA2F3C1E3A3
(1675526497.571599) vcan0 145#FDA2D580FCC810A1
(1675526497.571749) vcan0 150#7400C797A3FAEFC0
(1675526497.571826) vcan0 28C#000020000016BE97
(1675526497.572408) vcan0 2B5#4B34786293A64B53
(1675526497.572495) vcan0 340#5100000000000000
(1675526497.574953) vcan0 008#D39EE042D6960080
(1675526497.576402) vcan0 010#000000002FB031F8
(1675526497.576479) vcan0 1D0#0000000000000061
(1675526497.576558) vcan0 291#0000000000000000
(1675526497.577863) vcan0 0E0#62719BF800806800
(1675526497.579336) vcan0 1B0#00C0000001B000EC
(1675526497.579478) vcan0 1B5#FFD6037689E0FFEF
(1675526497.579551) vcan0 1D8#363339343234DB43
(1675526497.579626) vcan0 1E0#002C4B0140FB17E0
(1675526497.579769) vcan0 290#0000000000000000
(1675526497.580871) vcan0 072#F000FF3F0078A038
(1675526497.580945) vcan0 3B0#00FC46383FC0C400
(1675526497.582388) vcan0 125#E5449FE4C1D0D735
(1675526497.584928) vcan0 008#249FF0EFC7960080
(1675526497.586371) vcan0 010#000000002FB031F8
(1675526497.586453) vcan0 260#D0FF0055493284B0
(1675526497.586528) vcan0 330#2800000000000000
(1675526497.587835) vcan0 288#4DDF10EF00000080
(1675526497.590907) vcan0 0F5#7D806C807F6B5220
(1675526497.590984) vcan0 120#7E8068807FFC5589
(1675526497.591062) vcan0 130#D7FD1D6C00E70712
(1675526497.591140) vcan0 055#ABF7EA27F2009C80
(1675526497.591290) vcan0 065#94E30CE800FE0802
(1675526497.591369) vcan0 070#000053A8F3E15B00
(1675526497.591446) vcan0 075#0000000000005458
(1675526497.591524) vcan0 080#C84F8000C2002C00
(1675526497.591601) vcan0 0B0#E2838BA2F3C1E2A3
(1675526497.591679) vcan0 145#FD92D680FCC810A1
(1675526497.591830) vcan0 150#7400C8A7B5FADFC0
(1675526497.591907) vcan0 210#7DE180A0A869F245
(1675526497.591985) vcan0 3CA#00000000520000C8
(1675526497.594737) vcan0 010#000000002FB031F8
(1675526497.596113) vcan0 008#769F00A2B2960080
(1675526497.596264) vcan0 072#F000FF3F00788038
(1675526497.596341) vcan0 1D0#0000000000000061
(1675526497.597645) vcan0 0E0#627199C000804A00
(1675526497.599128) vcan0 1B0#00C0000001B000EC
(1675526497.599203) vcan0 1B5#FFD7037689E0FFEF
(1675526497.599345) vcan0 1D8#363339343234DB43
(1675526497.599419) vcan0 1E0#00303B4140FB17E0
(1675526497.599494) vcan0 2C3#5D8700FFFF025450
(1675526497.601759) vcan0 125#E5F09FE4C1D0D735
(1675526497.604367) vcan0 010#000000002FB031F8
(1675526497.605881) vcan0 008#C89F102BC7960080
(1675526497.605954) vcan0 291#0000000000000000
(1675526497.606028) vcan0 2A9#8C26008AC0000084
(1675526497.607337) vcan0 350#A200000000000080
(1675526497.608882) vcan0 0F5#84806C807F6F4220
(1675526497.608962) vcan0 120#7E8068807FFB5589
