(1675526455.773835) vcan0 1D0#0000000000000061
(1675526455.775271) vcan0 260#D0FF00AA497B85B0
(1675526455.775350) vcan0 125#E5FA79E4C1D0D734
(1675526455.775426) vcan0 1B0#00C0170000B02CEC
(1675526455.775505) vcan0 1B5#FF2B93ADDEE0FFEF
(1675526455.776778) vcan0 1D8#363339343234D943
(1675526455.776852) vcan0 1E0#0000F34300B917E0
(1675526455.776996) vcan0 2C3#5D8700FFFF0A5450
(1675526455.780770) vcan0 008#6D86D4BB81800080
(1675526455.783515) vcan0 010#000000002FB031F8
(1675526455.786436) vcan0 291#0000000000000000
(1675526455.786587) vcan0 2A9#8C260082C0000084
(1675526455.786666) vcan0 0F5#63806680BF47E172
(1675526455.786752) vcan0 120#618066807FFF5589
(1675526455.786830) vcan0 130#8FF21D66007DFD11
(1675526455.786908) vcan0 150#6400ED1772F77FC0
(1675526455.787853) vcan0 055#B6F7FF67B3009C80
(1675526455.788003) vcan0 065#3AE3F5E7008EFA01
(1675526455.788080) vcan0 070#000048A800E25B00
(1675526455.788158) vcan0 072#F000FF3F0078A038
(1675526455.790685) vcan0 075#0000000000005458
(1675526455.790764) vcan0 080#FF4F8000C2002C00
(1675526455.790842) vcan0 0B0#39837DA200C239A3
(1675526455.790991) vcan0 0E0#E2731AF80080E100
(1675526455.791070) vcan0 145#FD22DD80FCC810A1
(1675526455.791146) vcan0 210#E9E080A0A869F14D
(1675526455.791225) vcan0 288#CCDFC03F00000080
(1675526455.791302) vcan0 28C#000020000016BE90
(1675526455.793397) vcan0 290#0000000000000000
(1675526455.793483) vcan0 2B5#4B4D556293A64A36
(1675526455.793561) vcan0 2C0#5D8700630300A0F1
(1675526455.793710) vcan0 2C5#00D71F0039E30070
(1675526455.793789) vcan0 340#4D00000000000000
(1675526455.793866) vcan0 008#6A86E4919E800080
(1675526455.793944) vcan0 350#A200000000000080
(1675526455.794020) vcan0 3AF#0000000000000020
(1675526455.794099) vcan0 010#000000002FB031F8
(1675526455.794249) vcan0 1D0#0000000000000061
(1675526455.794903) vcan0 125#E5007AE4C1D0D734
(1675526455.794981) vcan0 3C8#5D87008E882C008E
(1675526455.795131) vcan0 1B0#00C0150000B028EC
(1675526455.796420) vcan0 1B5#FF2C93ADDEE0FFEF
(1675526455.796495) vcan0 1D8#363339343234D843
(1675526455.796570) vcan0 1E0#0004E34300B917E0
(1675526455.801574) vcan0 008#6886F47CA5800080
(1675526455.802891) vcan0 010#000000002FB031F8
(1675526455.804404) vcan0 072#F000FF3F00788038
(1675526455.804478) vcan0 330#2800000000000000
(1675526455.804552) vcan0 260#D0FF0055497785B0
(1675526455.805860) vcan0 0F5#63806680BF4BD172
(1675526455.806001) vcan0 120#608066807FFF5589
(1675526455.806076) vcan0 130#97F21D66006DFD11
(1675526455.806149) vcan0 150#6400F02773F76FC0
(1675526455.807382) vcan0 055#B6F7FF67B3009C80
(1675526455.807460) vcan0 065#3AE3F5E7008EFA01
(1675526455.809052) vcan0 070#000048A800E25B00
(1675526455.809136) vcan0 075#0000000000005458
(1675526455.809207) vcan0 080#FF4F8000C2002C00
(1675526455.809285) vcan0 0B0#39837DA200C239A3
(1675526455.809436) vcan0 145#FD12DE80FCC810A1
(1675526455.809513) vcan0 0E0#E27317C00080C400
(1675526455.811687) vcan0 008#64860462B3800080
(1675526455.814433) vcan0 010#000000002FB031F8
(1675526455.814511) vcan0 1D0#0000000000000061
(1675526455.814589) vcan0 210#E9E08020A869F145
(1675526455.814668) vcan0 291#0000000000000000
(1675526455.814745) vcan0 125#E5057AE4C1D0D734
(1675526455.814894) vcan0 288#CCDFC03F00000080
(1675526455.815910) vcan0 1B0#00C0110000B025EC
(1675526455.815987) vcan0 1B5#FF2C93ADDEE0FFEF
(1675526455.816064) vcan0 1D8#363339343234D843
(1675526455.816213) vcan0 1E0#0004E30300B917E0
(1675526455.816288) vcan0 2C3#5D8700FFFF0A5450
(1675526455.817390) vcan0 290#0000000000000000
(1675526455.817533) vcan0 072#F000FF3F0078A038
(1675526455.821305) vcan0 008#61861446C2800080
(1675526455.822679) vcan0 010#000000002FB031F8
(1675526455.824132) vcan0 2A9#8C26009BC0000084
(1675526455.824207) vcan0 400#01010101010B0303
(1675526455.824351) vcan0 405#0000000000000000
(1675526455.825658) vcan0 0F5#63806980BF4FC172
(1675526455.825733) vcan0 120#608066807FFF5589
(1675526455.825807) vcan0 130#9FF41D66005DFF11
(1675526455.825950) vcan0 150#6400F03773F75FC0
(1675526455.827157) vcan0 055#B6F7FF67B3009C80
(1675526455.829974) vcan0 065#39E3F5E7008EFA01
(1675526455.830053) vcan0 070#000048A800E25B00
(1675526455.830130) vcan0 075#0000000000005458
(1675526455.830209) vcan0 080#FF4F8000C2002C00
(1675526455.830285) vcan0 0B0#39837DA200C239A3
(1675526455.830437) vcan0 145#FD02DF80FCC810A1
(1675526455.830513) vcan0 0E0#E27316C80080A500
(1675526455.830592) vcan0 28C#000020000016BE90
(1675526455.832622) vcan0 2B5#4B4D556293A64A36
(1675526455.832774) vcan0 370#0724C0005A1BC735
(1675526455.832851) vcan0 008#5D862425D7800080
(1675526455.832930) vcan0 010#000000002FB031F9
(1675526455.833008) vcan0 072#F000FF3F00788038
(1675526455.834167) vcan0 1D0#0000000000000A61
(1675526455.834244) vcan0 125#E50A7AE4C1D0D734
(1675526455.834322) vcan0 260#D0FF0055497685B0
(1675526455.835626) vcan0 1B0#00C00F0000B022EC
(1675526455.835777) vcan0 1B5#FF2C93ADDEE0FFEF
(1675526455.835854) vcan0 1D8#363339343234D843
(1675526455.835933) vcan0 1E0#0008D34300B917E0
(1675526455.838282) vcan0 210#E9E080A0A869F14D
(1675526455.839657) vcan0 288#CCDFC03F00000080
(1675526455.841100) vcan0 008#58863421D0800080
(1675526455.842612) vcan0 010#000000002FB031F8
(1675526455.842694) vcan0 291#0000000000000000
(1675526455.845301) vcan0 0F5#64806980BF53B172
(1675526455.846655) vcan0 120#608066807FFF5589
(1675526455.846734) vcan0 130#A7F41D66004DFF11
(1675526455.846811) vcan0 150#6600EE4773F74DC0
(1675526455.849627) vcan0 055#B7F7FF67B3009C80
(1675526455.849705) vcan0 065#39E3F5E7008EFA01
(1675526455.849857) vcan0 070#000047A800E25B00
(1675526455.849934) vcan0 072#F000FF3F0078A038
(1675526455.850011) vcan0 075#0000000000005458
(1675526455.850089) vcan0 080#FF4F8000C2002C00
(1675526455.850168) vcan0 0B0#39837DA200C239A3
(1675526455.850317) vcan0 0E0#E27315D000808600
(1675526455.850395) vcan0 145#FDF2D080FCC810A1
(1675526455.850471) vcan0 290#0000000000000000
(1675526455.850551) vcan0 2C0#5D8700640300A0F1
(1675526455.851142) vcan0 2C5#00D71F003AE30070
(1675526455.851219) vcan0 360#5D8700D2BB64A001
(1675526455.851369) vcan0 008#568644FDE6800080
(1675526455.852674) vcan0 010#000000002FB031F8
(1675526455.852752) vcan0 1D0#0000000000000061
(1675526455.852829) vcan0 390#80FF051D02065E4F
(1675526455.854134) vcan0 125#E5107AE4C1D0D734
(1675526455.855653) vcan0 1B0#00C0000000B01DEC
(1675526455.855729) vcan0 1B5#FF2C94ADDEE0FFEF
(1675526455.855807) vcan0 1D8#363339343234D843
(1675526455.855886) vcan0 1E0#000CC34300B917E0
(1675526455.857145) vcan0 2C3#5D8700FFFF0A5450
(1675526455.861060) vcan0 008#548654EFE6800080
(1675526455.862367) vcan0 010#000000002FB031F8
(1675526455.863881) vcan0 072#F000FF3F00788038
(1675526455.864024) vcan0 210#E9E080A0A869F145
(1675526455.864106) vcan0 2A9#8C260082C0000084
(1675526455.864180) vcan0 260#D0FF0055497685B0
(1675526455.865419) vcan0 288#C8DFC03F00000080
(1675526455.865494) vcan0 0F5#64806980BF57A172
(1675526455.865568) vcan0 120#608068807FFE5589
(1675526455.865710) vcan0 130#AFF71D66003DFF11
(1675526455.866873) vcan0 150#6600F35774F73DC0
(1675526455.869907) vcan0 055#B7F7FF67B3009C80
(1675526455.869987) vcan0 065#39E3F5E7008EFA01
(1675526455.870063) vcan0 070#000047A800E25B00
(1675526455.870214) vcan0 075#0000000000005458
(1675526455.870291) vcan0 080#FF4F8000C2002C00
(1675526455.870368) vcan0 0B0#39837CA200C239A3
(1675526455.870447) vcan0 145#FDE2D180FCC810A1
(1675526455.870524) vcan0 0E0#E27314D800806700
(1675526455.870673) vcan0 28C#000020000016BE90
(1675526455.870760) vcan0 2B5#4B4D556293A64A36
(1675526455.870837) vcan0 340#4D00000000000000
(1675526455.871420) vcan0 008#4F8664EBDF800080
(1675526455.872867) vcan0 010#000000002FB031F8
(1675526455.873017) vcan0 1D0#0000000000000061
(1675526455.874396) vcan0 291#0000000000000000
(1675526455.874474) vcan0 125#E5167AE4C1D0D734
(1675526455.875849) vcan0 1B0#00C0000000B01BEC
(1675526455.876000) vcan0 1B5#FF2D94ADDEE0FFEF
(1675526455.876077) vcan0 1D8#363339343234D843
(1675526455.876157) vcan0 1E0#000CC30300B917E0
(1675526455.877399) vcan0 290#0000000000000000
(1675526455.878911) vcan0 072#F000FF3F0078A038
(1675526455.878986) vcan0 3B0#00D847383EB8C400
(1675526455.880362) vcan0 350#A200000000000080
(1675526455.881875) vcan0 008#4D8674C8F4800080
(1675526455.883406) vcan0 010#000000002FB031F8
(1675526455.884851) vcan0 330#2800000000000000
(1675526455.884995) vcan0 0F5#64806980BF5B9172
(1675526455.886358) vcan0 120#628068807FFE5589
(1675526455.886501) vcan0 130#B7FA1D66002DFF11
(1675526455.886575) vcan0 150#6600F16774F72DC0
(1675526455.886649) vcan0 3CA#00000000560000C8
(1675526455.887889) vcan0 055#B7F7FF67B3009C80
(1675526455.887963) vcan0 065#3AE3F5E7018EFA01
(1675526455.888106) vcan0 070#000047A800E25B00
(1675526455.888180) vcan0 075#0000000000005458
(1675526455.890926) vcan0 080#FF4F8000C2002C00
(1675526455.891000) vcan0 0B0#39837DA200C239A3
(1675526455.891073) vcan0 145#FDD2D280FCC810A1
(1675526455.891216) vcan0 0E0#E27315E000804600
(1675526455.891292) vcan0 210#E9E080A0A869F145
(1675526455.891374) vcan0 288#E1DFD02F00000080
(1675526455.891449) vcan0 008#4A8684C9E6800080
(1675526455.893578) vcan0 010#000000002FB031F8
(1675526455.894885) vcan0 072#F000FF3F00788038
(1675526455.894960) vcan0 1D0#0000000000000061
(1675526455.895102) vcan0 125#E51C7AE4C1D0D734
(1675526455.896478) vcan0 260#D0FF0055497785B0
(1675526455.896623) vcan0 1B0#00C0000001B019EC
(1675526455.896696) vcan0 1B5#FF2D94ADDFE0FFEF
(1675526455.896772) vcan0 1D8#363339343234D843
(1675526455.896915) vcan0 1E0#0010B34300B917E0
(1675526455.896987) vcan0 2C3#5D8700FFFF0A5450
(1675526455.901717) vcan0 008#488694BBE6800080
(1675526455.904396) vcan0 010#000000002FB031F8
(1675526455.904539) vcan0 291#0000000000000000
(1675526455.904612) vcan0 2A9#8C26008AC0000084
(1675526455.905870) vcan0 0F5#6A806F80BF5F8172
(1675526455.906015) vcan0 120#628068807FFF5589
(1675526455.906089) vcan0 130#BFFA1D66001DFF11
(1675526455.906198) vcan0 150#6A00F77775F719C0
(1675526455.907369) vcan0 072#F000FF3F0078A038
(1675526455.909089) vcan0 055#B7F7FF67B3009C80
(1675526455.909163) vcan0 065#3BE3F5E7018EFA01
(1675526455.909305) vcan0 070#000047A800E25B00
(1675526455.909380) vcan0 075#0000000000005458
(1675526455.909454) vcan0 080#FE4F8000C2002C00
(1675526455.909527) vcan0 0B0#39837DA200C239A3
(1675526455.909671) vcan0 0E0#E27317E800802400
(1675526455.909745) vcan0 145#FDC2D380FCC810A1
(1675526455.911871) vcan0 28C#000020000016BE90
(1675526455.912014) vcan0 290#0000000000000000
(1675526455.912089) vcan0 2B5#4B4D556293A64A35
(1675526455.912170) vcan0 2C0#5D8700620300A0F1
(1675526455.912245) vcan0 2C5#00D71F003AE30070
(1675526455.912319) vcan0 3AF#0000000000000020
(1675526455.912461) vcan0 008#4686A4ADE6800080
(1675526455.913356) vcan0 010#000000002FB031F9
(1675526455.913500) vcan0 1D0#0000000000000A61
(1675526455.913574) vcan0 210#E9E080A0A869F14D
(1675526455.914882) vcan0 125#E5207AE4C1D0D734
(1675526455.915024) vcan0 288#D9DFD02F00000080
(1675526455.915099) vcan0 3C8#5D87008E882C008E
(1675526455.915172) vcan0 1B0#00C0000001B018EC
(1675526455.916366) vcan0 1B5#FF2D94AEDFE0FFEF
(1675526455.916515) vcan0 1D8#363339343234D843
(1675526455.916594) vcan0 1E0#0014A34300B917E0
(1675526455.921574) vcan0 008#4486B4BCC9800080
(1675526455.922879) vcan0 010#000000002FB031F8
(1675526455.924408) vcan0 072#F000FF3F00788038
(1675526455.924485) vcan0 260#D0FF00AA497585B0
(1675526455.925861) vcan0 0F5#6A806F80BF637172
(1675526455.926012) vcan0 120#62806E807FFF5589
(1675526455.926088) vcan0 130#C7FD1D68000BFF11
(1675526455.926195) vcan0 150#6C00F48776F707C0
(1675526455.927368) vcan0 055#B7F7FF67B3009C80
(1675526455.927511) vcan0 065#3AE3F5E7008EF901
(1675526455.929024) vcan0 070#000047A800E25B00
(1675526455.929097) vcan0 075#0000000000005458
(1675526455.929172) vcan0 080#FE4F8000C2002C00
(1675526455.929315) vcan0 0B0#39837DA200C239A3
(1675526455.929388) vcan0 145#FDB2D480FCC810A1
(1675526455.929463) vcan0 0E0#E27319F000800200
(1675526455.929536) vcan0 370#0724C0005A1BC735
(1675526455.931665) vcan0 008#4486C4C2B3800080
(1675526455.933050) vcan0 010#000000002FB031F8
(1675526455.935865) vcan0 1D0#0000000000000061
(1675526455.936007) vcan0 291#0000000000000000
(1675526455.936082) vcan0 125#E5237AE4C1D0D734
(1675526455.936145) vcan0 1B0#00C0000000B017EC
(1675526455.936296) vcan0 1B5#FF2D95AEDFE0FFEF
(1675526455.936375) vcan0 1D8#363339343234D843
(1675526455.936452) vcan0 1E0#0014A30300B917E0
(1675526455.936530) vcan0 2C3#5D8700FFFF0A5450
(1675526455.937402) vcan0 290#0000000000000000
(1675526455.937479) vcan0 072#F000FF3F0078A038
(1675526455.938854) vcan0 210#E9E080A0A869F145
(1675526455.940375) vcan0 288#D5DFD02F00000080
(1675526455.941895) vcan0 008#4186D4C3A5800080
(1675526455.943412) vcan0 010#000000002FB031F8
(1675526455.943490) vcan0 2A9#8C260093C0000084
(1675526455.944874) vcan0 0F5#6A806F80BF676172
(1675526455.946400) vcan0 120#6A806E807FFF5589
(1675526455.946473) vcan0 130#CFFD1D6A00F90112
(1675526455.946617) vcan0 150#6C00F19776F7F7C0
(1675526455.947855) vcan0 055#B7F7FF67B3009C80
(1675526455.948000) vcan0 065#3AE3F4E7008EF901
(1675526455.948072) vcan0 070#000047A800E25B00
(1675526455.948146) vcan0 075#0000000000005458
(1675526455.950893) vcan0 080#FF4F8000C2002C00
(1675526455.951036) vcan0 0B0#39837DA200C239A3
(1675526455.951110) vcan0 145#FDA2D580FCC810A1
(1675526455.951185) vcan0 0E0#E2731AF80080E100
(1675526455.951258) vcan0 28C#000020000016BE91
(1675526455.951400) vcan0 2B5#4B4D556293A64A36
(1675526455.951475) vcan0 340#4D00000000000000
(1675526455.951548) vcan0 360#5D8700D2BB64A001
(1675526455.951631) vcan0 008#4186E4C98F800080
(1675526455.952390) vcan0 010#000000002FB031F8
(1675526455.953903) vcan0 072#F000FF3F00788038
(1675526455.953977) vcan0 1D0#0000000000000061
(1675526455.954120) vcan0 390#80FF051D02025F4F
(1675526455.954194) vcan0 125#E5237AE4C1D0D734
(1675526455.954267) vcan0 260#D0FF00AA497585B0
(1675526455.955369) vcan0 1B0#00C0000000B016EC
(1675526455.955512) vcan0 1B5#FF2E95AEDFE0FFEF
(1675526455.955586) vcan0 1D8#363339343234D843
(1675526455.956883) vcan0 1E0#0018934300B917E0
(1675526455.960860) vcan0 008#3F86F4C981800080
(1675526455.962373) vcan0 010#000000002FB031F8
(1675526455.962447) vcan0 210#E6E08020A869F14D
(1675526455.963891) vcan0 291#0000000000000000
(1675526455.964034) vcan0 330#2800000000000000
(1675526455.964118) vcan0 3D0#8A0F6100340680C3
(1675526455.965423) vcan0 288#D5DFD02F00000080
(1675526455.965498) vcan0 0F5#6A807580BF6B5172
(1675526455.965571) vcan0 120#6A806E807FFF5589
(1675526455.965714) vcan0 130#D7FD1D6A00E90112
(1675526455.965788) vcan0 150#6C00F1A777F7E7C0
(1675526455.968092) vcan0 055#B7F7FF67B3009C80
(1675526455.970908) vcan0 065#39E3F4E7008EFA01
(1675526455.970987) vcan0 070#000047A800E25B00
(1675526455.971063) vcan0 072#F000FF3F0078A038
(1675526455.971141) vcan0 075#0000000000005458
(1675526455.971291) vcan0 080#FF4F8000C2002C00
(1675526455.971370) vcan0 0B0#39837DA200C239A3
(1675526455.971447) vcan0 0E0#E2731BC00080C000
(1675526455.971525) vcan0 145#FD92D680FCC810A1
(1675526455.971603) vcan0 290#0000000000000000
(1675526455.971689) vcan0 2C0#5D8700630300A0F1
(1675526455.971766) vcan0 2C5#00D71F003AE30070
(1675526455.971843) vcan0 350#A200000000000080
(1675526455.972426) vcan0 008#3F8604C773800080
(1675526455.972504) vcan0 010#000000002FB031F8
(1675526455.973878) vcan0 1D0#0000000000000061
(1675526455.974027) vcan0 125#E5267AE4C1D0D734
(1675526455.975401) vcan0 1B0#00C0000001B015EC
(1675526455.975480) vcan0 1B5#FF2E95AEDFE0FFEF
(1675526455.975558) vcan0 1D8#363339343234D843
(1675526455.976895) vcan0 1E0#001C834300B917E0
(1675526455.976970) vcan0 2C3#5D8700FFFF0A5450
(1675526455.980882) vcan0 008#3F8614C664800080
(1675526455.983558) vcan0 010#000000002FB031F8
(1675526455.984864) vcan0 072#F000FF3F00788038
(1675526455.987873) vcan0 260#D0FF00AA497585B0
(1675526455.988033) vcan0 2A9#8C26008AC0000084
(1675526455.988112) vcan0 0F5#70807580BF6F4172
(1675526455.988189) vcan0 120#6A8076807FFF5589
(1675526455.988267) vcan0 130#DFFD1D6E00D50412
(1675526455.988344) vcan0 150#7200F0B777F7D1C0
(1675526455.988496) vcan0 055#B7F7FF67B3009C80
(1675526455.988573) vcan0 065#39E3F5E7008EFA01
(1675526455.988651) vcan0 070#000047A800E25B00
(1675526455.988728) vcan0 075#0000000000005458
(1675526455.988804) vcan0 080#FF4F8000C2002C00
(1675526455.990903) vcan0 0B0#39837CA200C239A3
(1675526455.990980) vcan0 145#FD82D780FCC810A1
(1675526455.991058) vcan0 0E0#E2731BC80080A000
(1675526455.991136) vcan0 210#E6E080A0A869F14D
(1675526455.991286) vcan0 28C#000020000016BE90
(1675526455.991364) vcan0 288#D9DFE01F00000080
(1675526455.991451) vcan0 2B5#4B4D556293A64A36
(1675526455.991529) vcan0 008#3F8624C456800080
(1675526455.993554) vcan0 010#000000002FB031F9
(1675526455.994855) vcan0 1D0#0000000000000A61
(1675526455.995005) vcan0 291#0000000000000000
(1675526455.995083) vcan0 125#E5267AE4C1D0D734
(1675526455.996407) vcan0 1B0#00C0000001B015EC
(1675526455.996481) vcan0 1B5#FF2E96AEDFE0FFEF
(1675526455.996625) vcan0 1D8#363339343234D843
(1675526455.996699) vcan0 1E0#001C830300B917E0
(1675526455.997870) vcan0 290#0000000000000000
(1675526455.998013) vcan0 072#F000FF3F0078A038
(1675526455.998086) vcan0 3B0#00D8473C3EB8C400
(1675526456.001790) vcan0 008#3F8634CA40800080
(1675526456.003097) vcan0 010#000000002FB031F8
(1675526456.004679) vcan0 0F5#70807580BF733172
(1675526456.006143) vcan0 120#748076807FFE5589
(1675526456.006222) vcan0 130#E7FD1D7000C30712
(1675526456.006373) vcan0 150#7200F4C778F7C1C0
(1675526456.006450) vcan0 3CA#00000000400000C8
(1675526456.007681) vcan0 055#B7F7FF67B3009C80
(1675526456.007760) vcan0 065#39E3F5E7008EFA01
(1675526456.007837) vcan0 070#000047A800E25B00
(1675526456.009140) vcan0 075#0000000000005458
(1675526456.009290) vcan0 080#FF4F8000C2002C00
(1675526456.009367) vcan0 0B0#39837CA200C239A3
(1675526456.009444) vcan0 145#FD72D880FCC810A1
(1675526456.009523) vcan0 0E0#E2731CD000807F00
(1675526456.011835) vcan0 008#3F8644C832800080
(1675526456.013137) vcan0 010#000000002FB031F8
(1675526456.016187) vcan0 072#F000FF3F00788038
(1675526456.016261) vcan0 1D0#0000000000000061
(1675526456.016344) vcan0 210#E6E080A0A869F145
(1675526456.016418) vcan0 125#E5267AE4C1D0D734
(1675526456.016561) vcan0 260#D0FF0055497585B0
(1675526456.016635) vcan0 288#CCDFE01F00000080
(1675526456.016710) vcan0 1B0#00C0000000B015EC
(1675526456.016783) vcan0 1B5#FF2F96AEDFE0FFEF
(1675526456.016927) vcan0 1D8#363339343234D843
(1675526456.017000) vcan0 1E0#0020734300B917E0
(1675526456.017074) vcan0 2C3#5D8700FFFF0A5450
(1675526456.021329) vcan0 008#3D8654BA32800080
(1675526456.022637) vcan0 010#000000002FB031F8
(1675526456.024148) vcan0 291#0000000000000000
(1675526456.024222) vcan0 2A9#8C260093C0000084
(1675526456.025599) vcan0 0F5#70807D80BF772172
(1675526456.025742) vcan0 120#748076807FFC5589
(1675526456.025816) vcan0 130#EFFD1D7400AF0712
(1675526456.025897) vcan0 150#7200F0D778F7B1C0
(1675526456.027152) vcan0 055#B7F7FF67B3009C80
(1675526456.028818) vcan0 065#39E3F5E7008EFA01
(1675526456.028968) vcan0 070#000047A800E25B00
(1675526456.029046) vcan0 072#F000FF3F0078A038
(1675526456.029134) vcan0 075#0000000000005458
(1675526456.029202) vcan0 080#FF4F8000C2002C00
(1675526456.029278) vcan0 0B0#39837CA200C239A3
(1675526456.029429) vcan0 0E0#E2731DD800805E00
(1675526456.033183) vcan0 145#FD62D980FCC810A1
(1675526456.033261) vcan0 28C#000020000016BE90
(1675526456.033336) vcan0 290#0000000000000000
(1675526456.033415) vcan0 2B5#4B4D556293A64A36
(1675526456.033565) vcan0 2C0#5D8700630300A0F1
(1675526456.033642) vcan0 2C5#00D71F003AE30070
(1675526456.033720) vcan0 340#4D00000000000000
(1675526456.033806) vcan0 370#0724C0005A1BC735
(1675526456.033882) vcan0 3AF#0000000000000020
(1675526456.033962) vcan0 008#3D8664B923800080
(1675526456.034111) vcan0 3E0#000000D937808090
(1675526456.034189) vcan0 010#000000002FB031F8
(1675526456.034266) vcan0 1D0#0000000000000061
(1675526456.034632) vcan0 125#E5267AE4C1D0D734
(1675526456.034782) vcan0 3C8#5D87008E882C008E
(1675526456.036158) vcan0 1B0#00C0000001B015EC
(1675526456.036233) vcan0 1B5#FF2F96AFE0E0FFEF
(1675526456.036376) vcan0 1D8#363339343234D843
(1675526456.036450) vcan0 1E0#0024634300B917E0
(1675526456.037620) vcan0 210#E6E080A0A869F14D
(1675526456.040296) vcan0 288#D9DFE01F00000080
(1675526456.041672) vcan0 008#3D8674A923800080
(1675526456.043115) vcan0 010#000000002FB031F8
(1675526456.043210) vcan0 072#F000FF3F00788038
(1675526456.043352) vcan0 330#2800000000000000
(1675526456.044661) vcan0 260#D0FF0055497585B0
(1675526456.046140) vcan0 0F5#78807D80BF7B1172
(1675526456.046220) vcan0 120#748081807FFC5589
(1675526456.046300) vcan0 130#F7FD1D76009D0712
(1675526456.046449) vcan0 150#7A00F3E778F799C0
(1675526456.047609) vcan0 055#B7F7FF67B3009C80
(1675526456.047759) vcan0 065#3AE3F5E7018EFA01
(1675526456.047838) vcan0 070#000047A800E25B00
(1675526456.049285) vcan0 075#0000000000005458
(1675526456.049361) vcan0 080#FF4F8000C2002C00
(1675526456.049439) vcan0 0B0#39837DA200C239A3
(1675526456.049589) vcan0 0E0#E2731EE000803D00
(1675526456.049665) vcan0 145#FD52DA80FCC810A1
(1675526456.049744) vcan0 360#5D8700D2BB64A001
(1675526456.050767) vcan0 008#3D8684A715800080
(1675526456.053654) vcan0 010#000000002FB031F8
(1675526456.053733) vcan0 1D0#0000000000000061
(1675526456.053810) vcan0 291#0000000000000000
(1675526456.053887) vcan0 390#80FF051D023E506F
(1675526456.054038) vcan0 125#E5267AE4C1D0D734
(1675526456.055126) vcan0 1B0#00C0100001B015EC
(1675526456.055203) vcan0 1B5#FF2F97AFE0E0FFEF
(1675526456.056630) vcan0 1D8#363339343234D843
(1675526456.056773) vcan0 1E0#0024630300B917E0
(1675526456.056845) vcan0 2C3#5D8700FFFF0A5450
(1675526456.058152) vcan0 290#0000000000000000
(1675526456.058227) vcan0 072#F000FF3F0078A038
(1675526456.059604) vcan0 350#A200000000000080
(1675526456.061116) vcan0 008#3D86949715800080
(1675526456.062630) vcan0 010#000000002FB031F8
(1675526456.062780) vcan0 210#E6E080A0A869F145
(1675526456.062854) vcan0 2A9#8C26008AC0000084
(1675526456.065324) vcan0 288#BCDFE01F00000080
(1675526456.066654) vcan0 0F5#78807D80BF7F0172
(1675526456.066732) vcan0 120#7E8081807FFE5589
(1675526456.066883) vcan0 130#FFFD1D78008B0A12
(1675526456.066961) vcan0 150#7A00EAF778F789C0
(1675526456.069636) vcan0 055#B7F7FF67B3009C80
(1675526456.069713) vcan0 065#3AE3F5E7008EF901
(1675526456.069863) vcan0 070#000047A800E25B00
(1675526456.069940) vcan0 075#0000000000005458
(1675526456.070018) vcan0 080#FF4F8000C2002C00
(1675526456.070097) vcan0 0B0#39837DA200C239A3
(1675526456.070174) vcan0 145#FD42DB80FCC810A1
(1675526456.070252) vcan0 0E0#E2731EE800801D00
(1675526456.070402) vcan0 28C#000020000016BE90
(1675526456.070488) vcan0 2B5#4B4D556293A64A35
(1675526456.071143) vcan0 008#3D86A48715800080
(1675526456.073814) vcan0 125#E5267AE4C1D0D734
(1675526456.075190) vcan0 581#FFFFFFFFFFFF0081
(1675526456.076756) vcan0 010#000000002FB031F9
(1675526456.076898) vcan0 072#F000FF3F00788038
(1675526456.076973) vcan0 1D0#0000000000000A61
(1675526456.077045) vcan0 1B0#00C0140001B016EC
(1675526456.077121) vcan0 1B5#FF3097AFE0E0FFEF
(1675526456.077264) vcan0 1D8#363339343234D843
(1675526456.077337) vcan0 1E0#0028534300B917E0
(1675526456.077411) vcan0 260#D0FF0055497485B0
(1675526456.077484) vcan0 400#0102040101010104
(1675526456.077627) vcan0 405#3156590000000010
(1675526456.080787) vcan0 008#3D86B48C00800080
(1675526456.086149) vcan0 0F5#78808680BF43F172
(1675526456.086240) vcan0 120#7E8081807FFE5589
(1675526456.086316) vcan0 130#87FD1D7E00750A12
(1675526456.086395) vcan0 010#000000002FB031F8
(1675526456.086545) vcan0 150#7F00EE0778F774C0
(1675526456.086621) vcan0 291#0000000000000000
(1675526456.087638) vcan0 055#B7F7FF67B3009C80
(1675526456.087714) vcan0 065#39E3F4E7008EF901
(1675526456.087865) vcan0 070#000047A800E25B00
(1675526456.090683) vcan0 075#0000000000005458
(1675526456.090761) vcan0 080#FF4F8000C2002C00
(1675526456.090839) vcan0 0B0#39837DA200C239A3
(1675526456.090916) vcan0 0E0#E2731DF00080FE00
(1675526456.091066) vcan0 145#FD32DC80FCC810A1
(1675526456.091143) vcan0 290#0000000000000000
(1675526456.091222) vcan0 2C0#5D8700630300A0F1
(1675526456.091299) vcan0 288#B4DFF00F00000080
(1675526456.091385) vcan0 2C5#00D71F003AE30070
(1675526456.091461) vcan0 072#F000FF3F0078A038
(1675526456.091613) vcan0 210#E6E080A0A869F045
(1675526456.092122) vcan0 008#3D86C47C00800080
(1675526456.093642) vcan0 125#E5267AE4C1D0D734
(1675526456.095088) vcan0 010#000000002FB031F8
(1675526456.095239) vcan0 1D0#0000000000000061
(1675526456.095317) vcan0 1B0#00C0140001B018EC
(1675526456.095394) vcan0 1B5#FF3097AFE0E0FFEF
(1675526456.096607) vcan0 1D8#363339343234D843
(1675526456.096750) vcan0 1E0#002C434300B917E0
(1675526456.096823) vcan0 2C3#5D8700FFFF0A5450
(1675526456.101831) vcan0 008#3D86D46C00800080
(1675526456.104306) vcan0 010#000000002FB031F8
(1675526456.105679) vcan0 072#F000FF3F00788038
(1675526456.105754) vcan0 2A9#8C260082C0000084
(1675526456.105835) vcan0 260#D0FF00AA497285B0
(1675526456.107157) vcan0 0F5#7F808680BF47E172
(1675526456.107235) vcan0 120#7E8089807FFE5589
(1675526456.107312) vcan0 130#8FFD1D7F00640A12
(1675526456.107463) vcan0 150#8200E81778F761C0
(1675526456.107539) vcan0 055#B7F7FF67B3009C80
(1675526456.110139) vcan0 065#39E3F5E7008EFA01
(1675526456.110218) vcan0 070#000047A800E25B00
(1675526456.110369) vcan0 075#0000000000005458
(1675526456.110446) vcan0 080#FF4F8000C2002C00
(1675526456.110524) vcan0 0B0#39837CA200C239A3
(1675526456.110601) vcan0 145#FD22DD80FCC810A1
(1675526456.110680) vcan0 0E0#E2731CF80080DF00
(1675526456.110757) vcan0 28C#000020000016BE90
(1675526456.110906) vcan0 2B5#4B4D556293A64A36
(1675526456.110983) vcan0 340#4D00000000000000
(1675526456.111646) vcan0 008#3D86E45C00800080
(1675526456.113164) vcan0 010#000000002FB031F8
(1675526456.113242) vcan0 1D0#0000000000000061
(1675526456.113319) vcan0 210#E6E08020A869F04D
(1675526456.113397) vcan0 291#0000000000000000
(1675526456.114628) vcan0 125#E5267AE4C1D0D734
(1675526456.114705) vcan0 288#C8DFF00F00000080
(1675526456.116155) vcan0 1B0#00C0140001B01AEC
(1675526456.116229) vcan0 1B5#FF3098AFE0E0FFEF
(1675526456.116373) vcan0 1D8#363339343234D843
(1675526456.116446) vcan0 1E0#002C430300B917E0
(1675526456.117616) vcan0 290#0000000000000000
(1675526456.117760) vcan0 072#F000FF3F0078A038
(1675526456.117834) vcan0 3B0#00D847383EB8C400
(1675526456.121539) vcan0 008#3D86F44C00800080
(1675526456.122916) vcan0 010#000000002FB031F8
(1675526456.124368) vcan0 330#2800000000000000
(1675526456.125881) vcan0 0F5#7F808680BF4BD173
(1675526456.125955) vcan0 120#868089807FFE5589
(1675526456.126098) vcan0 130#97FD1D7F00540712
(1675526456.126149) vcan0 150#8200EE2777F751C0
(1675526456.126229) vcan0 3CA#00000000510000C8
(1675526456.127390) vcan0 055#B6F7FF67B3009C80
(1675526456.127468) vcan0 065#39E3F5E7008EFA01
(1675526456.129061) vcan0 070#000048A800E25B00
(1675526456.129140) vcan0 075#0000000000005458
(1675526456.129217) vcan0 080#FF4F8000C2002C00
(1675526456.129295) vcan0 0B0#39837CA200C239A3
(1675526456.129372) vcan0 0E0#E2731BC00080C000
(1675526456.129522) vcan0 145#FD12DE80FCC810A1
(1675526456.129601) vcan0 370#0724C0005A1BC735
(1675526456.131696) vcan0 008#3D86043C00800080
(1675526456.133009) vcan0 010#000000002FB031F8
(1675526456.135896) vcan0 072#F000FF3F00788038
(1675526456.135974) vcan0 1D0#0000000000000061
(1675526456.136052) vcan0 125#E5267AE4C1D0D734
(1675526456.136201) vcan0 260#D0FF00AA497185B0
(1675526456.136275) vcan0 1B0#00C0150001B01BEC
(1675526456.136349) vcan0 1B5#FF3198AFE1E0FFEF
(1675526456.136421) vcan0 1D8#363339343234D843
(1675526456.136565) vcan0 1E0#0030334300B917E0
(1675526456.137394) vcan0 2C3#5D8700FFFF0A5450
(1675526456.137468) vcan0 210#E6E080A0A869F145
(1675526456.140006) vcan0 288#C8DFF00F00000080
(1675526456.141380) vcan0 008#3D86142C00800080
(1675526456.142894) vcan0 010#000000002FB031F8
(1675526456.142968) vcan0 291#0000000000000000
(1675526456.143111) vcan0 2A9#8C26009BC0000084
(1675526456.145524) vcan0 0F5#7F808D80BF4FC173
(1675526456.146947) vcan0 120#868089807FFF5589
(1675526456.147024) vcan0 130#9FFD1D86003D0A12
(1675526456.147102) vcan0 150#8600E93777F73DC0
(1675526456.149919) vcan0 055#B6F7FF67B3009C80
(1675526456.149999) vcan0 065#39E3F5E7008EFA01
(1675526456.150077) vcan0 070#000048A800E25B00
(1675526456.150227) vcan0 072#F000FF3F0078A038
(1675526456.150303) vcan0 075#0000000000005458
(1675526456.150382) vcan0 080#FF4F8000C2002C00
(1675526456.150458) vcan0 0B0#39837CA200C239A3
(1675526456.150536) vcan0 0E0#E2731BC80080A000
(1675526456.150613) vcan0 145#FD02DF80FCC810A1
(1675526456.150764) vcan0 28C#000020000016BE90
(1675526456.150842) vcan0 290#0000000000000000
(1675526456.150921) vcan0 2B5#4B4D556293A64A36
(1675526456.151512) vcan0 2C0#5D8700630300A0F1
(1675526456.151661) vcan0 2C5#00D71F0039E30070
(1675526456.151738) vcan0 350#A200000000000080
(1675526456.151816) vcan0 360#5D8700D2BB64A001
(1675526456.151894) vcan0 3AF#0000000000000020
(1675526456.151972) vcan0 008#3D86241C00800080
(1675526456.154358) vcan0 010#000000002FB031F9
(1675526456.154504) vcan0 1D0#0000000000000A61
(1675526456.154583) vcan0 390#80FF051D023A514F
(1675526456.154659) vcan0 125#E5267AE4C1D0D734
(1675526456.154737) vcan0 3C8#5D87008E882C008E
(1675526456.155895) vcan0 1B0#00C0160001B01CEC
(1675526456.155975) vcan0 1B5#FF3199B0E1E0FFEF
(1675526456.156052) vcan0 1D8#363339343234D843
(1675526456.156201) vcan0 1E0#0034234300B917E0
(1675526456.161066) vcan0 008#3D86340C00800080
(1675526456.162380) vcan0 010#000000002FB031F8
(1675526456.163895) vcan0 072#F000FF3F00788038
(1675526456.163969) vcan0 210#E6E080A0A869F14D
(1675526456.164111) vcan0 3D0#8A0F6100340680C3
(1675526456.165623) vcan0 260#D0FF00AA496F85B0
(1675526456.165696) vcan0 288#C8DFF00F00000080
(1675526456.165770) vcan0 0F5#85808D80BF53B173
(1675526456.165844) vcan0 120#868090807FFE5589
(1675526456.165987) vcan0 130#A7FA1D86002D0712
(1675526456.166062) vcan0 150#8900EA4777F72AC0
(1675526456.168383) vcan0 055#B6F7FF67B3009C80
(1675526456.168535) vcan0 065#3AE3F5E7008EFA01
(1675526456.168612) vcan0 070#000048A800E25B00
(1675526456.168690) vcan0 075#0000000000005458
(1675526456.168767) vcan0 080#FF4F8000C2002C00
(1675526456.168845) vcan0 0B0#39837DA200C239A3
(1675526456.169869) vcan0 0E0#E2731AD000808100
(1675526456.170019) vcan0 145#FDF2D080FCC810A1
(1675526456.171397) vcan0 008#3D8644FC00800080
(1675526456.172917) vcan0 010#000000002FB031F8
(1675526456.172995) vcan0 1D0#0000000000000061
(1675526456.173072) vcan0 291#0000000000000000
(1675526456.174376) vcan0 125#E5267AE4C1D0D734
(1675526456.175896) vcan0 1B0#00C0170001B01EEC
(1675526456.175973) vcan0 1B5#FF3299B0E1E0FFEF
(1675526456.176051) vcan0 1D8#363339343234D843
(1675526456.176200) vcan0 1E0#0034230300B917E0
(1675526456.176275) vcan0 2C3#5D8700FFFF0A5450
(1675526456.177379) vcan0 290#0000000000000000
(1675526456.178895) vcan0 072#F000FF3F0078A038
(1675526456.181572) vcan0 008#3D8654EC00800080
(1675526456.183979) vcan0 010#000000002FB031F8
(1675526456.185376) vcan0 2A9#8C260082C0000084
(1675526456.186870) vcan0 0F5#85809280BF57A173
(1675526456.187020) vcan0 120#8C8090807FFE5589
(1675526456.187099) vcan0 130#AFFA1D8C00170712
(1675526456.187175) vcan0 150#8900ED5777F71AC0
(1675526456.189917) vcan0 055#B6F7FF67B3009C80
(1675526456.189995) vcan0 065#3BE3F5E7008EFA01
(1675526456.190072) vcan0 070#000048A800E25B00
(1675526456.190151) vcan0 075#0000000000005458
(1675526456.190301) vcan0 080#FF4F8000C2002C00
(1675526456.190380) vcan0 0B0#39837DA200C239A3
(1675526456.190459) vcan0 0E0#E27319D800806200
(1675526456.190535) vcan0 145#FDE2D180FCC810A1
(1675526456.190612) vcan0 210#E6E080A0A869F04D
(1675526456.190691) vcan0 28C#000020000016BE90
(1675526456.190840) vcan0 2B5#4B4D556293A64A36
(1675526456.190936) vcan0 288#CCDF00FF00000080
(1675526456.191015) vcan0 340#4D00000000000000
(1675526456.191382) vcan0 008#3D8664DC00800080
(1675526456.192901) vcan0 010#000000002FB031F8
(1675526456.192979) vcan0 072#F000FF3F00788038
(1675526456.194355) vcan0 1D0#0000000000000061
(1675526456.194505) vcan0 125#E5267AE4C1D0D734
(1675526456.194582) vcan0 260#D0FF00AA497085B0
(1675526456.195888) vcan0 1B0#00C01B0000B01FEC
(1675526456.195966) vcan0 1B5#FF3299B0E1E0FFEF
(1675526456.196123) vcan0 1D8#363339343234D843
(1675526456.196198) vcan0 1E0#0038134300B917E0
(1675526456.201066) vcan0 008#3D8674CC00800080
(1675526456.202442) vcan0 010#000000002FB031F8
(1675526456.203884) vcan0 291#0000000000000000
(1675526456.203959) vcan0 330#2800000000000000
(1675526456.205412) vcan0 0F5#8C809280BF5B9173
(1675526456.205487) vcan0 120#8C8095807FFE5589
(1675526456.205561) vcan0 130#B7FA1D8C00070712
(1675526456.205704) vcan0 150#8B00F06777F708C0
(1675526456.208100) vcan0 055#B6F7FF67B3009C80
(1675526456.210918) vcan0 065#3BE3F4E7008EF901
(1675526456.210996) vcan0 070#000048A800E25B00
(1675526456.211073) vcan0 072#F000FF3F0078A038
(1675526456.211152) vcan0 075#0000000000005458
(1675526456.211301) vcan0 080#FE4F8000C2002C00
(1675526456.211380) vcan0 0B0#39837DA200C239A3
(1675526456.211457) vcan0 0E0#E27317E000804400
(1675526456.211536) vcan0 145#FDD2D280FCC810A1
(1675526456.211613) vcan0 290#0000000000000000
(1675526456.211763) vcan0 2C0#5D8700610300A0F1
(1675526456.211841) vcan0 2C5#00D71F003BE30070
(1675526456.212432) vcan0 008#3D8684BC00800080
(1675526456.212509) vcan0 010#000000002FB031F8
(1675526456.213887) vcan0 1D0#0000000000000061
(1675526456.213963) vcan0 210#E6E080A0A869F045
(1675526456.214113) vcan0 125#E5267AE4C1D0D734
(1675526456.215416) vcan0 288#C8DF00FF00000080
(1675526456.215493) vcan0 1B0#00C01D0001B022EC
(1675526456.215571) vcan0 1B5#FF329AB0E1E0FFEF
(1675526456.215649) vcan0 1D8#363339343234D843
(1675526456.216918) vcan0 1E0#003C034300B917E0
(1675526456.216992) vcan0 2C3#5D8700FFFF0A5450
(1675526456.220904) vcan0 008#3D8694AC00800080
(1675526456.222347) vcan0 010#000000002FB031F8
(1675526456.223859) vcan0 072#F000FF3F00788038
(1675526456.224001) vcan0 2A9#8C26009BC0000084
(1675526456.225377) vcan0 260#D0FF0055496D85B0
(1675526456.225528) vcan0 0F5#8C809280BF5F8173
(1675526456.225601) vcan0 120#8C8095807FFE5589
(1675526456.225677) vcan0 130#BFFA1D8C00F70712
(1675526456.225750) vcan0 150#8F00EE7777F7F4C0
(1675526456.228004) vcan0 055#B6F7FF67B3009C80
(1675526456.230893) vcan0 065#3BE3F4E7008EF901
(1675526456.230969) vcan0 070#000048A800E25B00
(1675526456.231121) vcan0 075#0000000000005458
(1675526456.231199) vcan0 080#FE4F8000C2002C00
(1675526456.231277) vcan0 0B0#39837DA200C239A3
(1675526456.231353) vcan0 0E0#E27317E800802400
(1675526456.231429) vcan0 145#FDC2D380FCC810A1
(1675526456.231508) vcan0 28C#000020000016BE90
(1675526456.231659) vcan0 2B5#4B4D556293A64936
(1675526456.231737) vcan0 370#0724C0005A1BC735
(1675526456.231816) vcan0 008#3D86A49C00800080
(1675526456.232406) vcan0 010#000000002FB031F9
(1675526456.233925) vcan0 1D0#0000000000000A61
(1675526456.234003) vcan0 291#0000000000000000
(1675526456.234081) vcan0 125#E5267AE4C1D0D734
(1675526456.235383) vcan0 1B0#00C01D0000B024EC
(1675526456.235535) vcan0 1B5#FF339AB0E2E0FFEF
(1675526456.235610) vcan0 1D8#363339343234D943
(1675526456.236879) vcan0 1E0#003C030300B917E0
(1675526456.238391) vcan0 290#0000000000000000
(1675526456.238465) vcan0 072#F000FF3F0078A038
(1675526456.238606) vcan0 210#E4E080A0A869F14D
(1675526456.238681) vcan0 3B0#00D847383EB8C400
(1675526456.239851) vcan0 350#A200000000000080
(1675526456.239994) vcan0 288#D0DF00FF00000080
(1675526456.241436) vcan0 008#3D86B48C00800080
(1675526456.242881) vcan0 010#000000002FB031F8
(1675526456.245497) vcan0 0F5#8C809580BF637173
(1675526456.246943) vcan0 120#918095807FFE5589
(1675526456.247023) vcan0 130#C7F71D9100E20712
(1675526456.247099) vcan0 150#9000F18777F7E3C0
(1675526456.247178) vcan0 3CA#00000000520000C8
(1675526456.249853) vcan0 055#B7F7FF67B3009C80
(1675526456.250004) vcan0 065#3AE3F4E7008EF901
(1675526456.250081) vcan0 070#000047A800E25B00
(1675526456.250159) vcan0 075#0000000000005458
(1675526456.250236) vcan0 080#FF4F8000C2002C00
(1675526456.250386) vcan0 0B0#39837DA200C239A3
(1675526456.250462) vcan0 0E0#E27316F000800500
(1675526456.250541) vcan0 145#FDB2D480FCC810A1
(1675526456.250620) vcan0 360#5D8700D2BB64A001
(1675526456.251419) vcan0 008#3D86C46E0E800080
(1675526456.252870) vcan0 010#000000002FB031F8
(1675526456.252957) vcan0 072#F000FF3F00788038
(1675526456.253107) vcan0 1D0#0000000000000061
(1675526456.253185) vcan0 390#80FF051D0236524F
(1675526456.254416) vcan0 125#E5267AE4C1D0D734
(1675526456.254493) vcan0 260#D0FF0055496D85B0
(1675526456.255870) vcan0 1B0#00C01E0000B028EC
(1675526456.256021) vcan0 1B5#FF339BB0E2E0FFEF
(1675526456.256119) vcan0 1D8#363339343234D943
(1675526456.256196) vcan0 1E0#0000F34300B917E0
(1675526456.256271) vcan0 2C3#5D8700FFFF0A5450
(1675526456.261072) vcan0 008#3D86D45E0E800080
(1675526456.262379) vcan0 010#000000002FB031F8
(1675526456.263894) vcan0 210#E4E08020A869F145
(1675526456.263969) vcan0 291#0000000000000000
(1675526456.264112) vcan0 2A9#8C260082C0000084
(1675526456.265419) vcan0 288#D9DF00FF00000080
(1675526456.265504) vcan0 0F5#8F809580BF676173
(1675526456.265577) vcan0 120#918097807FFF5589
(1675526456.265651) vcan0 130#CFF71D9100D20712
(1675526456.265796) vcan0 150#9000F19777F7D3C0
(1675526456.268055) vcan0 055#B7F7FF67B3009C80
(1675526456.270869) vcan0 065#39E3F4E7008EF901
(1675526456.271013) vcan0 070#000047A800E25B00
(1675526456.271090) vcan0 072#F000FF3F0078A038
(1675526456.271163) vcan0 075#0000000000005458
(1675526456.271306) vcan0 080#FF4F8000C2002C00
(1675526456.271379) vcan0 0B0#39837DA200C239A3
(1675526456.271454) vcan0 0E0#E27316F80080E500
(1675526456.271528) vcan0 145#FDA2D580FCC810A1
(1675526456.271671) vcan0 28C#000020000016BE90
(1675526456.271744) vcan0 290#0000000000000000
(1675526456.271818) vcan0 2B5#4B4D556293A64936
(1675526456.272521) vcan0 2C0#5D8700650300A0F1
(1675526456.272594) vcan0 2C5#00D71F003BE30070
(1675526456.272738) vcan0 340#4D00000000000000
(1675526456.272812) vcan0 3AF#0000000000000020
(1675526456.272886) vcan0 008#3D86E44E0E800080
(1675526456.272959) vcan0 010#000000002FB031F8
(1675526456.275361) vcan0 1D0#0000000000000061
(1675526456.275503) vcan0 125#E5267AE4C1D0D734
(1675526456.275580) vcan0 3C8#5D87008E882C008E
(1675526456.275653) vcan0 1B0#00C0200000B02BEC
(1675526456.275726) vcan0 1B5#FF339BB1E2E0FFEF
(1675526456.275870) vcan0 1D8#363339343234D943
(1675526456.276875) vcan0 1E0#0004E34300B917E0
(1675526456.280846) vcan0 008#3D86F43E0E800080
(1675526456.283661) vcan0 010#000000002FB031F8
(1675526456.284892) vcan0 072#F000FF3F00788038
(1675526456.287916) vcan0 330#2800000000000000
(1675526456.287989) vcan0 260#D0FF0055496A85B0
(1675526456.288064) vcan0 0F5#8F809580BF6B5173
(1675526456.288207) vcan0 120#948097807FFF5589
(1675526456.288281) vcan0 130#D7F41D9100C20412
(1675526456.288356) vcan0 150#9200F1A777F7C1C0
(1675526456.288430) vcan0 055#B7F7FF67B3009C80
(1675526456.288572) vcan0 065#3AE3F5E7008EFA01
(1675526456.288646) vcan0 070#000047A800E25B00
(1675526456.288721) vcan0 075#0000000000005458
(1675526456.288795) vcan0 080#FF4F8000C2002C00
(1675526456.289418) vcan0 0B0#39837DA200C239A3
(1675526456.289493) vcan0 0E0#E27317C00080C400
(1675526456.289567) vcan0 145#FD92D680FCC810A1
(1675526456.289708) vcan0 210#E4E080A0A869F145
(1675526456.289782) vcan0 288#D5DF10EF00000080
(1675526456.290893) vcan0 008#3D86042E0E800080
(1675526456.292408) vcan0 010#000000002FB031F8
(1675526456.293850) vcan0 1D0#0000000000000061
(1675526456.293994) vcan0 291#0000000000000000
(1675526456.294068) vcan0 125#E5267AE4C1D0D734
(1675526456.295375) vcan0 1B0#00C0200000B02DEC
(1675526456.295520) vcan0 1B5#FF349BB1E2E0FFEF
(1675526456.295591) vcan0 1D8#363339343234D943
(1675526456.296876) vcan0 1E0#0004E30300B917E0
(1675526456.296956) vcan0 2C3#5D8700FFFF0A5450
(1675526456.298403) vcan0 290#0000000000000000
(1675526456.298480) vcan0 072#F000FF3F0078A038
(1675526456.301009) vcan0 008#3D86141E0E800080
(1675526456.302383) vcan0 010#000000002FB031F8
(1675526456.303902) vcan0 2A9#8C26008AC0000084
(1675526456.305352) vcan0 0F5#8F809780BF6F4173
(1675526456.305511) vcan0 120#948097807FFF5589
(1675526456.305588) vcan0 130#DFF41D9400AF0412
(1675526456.306879) vcan0 150#9300F3B777F7B0C0
(1675526456.309901) vcan0 055#B7F7FF67B3009C80
(1675526456.309975) vcan0 065#39E3F5E7008EFA01
(1675526456.310118) vcan0 070#000047A800E25B00
(1675526456.310192) vcan0 075#0000000000005458
(1675526456.310266) vcan0 080#FF4F8000C2002C00
(1675526456.310340) vcan0 0B0#39837DA200C239A3
(1675526456.310484) vcan0 0E0#E27319C80080A200
(1675526456.310557) vcan0 145#FD82D780FCC810A1
(1675526456.310631) vcan0 28C#000020000016BE90
(1675526456.310706) vcan0 2B5#4B4D556293A64936
(1675526456.311398) vcan0 008#3D86240E0E800080
(1675526456.312909) vcan0 010#000000002FB031F9
(1675526456.312982) vcan0 072#F000FF3F00788038
(1675526456.313067) vcan0 1D0#0000000000000A61
(1675526456.313141) vcan0 210#E4E080A0A869F04D
(1675526456.314379) vcan0 125#E5267AE4C1D0D734
(1675526456.314453) vcan0 260#D0FF00AA496D85B0
(1675526456.315900) vcan0 288#CCDF10EF00000080
(1675526456.315973) vcan0 1B0#00C0200000B02EEC
(1675526456.316046) vcan0 1B5#FF349CB1E2E0FFEF
(1675526456.316145) vcan0 1D8#363339343234D943
(1675526456.316299) vcan0 1E0#0008D34300B917E0
(1675526456.321062) vcan0 008#3D8634FE0E800080
(1675526456.322366) vcan0 010#000000002FB031F8
(1675526456.323886) vcan0 291#0000000000000000
(1675526456.323963) vcan0 400#0101010102010205
(1675526456.324114) vcan0 405#D507D69B48186701
(1675526456.324192) vcan0 425#0000000000000000
(1675526456.325350) vcan0 0F5#93809780BF733173
(1675526456.325522) vcan0 120#948098807FFE5589
(1675526456.325600) vcan0 130#E7F41D94009F0412
(1675526456.325677) vcan0 150#9500F0C777F79EC0
(1675526456.328043) vcan0 072#F000FF3F0078A038
(1675526456.330858) vcan0 055#B7F7FF67B3009C80
(1675526456.331000) vcan0 065#3AE3F5E7008EFA01
(1675526456.331074) vcan0 070#000047A800E25B00
(1675526456.331148) vcan0 075#0000000000005458
(1675526456.331290) vcan0 080#FF4F8000C2002C00
(1675526456.331364) vcan0 0B0#39837DA200C239A3
(1675526456.331437) vcan0 0E0#E2731BD000808000
(1675526456.331512) vcan0 145#FD72D880FCC810A1
(1675526456.331655) vcan0 290#0000000000000000
(1675526456.331730) vcan0 2C0#5D8700630300A0F1
(1675526456.331804) vcan0 2C5#00D71F003AE30070
(1675526456.333864) vcan0 350#A200000000000080
(1675526456.334014) vcan0 370#0724C0005A1BC735
(1675526456.334089) vcan0 3E0#000000D937808090
(1675526456.334163) vcan0 008#3D8644EE0E800080
(1675526456.334237) vcan0 010#000000002FB031F8
(1675526456.334379) vcan0 1D0#0000000000000061
(1675526456.334454) vcan0 125#E5267AE4C1D0D734
(1675526456.335350) vcan0 1B0#00C0200000B02FEC
(1675526456.335493) vcan0 1B5#FF359CB1E2E0FFEF
(1675526456.335565) vcan0 1D8#363339343234D943
(1675526456.336876) vcan0 1E0#000CC34300B917E0
(1675526456.337026) vcan0 2C3#5D8700FFFF0A5450
(1675526456.338401) vcan0 210#E4E080A0A869F045
(1675526456.339847) vcan0 288#D0DF10EF00000080
(1675526456.341437) vcan0 008#3D8654DE0E800080
(1675526456.342882) vcan0 010#000000002FB031F8
(1675526456.342959) vcan0 072#F000FF3F00788038
(1675526456.343045) vcan0 2A9#8C260093C0000084
(1675526456.344348) vcan0 260#D0FF00AA496985B0
(1675526456.345867) vcan0 0F5#93809880BF772173
(1675526456.346016) vcan0 120#958098807FFF5589
(1675526456.346095) vcan0 130#EFF41D95008E0112
(1675526456.346199) vcan0 150#9500F1D777F78EC0
(1675526456.347371) vcan0 055#B7F7FF67B3009C80
(1675526456.347515) vcan0 065#3AE3F5E7008EFA01
(1675526456.350398) vcan0 070#000047A800E25B00
(1675526456.350472) vcan0 075#0000000000005458
(1675526456.350614) vcan0 080#FF4F8000C2002C00
(1675526456.350690) vcan0 0B0#39837DA200C239A3
(1675526456.350764) vcan0 0E0#E2731CD800805F00
(1675526456.350837) vcan0 145#FD62D980FCC810A1
(1675526456.350980) vcan0 28C#000020000016BE90
(1675526456.351053) vcan0 2B5#4B4D556293A64935
(1675526456.351138) vcan0 340#4D00000000000000
(1675526456.351211) vcan0 360#5D8700D2BB64A001
(1675526456.351903) vcan0 008#3D8664DC00800080
(1675526456.353418) vcan0 010#000000002FB031F8
(1675526456.353491) vcan0 1D0#0000000000000061
(1675526456.353566) vcan0 291#0000000000000000
(1675526456.353639) vcan0 390#80FF051D0232534F
(1675526456.354879) vcan0 125#E5267AE4C1D0D734
(1675526456.354953) vcan0 1B0#00C0200000B02FEC
(1675526456.356362) vcan0 1B5#FF359CB1E3E0FFEF
(1675526456.356513) vcan0 1D8#363339343234D943
(1675526456.356591) vcan0 1E0#000CC30300B917E0
(1675526456.357895) vcan0 290#0000000000000000
(1675526456.357972) vcan0 072#F000FF3F0078A038
(1675526456.358050) vcan0 3B0#00FC3F383EB8C400
(1675526456.361805) vcan0 008#3D8674CC00800080
(1675526456.363116) vcan0 010#000000002FB031F8
(1675526456.364635) vcan0 210#E4E080A0A869F04D
(1675526456.364787) vcan0 330#2800000000000000
(1675526456.364864) vcan0 3D0#8A0F6100340680C3
(1675526456.364942) vcan0 288#CCDF10EF00000080
(1675526456.366188) vcan0 0F5#93809880BF7B1173
(1675526456.366267) vcan0 120#958099807FFF5589
(1675526456.366344) vcan0 130#F7F21D95007E0112
(1675526456.366423) vcan0 150#9500F0E777F77EC0
(1675526456.366573) vcan0 3CA#00000000530000C8
(1675526456.367661) vcan0 430#28082A00000015A6
(1675526456.367739) vcan0 055#B6F7FF67B3009C80
(1675526456.367818) vcan0 065#3AE3F4E7008EF901
(1675526456.369265) vcan0 070#000048A800E25B00
(1675526456.369343) vcan0 075#0000000000005458
(1675526456.369420) vcan0 080#FF4F8000C2002C00
(1675526456.369578) vcan0 0B0#39837DA200C239A3
(1675526456.369657) vcan0 0E0#E2731DE000803E00
(1675526456.369735) vcan0 145#FD52DA80FCC810A1
(1675526456.370748) vcan0 008#3D8684BC00800080
(1675526456.372269) vcan0 010#000000002FB031F8
(1675526456.375153) vcan0 072#F000FF3F00788038
(1675526456.375231) vcan0 1D0#0000000000000061
(1675526456.375380) vcan0 125#E5267AE4C1D0D734
(1675526456.375458) vcan0 260#D0FF00AA496C85B0
(1675526456.375535) vcan0 1B0#00C0200000B030EC
(1675526456.375613) vcan0 1B5#FF359DB2E3E0FFEF
(1675526456.376674) vcan0 1D8#363339343234D943
(1675526456.376748) vcan0 1E0#0010B34300B917E0
(1675526456.376822) vcan0 2C3#5D8700FFFF0A5450
(1675526456.381828) vcan0 008#3D8694AC00800080
(1675526456.384300) vcan0 010#000000002FB031F8
(1675526456.385683) vcan0 291#0000000000000000
(1675526456.385758) vcan0 2A9#8C26008AC0000084
(1675526456.387170) vcan0 0F5#95809880BF7F0173
(1675526456.387245) vcan0 120#958099807FFE5589
(1675526456.387320) vcan0 130#FFF21D95006E0112
(1675526456.387393) vcan0 150#9600EDF777F76DC0
(1675526456.387535) vcan0 055#B6F7FF67B3009C80
(1675526456.390142) vcan0 065#39E3F4E7008EFA01
(1675526456.390216) vcan0 070#000048A800E25B00
(1675526456.390358) vcan0 072#F000FF3F0078A038
(1675526456.390432) vcan0 075#0000000000005458
(1675526456.390506) vcan0 080#FF4F8000C2002C00
(1675526456.390581) vcan0 0B0#39837CA200C239A3
(1675526456.390653) vcan0 0E0#E2731EE800801D00
(1675526456.390795) vcan0 145#FD42DB80FCC810A1
(1675526456.390869) vcan0 210#E4E080A0A869F04D
(1675526456.390955) vcan0 28C#000020000016BE90
(1675526456.391031) vcan0 288#C4DF20DF00000080
(1675526456.391104) vcan0 290#0000000000000000
(1675526456.391248) vcan0 2B5#4B4D556293A64936
(1675526456.391663) vcan0 2C0#5D8700610300A0F1
(1675526456.391738) vcan0 2C5#00D71F003BE30070
(1675526456.391812) vcan0 3AF#0000000000000020
(1675526456.391954) vcan0 008#3D86A49C00800080
(1675526456.393135) vcan0 010#000000002FB031F9
(1675526456.394635) vcan0 1D0#0000000000000A61
(1675526456.394709) vcan0 125#E5267AE4C1D0D734
(1675526456.394853) vcan0 3C8#5D87008E882C008E
(1675526456.396203) vcan0 1B0#00C0200000B030EC
(1675526456.396278) vcan0 1B5#FF369DB2E3E0FFEF
(1675526456.396421) vcan0 1D8#363339343234D943
(1675526456.396495) vcan0 1E0#0014A34300B917E0
(1675526456.401306) vcan0 008#3D86B48C00800080
(1675526456.402682) vcan0 010#000000002FB031F8
(1675526456.404130) vcan0 072#F000FF3F00788038
(1675526456.405642) vcan0 260#D0FF0055496985B0
(1675526456.405716) vcan0 0F5#95809980BF43F173
(1675526456.405790) vcan0 120#958099807FFF5589
(1675526456.405933) vcan0 130#87F21D95005EFF11
(1675526456.406008) vcan0 150#9700ED0777F75CC0
(1675526456.407156) vcan0 055#B6F7FF67B3009C80
(1675526456.408820) vcan0 065#38E3F4E7008EFA01
(1675526456.408898) vcan0 070#000048A800E25B00
(1675526456.408977) vcan0 075#0000000000005458
(1675526456.409055) vcan0 080#FF4F8000C2002C00
(1675526456.409144) vcan0 0B0#39837CA200C239A3
(1675526456.409210) vcan0 0E0#E27320F00080FB00
(1675526456.409361) vcan0 145#FD32DC80FCC810A1
(1675526456.411392) vcan0 008#3D86C47C00800080
(1675526456.414137) vcan0 010#000000002FB031F8
(1675526456.414287) vcan0 1D0#0000000000000061
(1675526456.414365) vcan0 210#E4E08020A869F045
(1675526456.414444) vcan0 291#0000000000000000
(1675526456.414523) vcan0 125#E5297AE4C1D0D734
(1675526456.417145) vcan0 288#C8DF20DF00000080
(1675526456.417220) vcan0 1B0#00C0200000B030EC
(1675526456.417365) vcan0 1B5#FF369EB2E3E0FFEF
(1675526456.417438) vcan0 1D8#363339343234D943
(1675526456.417512) vcan0 1E0#0014A30300B917E0
(1675526456.417587) vcan0 2C3#5D8700FFFF0A5450
(1675526456.417729) vcan0 290#0000000000000000
(1675526456.418625) vcan0 072#F000FF3F0078A038
(1675526456.420140) vcan0 350#A200000000000080
(1675526456.421653) vcan0 008#3D86D46C00800080
(1675526456.423172) vcan0 010#000000002FB031F8
(1675526456.423248) vcan0 2A9#8C260093C0000084
(1675526456.425789) vcan0 0F5#96809980BF47E173
(1675526456.427158) vcan0 120#95809B807FFE5589
(1675526456.427237) vcan0 130#8FF21D95004EFF11
(1675526456.427314) vcan0 150#9700EE1777F74CC0
(1675526456.430129) vcan0 055#B6F7FF67B3009C80
(1675526456.430206) vcan0 065#39E3F5E7008EFA01
(1675526456.430358) vcan0 070#000048A800E25B00
(1675526456.430436) vcan0 075#0000000000005458
(1675526456.430513) vcan0 080#FF4F8000C2002C00
(1675526456.430591) vcan0 0B0#39837CA200C239A3
(1675526456.430668) vcan0 0E0#E27321F80080DA00
(1675526456.430818) vcan0 145#FD22DD80FCC810A1
(1675526456.430895) vcan0 28C#000020000016BE90
(1675526456.430972) vcan0 2B5#4B4D556293A64936
(1675526456.431058) vcan0 340#4D00000000000000
(1675526456.431136) vcan0 370#0724C0005A1BC735
(1675526456.431647) vcan0 008#3D86E45C00800080
(1675526456.433165) vcan0 010#000000002FB031F8
(1675526456.433244) vcan0 072#F000FF3F00788038
(1675526456.433320) vcan0 1D0#0000000000000061
(1675526456.434624) vcan0 125#E5297AE4C1D0D734
(1675526456.434700) vcan0 260#D0FF0055496A85B0
(1675526456.436152) vcan0 1B0#00C0200000B030EC
(1675526456.436156) vcan0 1B5#FF369EB2E3E0FFEF
(1675526456.436298) vcan0 1D8#363339343234D943
(1675526456.436373) vcan0 1E0#0018934300B917E0
(1675526456.437611) vcan0 210#E4E080A0A869F04D
(1675526456.440289) vcan0 288#C0DF20DF00000080
(1675526456.441663) vcan0 008#3D86F44C00800080
(1675526456.443107) vcan0 010#000000002FB031F8
(1675526456.443259) vcan0 291#0000000000000000
(1675526456.443331) vcan0 330#2800000000000000
(1675526456.444641) vcan0 0F5#96809A80BF4BD173
(1675526456.446149) vcan0 120#95809B807FFE5589
(1675526456.446229) vcan0 130#97F21D96003DFF11
(1675526456.446307) vcan0 150#9700E92777F73CC0
(1675526456.447611) vcan0 055#B6F7FF67B3009C80
(1675526456.447760) vcan0 065#39E3F5E7008EFA01
(1675526456.447839) vcan0 070#000048A800E25B00
(1675526456.450655) vcan0 072#F000FF3F0078A038
(1675526456.450732) vcan0 075#0000000000005458
(1675526456.450810) vcan0 080#FF4F8000C2002C00
(1675526456.450961) vcan0 0B0#39837CA200C239A3
(1675526456.451040) vcan0 0E0#E27324C00080B700
(1675526456.451116) vcan0 145#FD12DE80FCC810A1
(1675526456.451193) vcan0 290#0000000000000000
(1675526456.451279) vcan0 2C0#5D8700650300A0F1
(1675526456.451357) vcan0 2C5#00D71F003AE30070
(1675526456.451507) vcan0 360#5D8700D2BB64A001
(1675526456.452161) vcan0 008#3D86043C00800080
(1675526456.453608) vcan0 010#000000002FB031F8
(1675526456.453757) vcan0 1D0#0000000000000061
(1675526456.453836) vcan0 390#80FF051D022E544F
(1675526456.453912) vcan0 125#E5297AE4C1D0D734
(1675526456.455142) vcan0 1B0#00C0200000B030EC
(1675526456.455222) vcan0 1B5#FF379EB2E4E0FFEF
(1675526456.456644) vcan0 1D8#363339343234D943
(1675526456.456719) vcan0 1E0#001C834300B917E0
(1675526456.456862) vcan0 2C3#5D8700FFFF0A5450
(1675526456.461796) vcan0 008#3D86142C00800080
(1675526456.463173) vcan0 010#000000002FB031F8
(1675526456.464616) vcan0 072#F000FF3F00788038
(1675526456.464780) vcan0 210#E4E080A0A869F045
(1675526456.464855) vcan0 2A9#8C26008AC0000084
(1675526456.464929) vcan0 260#D0FF0055496785B0
(1675526456.465002) vcan0 288#C0DF20DF00000080
(1675526456.466209) vcan0 0F5#96809A80BF4FC173
(1675526456.466288) vcan0 120#95809C807FFC5589
(1675526456.466365) vcan0 130#9FF21D96002DFF11
(1675526456.466442) vcan0 150#9800EC3777F72BC0
(1675526456.467673) vcan0 055#B6F7FF67B3009C80
(1675526456.467751) vcan0 065#39E3F5E7008EFA01
(1675526456.467829) vcan0 070#000048A800E25B00
(1675526456.469277) vcan0 075#0000000000005458
(1675526456.469355) vcan0 080#FF4F8000C2002C00
(1675526456.469432) vcan0 0B0#39837CA200C239A3
(1675526456.469510) vcan0 0E0#E27325C800809600
(1675526456.469589) vcan0 145#FD02DF80FCC810A1
(1675526456.469674) vcan0 28C#000020000016BE90
(1675526456.469825) vcan0 2B5#4B4D556293A64936
(1675526456.470769) vcan0 008#3D86241C00800080
(1675526456.473659) vcan0 010#000000002FB031F9
(1675526456.473736) vcan0 1D0#0000000000000A61
(1675526456.473814) vcan0 291#0000000000000000
(1675526456.473892) vcan0 125#E5297AE4C1D0D734
(1675526456.475124) vcan0 1B0#00C0200000B030EC
(1675526456.475274) vcan0 1B5#FF379FB3E4E0FFEF
(1675526456.476668) vcan0 1D8#363339343234D943
(1675526456.476746) vcan0 1E0#001C830300B917E0
(1675526456.478120) vcan0 290#0000000000000000
(1675526456.478272) vcan0 072#F000FF3F0078A038
(1675526456.478350) vcan0 3B0#00D83F383EB8C602
(1675526456.480879) vcan0 008#3D86340C00800080
(1675526456.483550) vcan0 010#000000002FB031F8
(1675526456.484934) vcan0 0F5#96809A80BF53B173
(1675526456.486405) vcan0 120#95809C807FFC5589
(1675526456.486480) vcan0 130#A7F21D96001DFF11
(1675526456.486554) vcan0 150#9800EE4777F71BC0
(1675526456.486698) vcan0 3CA#00000000540000C8
(1675526456.487868) vcan0 055#B6F7FF67B3009C80
(1675526456.488010) vcan0 065#3AE3F5E7018EFA01
(1675526456.488086) vcan0 070#000048A800E25B00
(1675526456.488158) vcan0 075#0000000000005458
(1675526456.489396) vcan0 080#FF4F8000C2002C00
(1675526456.489470) vcan0 0B0#39837CA200C239A3
(1675526456.489613) vcan0 0E0#E27327D000807400
(1675526456.489687) vcan0 145#FDF2D080FCC810A1
(1675526456.489762) vcan0 210#E4E080A0A869F045
(1675526456.490863) vcan0 288#C4DF30CF00000080
(1675526456.491007) vcan0 008#3D8644FC00800080
(1675526456.493555) vcan0 010#000000002FB031F8
(1675526456.494930) vcan0 072#F000FF3F00788038
(1675526456.495004) vcan0 1D0#0000000000000061
(1675526456.495078) vcan0 125#E5297AE4C1D0D734
(1675526456.496504) vcan0 260#D0FF0055496885B0
(1675526456.496582) vcan0 1B0#00C0210000B030EC
(1675526456.496733) vcan0 1B5#FF389FB3E4E0FFEF
(1675526456.496810) vcan0 1D8#363339343234D943
(1675526456.496888) vcan0 1E0#0020734300B917E0
(1675526456.496966) vcan0 2C3#5D8700FFFF0A5450
(1675526456.501656) vcan0 008#3D8654EC00800080
(1675526456.504402) vcan0 010#000000002FB031F8
(1675526456.504480) vcan0 291#0000000000000000
(1675526456.504630) vcan0 2A9#8C260082C0000084
(1675526456.505860) vcan0 0F5#96809B80BF57A173
(1675526456.506012) vcan0 120#95809C807FFD5589
(1675526456.506115) vcan0 130#AFF21D96000DFF11
(1675526456.506191) vcan0 150#9800ED5777F70BC0
(1675526456.507361) vcan0 055#B6F7FF67B3009C80
(1675526456.507505) vcan0 065#3AE3F4E7008EFA01
(1675526456.510388) vcan0 070#000048A800E25B00
(1675526456.510530) vcan0 072#F000FF3F0078A038
(1675526456.510604) vcan0 075#0000000000005458
(1675526456.510678) vcan0 080#FF4F8000C2002C00
(1675526456.510753) vcan0 0B0#39837DA200C239A3
(1675526456.510895) vcan0 0E0#E27329D800805200
(1675526456.510968) vcan0 145#FDE2D180FCC810A1
(1675526456.511042) vcan0 28C#000020000016BE90
(1675526456.511116) vcan0 290#0000000000000000
(1675526456.511259) vcan0 2B5#4B4D556293A64936
(1675526456.511333) vcan0 2C0#5D8700620300A0F1
(1675526456.511406) vcan0 2C5#00D71F003AE30070
(1675526456.511490) vcan0 340#4D00000000000000
(1675526456.511906) vcan0 350#A200000000000080
(1675526456.511981) vcan0 008#3D8664DC00800080
(1675526456.512122) vcan0 3AF#0000000000000020
(1675526456.513363) vcan0 010#000000002FB031F8
(1675526456.513506) vcan0 1D0#0000000000000061
(1675526456.513579) vcan0 210#E4E080A0A869F04D
(1675526456.514888) vcan0 125#E5297AE4C1D0D734
(1675526456.515030) vcan0 288#CCDF30CF00000080
(1675526456.515104) vcan0 3C8#5D87008E882C008E
(1675526456.516367) vcan0 1B0#00C0210000B031EC
(1675526456.516518) vcan0 1B5#FF38A0B3E4E0FFEF
(1675526456.516597) vcan0 1D8#363339343234D943
(1675526456.516675) vcan0 1E0#0024634300B917E0
(1675526456.521577) vcan0 008#3D8674CC00800080
(1675526456.522882) vcan0 010#000000002FB031F8
(1675526456.524410) vcan0 072#F000FF3F00788038
(1675526456.524487) vcan0 330#2800000000000000
(1675526456.524566) vcan0 260#D0FF00AA496585B0
(1675526456.525869) vcan0 0F5#97809B80BF5B9174
(1675526456.526020) vcan0 120#95809C807FFE5589
(1675526456.526098) vcan0 130#B7F21D9600FDFF11
(1675526456.526194) vcan0 150#9800F06777F7FBC0
(1675526456.527367) vcan0 055#B6F7FF67B3009C80
(1675526456.527510) vcan0 065#3AE3F4E7008EFA01
(1675526456.529090) vcan0 070#000048A800E25B00
(1675526456.529165) vcan0 075#0000000000005458
(1675526456.529307) vcan0 080#FF4F8000C2002C00
(1675526456.529383) vcan0 0B0#39837DA200C239A3
(1675526456.529456) vcan0 0E0#E2732AE000803100
(1675526456.529530) vcan0 145#FDD2D280FCC810A1
(1675526456.529674) vcan0 370#0724C0005A1BC735
(1675526456.531675) vcan0 008#3D8684BC00800080
(1675526456.533052) vcan0 010#000000002FB031F8
(1675526456.534496) vcan0 1D0#0000000000000061
(1675526456.534639) vcan0 291#0000000000000000
(1675526456.534714) vcan0 125#E5297AE4C1D0D734
(1675526456.536019) vcan0 1B0#00C0220000B031EC
(1675526456.536093) vcan0 1B5#FF38A0B3E4E0FFEF
(1675526456.536226) vcan0 1D8#363339343234D943
(1675526456.536306) vcan0 1E0#0024630300B917E0
(1675526456.536384) vcan0 2C3#5D8700FFFF0A5450
(1675526456.538913) vcan0 290#0000000000000000
(1675526456.538992) vcan0 072#F000FF3F0078A038
(1675526456.539068) vcan0 210#E2E080A0A869F145
(1675526456.540372) vcan0 288#CCDF30CF00000080
(1675526456.541889) vcan0 008#3D8694AC00800080
(1675526456.543408) vcan0 010#000000002FB031F8
(1675526456.543496) vcan0 2A9#8C26009BC0000084
(1675526456.544870) vcan0 0F5#97809C80BF5F8174
(1675526456.546393) vcan0 120#95809C807FFF5589
(1675526456.546468) vcan0 130#BFF21D9700ECFF11
(1675526456.546612) vcan0 150#9900F17777F7EAC0
(1675526456.547919) vcan0 055#B6F7FF67B3009C80
(1675526456.547994) vcan0 065#39E3F4E7FF8DF901
(1675526456.548068) vcan0 070#000048A800E25B00
(1675526456.548143) vcan0 075#0000000000005458
(1675526456.549587) vcan0 080#FF4F8000C2002C00
(1675526456.549662) vcan0 0B0#39837CA200C239A3
(1675526456.549804) vcan0 0E0#E2732CE800800F00
(1675526456.549879) vcan0 145#FDC2D380FCC810A1
(1675526456.549953) vcan0 28C#000020000016BE90
(1675526456.550026) vcan0 2B5#4B4D556293A64936
(1675526456.550168) vcan0 360#5D8700D2BB64A001
(1675526456.552375) vcan0 008#3D86A49C00800080
(1675526456.552450) vcan0 010#000000002FB031F9
(1675526456.552593) vcan0 072#F000FF3F00788038
(1675526456.553899) vcan0 1D0#0000000000000A61
(1675526456.553974) vcan0 390#80FF051D022A554F
(1675526456.554048) vcan0 125#E52C7AE4C1D0D734
(1675526456.555353) vcan0 260#D0FF00AA496285B0
(1675526456.555497) vcan0 1B0#00C0220000B032EC
(1675526456.555569) vcan0 1B5#FF39A0B3E5E0FFEF
(1675526456.555645) vcan0 1D8#363339343234D943
(1675526456.556864) vcan0 1E0#0028534300B917E0
(1675526456.560908) vcan0 008#3D86B48C00800080
(1675526456.562360) vcan0 010#000000002FB031F8
(1675526456.562509) vcan0 210#E2E08020A869F14D
(1675526456.563881) vcan0 291#0000000000000000
(1675526456.563959) vcan0 3D0#8A0F6100340680C3
(1675526456.565416) vcan0 288#CCDF30CF00000080
(1675526456.565495) vcan0 0F5#97809C80BF637174
(1675526456.565572) vcan0 120#95809D807FFF5589
(1675526456.565723) vcan0 130#C7F21D9700DCFF11
(1675526456.565799) vcan0 150#9900F18777F7DAC0
(1675526456.568075) vcan0 055#B6F7FF67B3009C80
(1675526456.570892) vcan0 065#39E3F5E7008EFA01
(1675526456.570969) vcan0 070#000048A800E25B00
(1675526456.571120) vcan0 072#F000FF3F0078A038
(1675526456.571199) vcan0 075#0000000000005458
(1675526456.571275) vcan0 080#FF4F8000C2002C00
(1675526456.571354) vcan0 0B0#39837CA200C239A3
(1675526456.571432) vcan0 0E0#E2732DF00080EE00
(1675526456.571581) vcan0 145#FDB2D480FCC810A1
(1675526456.571658) vcan0 290#0000000000000000
(1675526456.571736) vcan0 2C0#5D8700640300A0F1
(1675526456.571823) vcan0 2C5#00D71F0039E30070
(1675526456.572404) vcan0 008#3D86C47C00800080
(1675526456.573854) vcan0 010#000000002FB031F8
(1675526456.574003) vcan0 1D0#0000000000000061
(1675526456.574083) vcan0 400#0301010101010206
(1675526456.574159) vcan0 405#5D87003B002D3402
(1675526456.574237) vcan0 125#E52C7AE4C1D0D734
(1675526456.575396) vcan0 1B0#00C0230000B033EC
(1675526456.575474) vcan0 1B5#FF39A1B4E5E0FFEF
(1675526456.575551) vcan0 1D8#363339343234D943
(1675526456.576890) vcan0 1E0#002C434300B917E0
(1675526456.576964) vcan0 2C3#5D8700FFFF0A5450
(1675526456.580874) vcan0 008#3D86D46C00800080
(1675526456.583621) vcan0 010#000000002FB031F8
(1675526456.586507) vcan0 072#F000FF3F00788038
(1675526456.586585) vcan0 2A9#8C260082C0000084
(1675526456.586673) vcan0 260#D0FF00AA496285B0
(1675526456.586751) vcan0 0F5#98809C80BF676174
(1675526456.586828) vcan0 120#95809D807FFF5589
(1675526456.586907) vcan0 130#CFF21D9800CBFF11
(1675526456.587056) vcan0 150#9A00ED9777F7C9C0
(1675526456.589152) vcan0 055#B6F7FF67B3009C80
(1675526456.589230) vcan0 065#39E3F5E7008EFA01
(1675526456.589307) vcan0 070#000048A800E25B00
(1675526456.589457) vcan0 075#0000000000005458
(1675526456.589535) vcan0 080#FF4F8000C2002C00
(1675526456.589612) vcan0 0B0#39837CA200C239A3
(1675526456.590771) vcan0 0E0#E2732FF80080CC00
(1675526456.590848) vcan0 145#FDA2D580FCC810A1
(1675526456.590927) vcan0 210#E2E080A0A869F04D
(1675526456.591076) vcan0 28C#000020000016BE90
(1675526456.591154) vcan0 2B5#4B4D556293A64936
(1675526456.591240) vcan0 288#B8DF40BF00000080
(1675526456.591319) vcan0 340#4D00000000000000
(1675526456.591395) vcan0 008#3D86E45C00800080
(1675526456.593419) vcan0 010#000000002FB031F8
(1675526456.594722) vcan0 1D0#0000000000000061
(1675526456.594871) vcan0 291#0000000000000000
(1675526456.594949) vcan0 125#E52C7AE4C1D0D734
(1675526456.596252) vcan0 1B0#00C0230000B034EC
(1675526456.596327) vcan0 1B5#FF39A1B4E5E0FFEF
(1675526456.596471) vcan0 1D8#363339343234D943
(1675526456.596544) vcan0 1E0#002C430300B917E0
(1675526456.597784) vcan0 072#F000FF3F0078A038
(1675526456.597860) vcan0 3B0#00D83F3C3EB8C400
(1675526456.597933) vcan0 290#0000000000000000
(1675526456.600471) vcan0 350#A200000000000080
(1675526456.603150) vcan0 008#3D86F44C00800080
(1675526456.603240) vcan0 010#000000002FB031F8
(1675526456.603314) vcan0 330#2800000000000000
(1675526456.604621) vcan0 0F5#98809B80BF6B5174
(1675526456.606225) vcan0 120#95809D807FFE5589
(1675526456.606303) vcan0 130#D7F21D9800BBFF11
(1675526456.606380) vcan0 150#9900E9A777F7BAC0
(1675526456.606530) vcan0 3CA#00000000550000C8
(1675526456.607618) vcan0 055#B6F7FF67B3009C80
(1675526456.607768) vcan0 065#39E3F5E7008EFA01
(1675526456.607845) vcan0 070#000048A800E25B00
(1675526456.609145) vcan0 075#0000000000005458
(1675526456.609224) vcan0 080#FF4F8000C2002C00
(1675526456.609301) vcan0 0B0#39837CA200C239A3
(1675526456.609451) vcan0 0E0#E2732FC00080AC00
(1675526456.609529) vcan0 145#FD92D680FCC810A1
(1675526456.611839) vcan0 008#3D86043C00800080
(1675526456.613151) vcan0 010#000000002FB031F8
(1675526456.616184) vcan0 072#F000FF3F00788038
(1675526456.616257) vcan0 1D0#0000000000000061
(1675526456.616332) vcan0 210#E2E080A0A869F045
(1675526456.616477) vcan0 125#E52C7AE4C1D0D734
(1675526456.616550) vcan0 260#D0FF0055496485B0
(1675526456.616623) vcan0 288#BCDF40BF00000080
(1675526456.616698) vcan0 1B0#00C0230000B035EC
(1675526456.616841) vcan0 1B5#FF3AA2B4E5E0FFEF
(1675526456.616914) vcan0 1D8#363339343234D943
(1675526456.616989) vcan0 1E0#0030334300B917E0
(1675526456.617062) vcan0 2C3#5D8700FFFF0A5450
(1675526456.621310) vcan0 008#3D86142C00800080
(1675526456.622616) vcan0 010#000000002FB031F8
(1675526456.624129) vcan0 291#0000000000000000
(1675526456.624272) vcan0 2A9#8C26009BC0000084
(1675526456.625655) vcan0 0F5#98809B80BF6F4174
(1675526456.625729) vcan0 120#95809E807FFF5589
(1675526456.625871) vcan0 130#DFF21D9800ABFF11
(1675526456.625944) vcan0 150#9900EAB777F7AAC0
(1675526456.627153) vcan0 055#B6F7FF67B3009C80
(1675526456.630187) vcan0 065#3AE3F5E7018EFA01
(1675526456.630266) vcan0 070#000048A800E25B00
(1675526456.630343) vcan0 072#F000FF3F0078A038
(1675526456.630422) vcan0 075#0000000000005458
(1675526456.630498) vcan0 080#FF4F8000C2002C00
(1675526456.630648) vcan0 0B0#39837CA200C239A3
(1675526456.630725) vcan0 0E0#E27331C800808A00
(1675526456.630804) vcan0 145#FD82D780FCC810A1
(1675526456.630880) vcan0 28C#000020000016BE90
(1675526456.630958) vcan0 290#0000000000000000
(1675526456.631108) vcan0 2B5#4B4D556293A64936
(1675526456.631194) vcan0 2C0#5D8700630300A0F1
(1675526456.631273) vcan0 2C5#00D71F0039E30070
(1675526456.631638) vcan0 370#0724C0005A1BC735
(1675526456.631788) vcan0 3AF#0000000000000020
(1675526456.631866) vcan0 008#3D86241C00800080
(1675526456.631945) vcan0 3E0#000000D937808090
(1675526456.633173) vcan0 010#000000002FB031F9
(1675526456.633249) vcan0 1D0#0000000000000A61
(1675526456.634626) vcan0 125#E52C7AE4C1D0D734
(1675526456.634775) vcan0 3C8#5D87008E882C008E
(1675526456.636150) vcan0 1B0#00C0240000B035EC
(1675526456.636225) vcan0 1B5#FF3AA2B4E5E0FFEF
(1675526456.636368) vcan0 1D8#363339343234D943
(1675526456.636441) vcan0 1E0#0034234300B917E0
(1675526456.637613) vcan0 210#E2E080A0A869F04D
(1675526456.640287) vcan0 288#BCDF40BF00000080
(1675526456.641670) vcan0 008#3D86340C00800080
(1675526456.643115) vcan0 010#000000002FB031F8
(1675526456.643257) vcan0 072#F000FF3F00788038
(1675526456.644632) vcan0 260#D0FF0055496085B0
(1675526456.646150) vcan0 0F5#97809D80BF733174
(1675526456.646302) vcan0 120#95809E807FFE5589
(1675526456.646380) vcan0 130#E7F21D98009BFF11
(1675526456.646457) vcan0 150#9900EDC777F79AC0
(1675526456.647617) vcan0 055#B6F7FF67B3009C80
(1675526456.647768) vcan0 065#3AE3F4E7008EF901
(1675526456.647845) vcan0 070#000048A800E25B00
(1675526456.649221) vcan0 075#0000000000005458
(1675526456.649371) vcan0 080#FF4F8000C2002C00
(1675526456.649449) vcan0 0B0#39837DA200C239A3
(1675526456.649528) vcan0 0E0#E27331D000806A00
(1675526456.649604) vcan0 145#FD72D880FCC810A1
(1675526456.649691) vcan0 360#5D8700D2BB64A001
(1675526456.650778) vcan0 008#3D8644FC00800080
(1675526456.653668) vcan0 010#000000002FB031F8
(1675526456.653746) vcan0 1D0#0000000000000061
(1675526456.653824) vcan0 291#0000000000000000
(1675526456.653903) vcan0 390#80FF051D0226566F
(1675526456.654052) vcan0 125#E52C7AE4C1D0D734
(1675526456.655139) vcan0 1B0#00C0260000B036EC
(1675526456.655288) vcan0 1B5#FF3BA2B4E6E0FFEF
(1675526456.656642) vcan0 1D8#363339343234D943
(1675526456.656786) vcan0 1E0#0034230300B917E0
(1675526456.656859) vcan0 2C3#5D8700FFFF0A5450
(1675526456.658168) vcan0 290#0000000000000000
(1675526456.658242) vcan0 072#F000FF3F0078A038
(1675526456.660849) vcan0 008#3D8654EC00800080
(1675526456.662364) vcan0 010#000000002FB031F8
(1675526456.663883) vcan0 210#E2E080A0A869F045
(1675526456.664027) vcan0 2A9#8C260082C0000084
(1675526456.665404) vcan0 288#CCDF40BF00000080
(1675526456.665479) vcan0 0F5#97809D80BF772174
(1675526456.665553) vcan0 120#9680A0807FFE5589
(1675526456.665696) vcan0 130#EFF21D98008BFF11
(1675526456.666869) vcan0 150#9A00EDD777F789C0
(1675526456.669903) vcan0 055#B6F7FF67B3009C80
(1675526456.669981) vcan0 065#3BE3F4E7008EF901
(1675526456.670131) vcan0 070#000048A800E25B00
(1675526456.670210) vcan0 075#0000000000005458
(1675526456.670286) vcan0 080#FE4F8000C2002C00
(1675526456.670365) vcan0 0B0#39837DA200C239A3
(1675526456.670442) vcan0 0E0#E27331D800804A00
(1675526456.670518) vcan0 145#FD62D980FCC810A1
(1675526456.670670) vcan0 28C#000020000016BE90
(1675526456.670755) vcan0 2B5#4B4D556293A64935
(1675526456.670832) vcan0 340#4D00000000000000
(1675526456.671415) vcan0 008#3D8664DC00800080
(1675526456.672864) vcan0 010#000000002FB031F8
(1675526456.673014) vcan0 072#F000FF3F00788038
(1675526456.674388) vcan0 1D0#0000000000000061
(1675526456.674465) vcan0 125#E52C7AE4C1D0D734
(1675526456.675913) vcan0 260#D0FF0055496285B0
(1675526456.675991) vcan0 1B0#00C0260000B037EC
(1675526456.676068) vcan0 1B5#FF3BA3B4E6E0FFEF
(1675526456.676147) vcan0 1D8#363339343234D943
(1675526456.676291) vcan0 1E0#0038134300B917E0
(1675526456.681090) vcan0 008#3D8674CC00800080
(1675526456.683629) vcan0 010#000000002FB031F8
(1675526456.685138) vcan0 291#0000000000000000
(1675526456.685213) vcan0 330#2800000000000000
(1675526456.685295) vcan0 0F5#98809D80BF7B1174
(1675526456.685439) vcan0 120#9680A0807FFD5589
(1675526456.685512) vcan0 130#F7F21D98007BFF11
(1675526456.686656) vcan0 150#9A00F1E777F779C0
(1675526456.688106) vcan0 055#B6F7FF67B3009C80
(1675526456.688256) vcan0 065#39E3F4E7FF8DF901
(1675526456.688335) vcan0 070#000048A800E25B00
(1675526456.688413) vcan0 072#F000FF3F0078A038
(1675526456.688490) vcan0 075#0000000000005458
(1675526456.691164) vcan0 080#FF4F8000C2002C00
(1675526456.691242) vcan0 0B0#39837DA200C239A3
(1675526456.691319) vcan0 0E0#E27331E000802A00
(1675526456.691470) vcan0 145#FD52DA80FCC810A1
(1675526456.691546) vcan0 210#E2E080A0A869F045
(1675526456.691625) vcan0 290#0000000000000000
(1675526456.691701) vcan0 288#C8DF50AF00000080
(1675526456.691787) vcan0 2C0#5D8700610300A0F1
(1675526456.691865) vcan0 2C5#00D71F003AE30070
(1675526456.692016) vcan0 350#A200000000000080
(1675526456.692094) vcan0 008#3D8684BC00800080
(1675526456.693829) vcan0 010#000000002FB031F8
(1675526456.695132) vcan0 1D0#0000000000000061
(1675526456.695210) vcan0 125#E52C7AE4C1D0D734
(1675526456.696635) vcan0 1B0#00C0270000B038EC
(1675526456.696708) vcan0 1B5#FF3BA3B5E6E0FFEF
(1675526456.696852) vcan0 1D8#363339343234D943
(1675526456.696926) vcan0 1E0#003C034300B917E0
(1675526456.696999) vcan0 2C3#5D8700FFFF0A5450
(1675526456.701799) vcan0 008#3D8694AC00800080
(1675526456.703105) vcan0 010#000000002FB031F8
(1675526456.704617) vcan0 072#F000FF3F00788038
(1675526456.704760) vcan0 2A9#8C26008AC0000084
(1675526456.704843) vcan0 260#D0FF00AA495E85B0
(1675526456.706146) vcan0 0F5#98809E80BF7F0174
(1675526456.706224) vcan0 120#9780A0807FFF5589
(1675526456.706302) vcan0 130#FFF21D98006BFF11
(1675526456.706380) vcan0 150#9B00EEF777F768C0
(1675526456.707612) vcan0 055#B6F7FF67B3009C80
(1675526456.707763) vcan0 065#39E3F4E7008EF901
(1675526456.707840) vcan0 070#000048A800E25B00
(1675526456.709289) vcan0 075#0000000000005458
(1675526456.709366) vcan0 080#FF4F8000C2002C00
(1675526456.709444) vcan0 0B0#39837CA200C239A3
(1675526456.709520) vcan0 0E0#E27330E800800B00
(1675526456.709671) vcan0 145#FD42DB80FCC810A1
(1675526456.709749) vcan0 28C#000020000016BE90
(1675526456.709826) vcan0 2B5#4B4D556293A64936
(1675526456.710771) vcan0 008#3D86A49C00800080
(1675526456.712227) vcan0 010#000000002FB031F9
(1675526456.715186) vcan0 1D0#0000000000000A61
(1675526456.715265) vcan0 210#E2E08020A869F04D
(1675526456.715342) vcan0 291#0000000000000000
(1675526456.715419) vcan0 125#E52C7AE4C1D0D734
(1675526456.715498) vcan0 288#C8DF50AF00000080
(1675526456.715649) vcan0 1B0#00C0270000B039EC
(1675526456.715725) vcan0 1B5#FF3CA4B5E6E0FFEF
(1675526456.716666) vcan0 1D8#363339343234D943
(1675526456.716744) vcan0 1E0#003C030300B917E0
(1675526456.718119) vcan0 072#F000FF3F0078A038
(1675526456.718269) vcan0 290#0000000000000000
(1675526456.718348) vcan0 3B0#00D83F383EB8C400
(1675526456.720879) vcan0 008#3D86B48C00800080
(1675526456.722400) vcan0 010#000000002FB031F8
(1675526456.725075) vcan0 0F5#98809E80BF43F174
(1675526456.726411) vcan0 120#9780A1807FFF5589
(1675526456.726484) vcan0 130#87F21D98005BFF11
(1675526456.729440) vcan0 150#9B00EE0777F758C0
(1675526456.729514) vcan0 3CA#00000000560000C8
(1675526456.729590) vcan0 055#B6F7FF67B3009C80
(1675526456.729663) vcan0 065#39E3F4E7008EFA01
(1675526456.729806) vcan0 070#000048A800E25B00
(1675526456.729878) vcan0 075#0000000000005458
(1675526456.729953) vcan0 080#FF4F8000C2002C00
(1675526456.730027) vcan0 0B0#39837DA200C239A3
(1675526456.730171) vcan0 0E0#E2732FF00080EC00
(1675526456.730245) vcan0 145#FD32DC80FCC810A1
(1675526456.730318) vcan0 370#0724C0005A1BC735
(1675526456.730873) vcan0 008#3D86C47C00800080
(1675526456.732385) vcan0 010#000000002FB031F8
(1675526456.732459) vcan0 072#F000FF3F00788038
(1675526456.733844) vcan0 1D0#0000000000000061
(1675526456.733987) vcan0 125#E52C7AE4C1D0D734
(1675526456.735362) vcan0 260#D0FF00AA495E85B0
(1675526456.735505) vcan0 1B0#00C0280000B03AEC
(1675526456.735579) vcan0 1B5#FF3CA4B5E6E0FFEF
(1675526456.735653) vcan0 1D8#363339343234D943
(1675526456.736865) vcan0 1E0#0000F34300B917E0
(1675526456.737015) vcan0 2C3#5D8700FFFF0A5450
(1675526456.738390) vcan0 210#E2E080A0A869F045
(1675526456.739910) vcan0 288#C4DF50AF00000080
(1675526456.741358) vcan0 008#3D86D46C00800080
(1675526456.742877) vcan0 010#000000002FB031F8
(1675526456.742956) vcan0 291#0000000000000000
(1675526456.743105) vcan0 2A9#8C260093C0000084
(1675526456.745559) vcan0 0F5#98809F80BF47E174
(1675526456.746896) vcan0 120#9780A1807FFF5589
(1675526456.746992) vcan0 130#8FF21D98004BFF11
(1675526456.747067) vcan0 150#9B00EE1777F748C0
(1675526456.749880) vcan0 055#B6F7FF67B3009C80
(1675526456.750021) vcan0 065#39E3F5E7008EFA01
(1675526456.750094) vcan0 070#000048A800E25B00
(1675526456.750169) vcan0 072#F000FF3F0078A038
(1675526456.750243) vcan0 075#0000000000005458
(1675526456.750388) vcan0 080#FF4F8000C2002C00
(1675526456.750461) vcan0 0B0#39837CA200C239A3
(1675526456.750535) vcan0 0E0#E2732DF80080CE00
(1675526456.750609) vcan0 145#FD22DD80FCC810A1
(1675526456.750751) vcan0 28C#000020000016BE90
(1675526456.750826) vcan0 290#0000000000000000
(1675526456.750901) vcan0 2B5#4B4D556293A64936
(1675526456.751524) vcan0 2C0#5D8700610300A0F1
(1675526456.751598) vcan0 2C5#00D71F003AE30070
(1675526456.751755) vcan0 340#4D00000000000000
(1675526456.751828) vcan0 360#5D8700D2BB64A001
(1675526456.751901) vcan0 008#3D86E45C00800080
(1675526456.751975) vcan0 3AF#0000000000000020
(1675526456.754378) vcan0 010#000000002FB031F8
(1675526456.754521) vcan0 1D0#0000000000000061
(1675526456.754594) vcan0 390#80FF051D0222574F
(1675526456.754669) vcan0 125#E52C7AE4C1D0D734
(1675526456.755908) vcan0 3C8#5D87008E882C008E
(1675526456.755982) vcan0 1B0#00C0280000B03BEC
(1675526456.756056) vcan0 1B5#FF3DA5B5E7E0FFEF
(1675526456.756166) vcan0 1D8#363339343234DA43
(1675526456.756246) vcan0 1E0#0004E34300B917E0
(1675526456.761081) vcan0 008#3D86F44C00800080
(1675526456.762384) vcan0 010#000000002FB031F8
(1675526456.763903) vcan0 072#F000FF3F00788038
(1675526456.763992) vcan0 210#E2E080A0A869F04D
(1675526456.764069) vcan0 330#2800000000000000
(1675526456.764148) vcan0 3D0#8A0F6100340680C3
(1675526456.765380) vcan0 260#D0FF00AA495E85B0
(1675526456.765458) vcan0 0F5#98809F80BF4BD174
(1675526456.765607) vcan0 120#9880A2807FFF5589
(1675526456.765686) vcan0 130#97F21D98003BFF11
(1675526456.765763) vcan0 150#9B00ED2777F738C0
(1675526456.766887) vcan0 288#B8DF50AF00000080
(1675526456.769907) vcan0 055#B7F7FF67B3009C80
(1675526456.769980) vcan0 065#3AE3F5E7008EFA01
(1675526456.770123) vcan0 070#000047A800E25B00
(1675526456.770196) vcan0 075#0000000000005458
(1675526456.770271) vcan0 080#FF4F8000C2002C00
(1675526456.770346) vcan0 0B0#39837CA200C239A3
(1675526456.770489) vcan0 0E0#E2732DC00080AE00
(1675526456.770571) vcan0 145#FD12DE80FCC810A1
(1675526456.771398) vcan0 008#3D86043C00800080
(1675526456.772912) vcan0 010#000000002FB031F8
(1675526456.772986) vcan0 1D0#0000000000000061
(1675526456.773060) vcan0 291#0000000000000000
(1675526456.774367) vcan0 125#E52C7AE4C1D0D734
(1675526456.775878) vcan0 1B0#00C0280000B03BEC
(1675526456.775951) vcan0 1B5#FF3DA5B5E7E0FFEF
(1675526456.776094) vcan0 1D8#363339343234DA43
(1675526456.776147) vcan0 1E0#0004E30300B917E0
(1675526456.776299) vcan0 2C3#5D8700FFFF0A5450
(1675526456.777386) vcan0 290#0000000000000000
(1675526456.778906) vcan0 072#F000FF3F0078A038
(1675526456.780352) vcan0 350#A200000000000080
(1675526456.781941) vcan0 008#3D86142C00800080
(1675526456.784539) vcan0 010#000000002FB031F8
(1675526456.785851) vcan0 2A9#8C26008AC0000084
(1675526456.786001) vcan0 0F5#98809F80BF4FC174
(1675526456.787387) vcan0 120#9880A2807FFF5589
(1675526456.787461) vcan0 130#9FF21D98002BFF11
(1675526456.787604) vcan0 150#9B00E93777F728C0
(1675526456.787678) vcan0 055#B7F7FF67B3009C80
(1675526456.787753) vcan0 065#3AE3F5E7008EFA01
(1675526456.790426) vcan0 070#000047A800E25B00
(1675526456.790500) vcan0 075#0000000000005458
(1675526456.790575) vcan0 080#FF4F8000C2002C00
(1675526456.790719) vcan0 0B0#39837DA200C239A3
(1675526456.790791) vcan0 0E0#E2732EC800808D00
(1675526456.790867) vcan0 145#FD02DF80FCC810A1
(1675526456.790941) vcan0 210#E2E080A0A869F04D
(1675526456.791083) vcan0 28C#000020000016BE90
(1675526456.791156) vcan0 2B5#4B4E556293A64936
(1675526456.791239) vcan0 288#B8DF609F00000080
(1675526456.791862) vcan0 008#3D86241C00800080
(1675526456.793374) vcan0 010#000000002FB031F9
(1675526456.793516) vcan0 072#F000FF3F00788038
(1675526456.793589) vcan0 1D0#0000000000000A61
(1675526456.794896) vcan0 125#E52C7AE4C1D0D734
(1675526456.794970) vcan0 260#D0FF00AA495D85B0
(1675526456.795112) vcan0 1B0#00C0280000B03CEC
(1675526456.796370) vcan0 1B5#FF3DA5B6E7E0FFEF
(1675526456.796519) vcan0 1D8#363339343234DA43
(1675526456.796598) vcan0 1E0#0008D34300B917E0
(1675526456.801578) vcan0 008#3D86340C00800080
(1675526456.802879) vcan0 010#000000002FB031F8
(1675526456.804396) vcan0 291#0000000000000000
(1675526456.805843) vcan0 0F5#9880A180BF53B174
(1675526456.805995) vcan0 120#9880A2807FFF5589
(1675526456.806081) vcan0 130#A7F21D98001BFF11
(1675526456.806160) vcan0 150#9D00E94777F716C0
(1675526456.807400) vcan0 055#B7F7FF67B3009C80
(1675526456.807474) vcan0 065#3AE3F4E7008EFA01
(1675526456.810357) vcan0 070#000047A800E25B00
(1675526456.810499) vcan0 072#F000FF3F0078A038
(1675526456.810572) vcan0 075#0000000000005458
(1675526456.810646) vcan0 080#FF4F8000C2002C00
(1675526456.810721) vcan0 0B0#39837DA200C239A3
(1675526456.810865) vcan0 0E0#E27330D000806B00
(1675526456.810940) vcan0 145#FDF2D080FCC810A1
(1675526456.811013) vcan0 290#0000000000000000
(1675526456.811087) vcan0 2C0#5D8700640300A0F1
(1675526456.811160) vcan0 2C5#00D71F003AE30070
(1675526456.811921) vcan0 008#3D8644FC00800080
(1675526456.813365) vcan0 010#000000002FB031F8
(1675526456.813525) vcan0 1D0#0000000000000061
(1675526456.813600) vcan0 210#E0E080A0A869F045
(1675526456.813673) vcan0 125#E52C7AE4C1D0D734
(1675526456.814912) vcan0 288#BCDF609F00000080
(1675526456.814985) vcan0 1B0#00C0280000B03CEC
(1675526456.816362) vcan0 1B5#FF3EA6B6E7E0FFEF
(1675526456.816513) vcan0 1D8#363339343234DA43
(1675526456.816591) vcan0 1E0#000CC34300B917E0
(1675526456.816669) vcan0 2C3#5D8700FFFF0A5450
(1675526456.821575) vcan0 008#3D8654EC00800080
(1675526456.822879) vcan0 010#000000002FB031F8
(1675526456.824396) vcan0 072#F000FF3F00788038
(1675526456.824474) vcan0 2A9#8C260093C0000084
(1675526456.824551) vcan0 400#0101030705010207
(1675526456.824701) vcan0 405#0000000000000000
(1675526456.825860) vcan0 260#D0FF0055495A85B0
(1675526456.826020) vcan0 0F5#9880A180BF57A174
(1675526456.826096) vcan0 120#9880A2807FFF5589
(1675526456.826192) vcan0 130#AFEF1D98000BFF11
(1675526456.826266) vcan0 150#9D00EA5777F706C0
(1675526456.827368) vcan0 055#B7F7FF67B3009C80
(1675526456.827510) vcan0 065#3AE3F4E7008EF901
(1675526456.830392) vcan0 070#000047A800E25B00
(1675526456.830533) vcan0 075#0000000000005458
(1675526456.830607) vcan0 080#FF4F8000C2002C00
(1675526456.830681) vcan0 0B0#39837DA200C239A3
(1675526456.830755) vcan0 0E0#E27330D800804B00
(1675526456.830899) vcan0 145#FDE2D180FCC810A1
(1675526456.830973) vcan0 28C#000020000016BE90
(1675526456.831046) vcan0 2B5#4B4E556293A64935
(1675526456.831120) vcan0 340#4D00000000000000
(1675526456.831262) vcan0 370#0724C0005A1BC735
(1675526456.831893) vcan0 008#3D8664DC00800080
(1675526456.833407) vcan0 010#000000002FB031F8
(1675526456.833480) vcan0 1D0#0000000000000061
(1675526456.833555) vcan0 291#0000000000000000
(1675526456.833698) vcan0 125#E52C7AE4C1D0D734
(1675526456.834870) vcan0 1B0#00C0290000B03CEC
(1675526456.836408) vcan0 1B5#FF3EA6B6E7E0FFEF
(1675526456.836487) vcan0 1D8#363339343234DA43
(1675526456.836566) vcan0 1E0#000CC30300B917E0
(1675526456.837868) vcan0 290#0000000000000000
(1675526456.838018) vcan0 072#F000FF3F0078A038
(1675526456.838094) vcan0 210#E0E080A0A869F04D
(1675526456.838173) vcan0 3B0#00D83F383EB8C400
(1675526456.840555) vcan0 288#B4DF609F00000080
(1675526456.841930) vcan0 008#3D8674CC00800080
(1675526456.843374) vcan0 010#000000002FB031F8
(1675526456.843461) vcan0 330#2800000000000000
(1675526456.844908) vcan0 0F5#9880A480BF5B9174
(1675526456.846348) vcan0 120#9880A2807FFE5589
(1675526456.846490) vcan0 130#B7F21D9800FBFF11
(1675526456.846565) vcan0 150#9D00EE6777F7F6C0
(1675526456.846639) vcan0 3CA#00000000400000C8
(1675526456.847878) vcan0 055#B7F7FF67B3009C80
(1675526456.847951) vcan0 065#39E3F4E7008EF901
(1675526456.848094) vcan0 070#000047A800E25B00
(1675526456.848168) vcan0 075#0000000000005458
(1675526456.849409) vcan0 080#FF4F8000C2002C00
(1675526456.849484) vcan0 0B0#39837DA200C239A3
(1675526456.849557) vcan0 0E0#E2732FE000802C00
(1675526456.849700) vcan0 145#FDD2D280FCC810A1
(1675526456.849775) vcan0 360#5D8700D2BB64A001
(1675526456.850878) vcan0 008#3D8684BC00800080
(1675526456.852401) vcan0 010#000000002FB031F8
(1675526456.853845) vcan0 072#F000FF3F00788038
(1675526456.853988) vcan0 1D0#0000000000000061
(1675526456.854061) vcan0 390#80FF051D021E584F
(1675526456.854135) vcan0 125#E5297AE4C1D0D734
(1675526456.855373) vcan0 260#D0FF0055495C85B0
(1675526456.855448) vcan0 1B0#00C0290000B03DEC
(1675526456.855591) vcan0 1B5#FF3EA7B6E8E0FFEF
(1675526456.855664) vcan0 1D8#363339343234DA43
(1675526456.856867) vcan0 1E0#0010B34300B917E0
(1675526456.857018) vcan0 2C3#5D8700FFFF0A5450
(1675526456.860915) vcan0 008#3D8694AC00800080
(1675526456.862364) vcan0 010#000000002FB031F8
(1675526456.862440) vcan0 210#E0E08020A869F045
(1675526456.863887) vcan0 291#0000000000000000
(1675526456.864036) vcan0 2A9#8C26008AC0000084
(1675526456.865420) vcan0 288#B8DF609F00000080
(1675526456.865498) vcan0 0F5#9880A480BF5F8174
(1675526456.865577) vcan0 120#9980A1807FFE5589
(1675526456.865654) vcan0 130#BFEF1D9800EBFF11
(1675526456.866921) vcan0 150#9E00E67777F7E5C0
(1675526456.869944) vcan0 055#B7F7FF67B3009C80
(1675526456.870017) vcan0 065#3AE3F4E7008EF901
(1675526456.870092) vcan0 070#000047A800E25B00
(1675526456.870165) vcan0 072#F000FF3F0078A038
(1675526456.870308) vcan0 075#0000000000005458
(1675526456.870383) vcan0 080#FF4F8000C2002C00
(1675526456.870457) vcan0 0B0#39837DA200C239A3
(1675526456.870530) vcan0 0E0#E2732DE800800E00
(1675526456.870674) vcan0 145#FDC2D380FCC810A1
(1675526456.870749) vcan0 28C#000020000016BE90
(1675526456.870824) vcan0 290#0000000000000000
(1675526456.870906) vcan0 2B5#4B4E556293A64936
(1675526456.871390) vcan0 2C0#5D8700630300A0F1
(1675526456.871533) vcan0 2C5#00D71F003AE30070
(1675526456.871607) vcan0 350#A200000000000080
(1675526456.871681) vcan0 3AF#0000000000000020
(1675526456.871754) vcan0 008#3D86A49C00800080
(1675526456.872925) vcan0 010#000000002FB031F9
(1675526456.872998) vcan0 1D0#0000000000000A61
(1675526456.874376) vcan0 125#E5297AE4C1D0D734
(1675526456.875890) vcan0 3C8#5D87008E882C008E
(1675526456.875965) vcan0 1B0#00C0280000B03DEC
(1675526456.876038) vcan0 1B5#FF3FA7B6E8E0FFEF
(1675526456.876146) vcan0 1D8#363339343234DA43
(1675526456.876227) vcan0 1E0#0014A34300B917E0
(1675526456.881061) vcan0 008#3D86B48C00800080
(1675526456.883519) vcan0 010#000000002FB031F8
(1675526456.884914) vcan0 072#F000FF3F00788038
(1675526456.886424) vcan0 260#D0FF0055495885B0
(1675526456.886499) vcan0 0F5#9980A780BF637174
(1675526456.886572) vcan0 120#9980A1807FFE5589
(1675526456.886717) vcan0 130#C7F21D9900DAFF11
(1675526456.886791) vcan0 150#9E00EC8777F7D5C0
(1675526456.887892) vcan0 055#B7F7FF67B3009C80
(1675526456.888035) vcan0 065#3AE3F4E7008EF901
(1675526456.888110) vcan0 070#000047A800E25B00
(1675526456.888182) vcan0 075#0000000000005458
(1675526456.889422) vcan0 080#FF4F8000C2002C00
(1675526456.889497) vcan0 0B0#39837DA200C239A3
(1675526456.889571) vcan0 0E0#E2732BF00080F000
(1675526456.889714) vcan0 145#FDB2D480FCC810A1
(1675526456.889789) vcan0 210#E0E080A0A869F045
(1675526456.890891) vcan0 288#B4DF708F00000080
(1675526456.890974) vcan0 008#3D86C47C00800080
(1675526456.892349) vcan0 010#000000002FB031F8
(1675526456.893863) vcan0 1D0#0000000000000061
(1675526456.894004) vcan0 291#0000000000000000
(1675526456.894078) vcan0 125#E5267AE4C1D0D734
(1675526456.895385) vcan0 1B0#00C0290000B03DEC
(1675526456.895459) vcan0 1B5#FF3FA7B7E8E0FFEF
(1675526456.895603) vcan0 1D8#363339343234DA43
(1675526456.896873) vcan0 1E0#0014A30300B917E0
(1675526456.896952) vcan0 2C3#5D8700FFFF0A5450
(1675526456.898329) vcan0 290#0000000000000000
(1675526456.898480) vcan0 072#F000FF3F0078A038
(1675526456.901080) vcan0 008#3D86D46C00800080
(1675526456.902383) vcan0 010#000000002FB031F8
(1675526456.903905) vcan0 2A9#8C260082C0000084
(1675526456.905351) vcan0 0F5#9980A780BF676174
(1675526456.905510) vcan0 120#9980A1807FFF5589
(1675526456.905588) vcan0 130#CFF21D9900CAFF11
(1675526456.905667) vcan0 150#A000E89777F7C3C0
(1675526456.908047) vcan0 055#B7F7FF67B3009C80
(1675526456.909424) vcan0 065#3AE3F4E7008EF901
(1675526456.909499) vcan0 070#000047A800E25B00
(1675526456.909573) vcan0 075#0000000000005458
(1675526456.909716) vcan0 080#FF4F8000C2002C00
(1675526456.909790) vcan0 0B0#39837DA200C239A3
(1675526456.911031) vcan0 0E0#E27329F80080D200
(1675526456.911106) vcan0 145#FDA2D580FCC810A1
(1675526456.911180) vcan0 28C#000020000016BE90
(1675526456.911322) vcan0 2B5#4B4E556293A64935
(1675526456.911395) vcan0 340#4D00000000000000
(1675526456.911469) vcan0 008#3D86E45C00800080
(1675526456.913875) vcan0 010#000000002FB031F8
(1675526456.914026) vcan0 072#F000FF3F00788038
(1675526456.914099) vcan0 1D0#0000000000000061
(1675526456.914174) vcan0 210#E0E080A0A869F04D
(1675526456.914248) vcan0 125#E5267AE4C1D0D734
(1675526456.915351) vcan0 260#D0FF00AA495685B0
(1675526456.915492) vcan0 1B0#00C0290000B03DEC
(1675526456.915567) vcan0 1B5#FF40A8B7E8E0FFEF
(1675526456.915641) vcan0 1D8#363339343234D943
(1675526456.916869) vcan0 1E0#0018934300B917E0
(1675526456.917020) vcan0 288#B0DF708F00000080
(1675526456.920846) vcan0 008#3D86F44C00800080
(1675526456.922367) vcan0 010#000000002FB031F8
(1675526456.923886) vcan0 291#0000000000000000
(1675526456.924036) vcan0 330#2800000000000000
(1675526456.924114) vcan0 425#0000000000000000
(1675526456.925418) vcan0 0F5#9980A780BF6B5175
(1675526456.925505) vcan0 120#9C80A1807FFF5589
(1675526456.925583) vcan0 130#D7F21D9C00B70112
(1675526456.925661) vcan0 150#A000E6A777F7B3C0
(1675526456.928036) vcan0 072#F000FF3F0078A038
(1675526456.929550) vcan0 055#B7F7FF67B3009C80
(1675526456.929624) vcan0 065#3AE3F4E7008EF901
(1675526456.929698) vcan0 070#000047A800E25B00
(1675526456.929842) vcan0 075#0000000000005458
(1675526456.929917) vcan0 080#FF4F8000C2002C00
(1675526456.929989) vcan0 0B0#39837DA200C239A3
(1675526456.930063) vcan0 0E0#E27327C00080B400
(1675526456.932400) vcan0 145#FD92D680FCC810A1
(1675526456.932475) vcan0 290#0000000000000000
(1675526456.932616) vcan0 2C0#5D8700640300A0F1
(1675526456.932691) vcan0 2C5#00D71F003AE30070
(1675526456.932764) vcan0 370#0724C0005A1BC735
(1675526456.932848) vcan0 3E0#000000D937808090
(1675526456.932922) vcan0 008#3D86043C00800080
(1675526456.933065) vcan0 010#000000002FB031F8
(1675526456.933138) vcan0 1D0#0000000000000061
(1675526456.933898) vcan0 125#E5237AE4C1D0D734
(1675526456.935409) vcan0 1B0#00C0290000B03DEC
(1675526456.935484) vcan0 1B5#FF40A8B7E9E0FFEF
(1675526456.935558) vcan0 1D8#363339343234DA43
(1675526456.936869) vcan0 1E0#001C834300B917E0
(1675526456.937018) vcan0 2C3#5D8700FFFF0A5450
(1675526456.938396) vcan0 210#E0E080A0A869F045
(1675526456.939917) vcan0 288#BCDF708F00000080
(1675526456.941364) vcan0 008#3D86142C00800080
(1675526456.942885) vcan0 010#000000002FB031F8
(1675526456.942963) vcan0 072#F000FF3F00788038
(1675526456.943042) vcan0 2A9#8C26009BC0000084
(1675526456.945506) vcan0 260#D0FF00AA495485B0
(1675526456.946919) vcan0 0F5#9C80AC80BF6F4175
(1675526456.946993) vcan0 120#9C80A1807FFF5589
(1675526456.947067) vcan0 130#DFF21D9C00A70112
(1675526456.947210) vcan0 150#A300E8B777F7A0C0
(1675526456.949887) vcan0 055#B7F7FF67B3009C80
(1675526456.949962) vcan0 065#39E3F4E7008EF901
(1675526456.950104) vcan0 070#000047A800E25B00
(1675526456.950177) vcan0 075#0000000000005458
(1675526456.950252) vcan0 080#FF4F8000C2002C00
(1675526456.950327) vcan0 0B0#39837DA200C239A3
(1675526456.950470) vcan0 0E0#E27326C800809500
(1675526456.950544) vcan0 145#FD82D780FCC810A1
(1675526456.950617) vcan0 28C#000020000016BE90
(1675526456.950691) vcan0 2B5#4B4E556293A64935
(1675526456.950832) vcan0 360#5D8700D2BB64A001
(1675526456.951396) vcan0 008#3F862C9A00800080
(1675526456.952907) vcan0 010#000000002FB031F9
(1675526456.952981) vcan0 1D0#0000000000000A61
(1675526456.953056) vcan0 291#0000000000000000
(1675526456.953196) vcan0 390#80FF051D021A594F
(1675526456.954367) vcan0 125#E5237AE4C1D0D734
(1675526456.955878) vcan0 1B0#00C0290000B03DEC
(1675526456.955952) vcan0 1B5#FF40A9B7E9E0FFEF
(1675526456.956095) vcan0 1D8#363339343234DA43
(1675526456.956145) vcan0 1E0#001C830300B917E0
(1675526456.957380) vcan0 290#0000000000000000
(1675526456.957457) vcan0 072#F000FF3F0078A038
(1675526456.958908) vcan0 3B0#00D83F383EB8C400
(1675526456.960426) vcan0 350#A200000000000080
(1675526456.961874) vcan0 008#3F863C8A00800080
(1675526456.963395) vcan0 010#000000002FB031F8
(1675526456.963484) vcan0 210#E0E080A0A869F04D
(1675526456.963561) vcan0 3D0#8A0F6100340680C3
(1675526456.964865) vcan0 288#B8DF708F00000080
(1675526456.964943) vcan0 0F5#9C80AC80BF733175
(1675526456.966403) vcan0 120#9F80A1807FFF5589
(1675526456.966477) vcan0 130#E7F21D9C00970112
(1675526456.966551) vcan0 150#A300ECC777F790C0
(1675526456.966694) vcan0 3CA#00000000510000C8
(1675526456.967865) vcan0 055#B7F7FF67B3009C80
(1675526456.968008) vcan0 065#38E3F4E7008EFA01
(1675526456.968082) vcan0 070#000047A800E25B00
(1675526456.968156) vcan0 075#0000000000005458
(1675526456.969395) vcan0 080#FF4F8000C2002C00
(1675526456.969470) vcan0 0B0#39837DA200C239A3
(1675526456.969613) vcan0 0E0#E27327D000807400
(1675526456.969685) vcan0 145#FD72D880FCC810A1
(1675526456.969769) vcan0 430#28082800000015A6
(1675526456.970870) vcan0 008#41864C6315800080
(1675526456.972382) vcan0 010#000000002FB031F8
(1675526456.973895) vcan0 072#F000FF3F00788038
(1675526456.973969) vcan0 1D0#0000000000000061
(1675526456.974113) vcan0 125#E5207AE4C1D0D734
(1675526456.975419) vcan0 260#D0FF00AA495485B0
(1675526456.975494) vcan0 1B0#00C0290000B03EEC
(1675526456.975568) vcan0 1B5#FF41A9B7E9E0FFEF
(1675526456.975711) vcan0 1D8#363339343234DA43
(1675526456.976869) vcan0 1E0#0020734300B917E0
(1675526456.977019) vcan0 2C3#5D8700FFFF0A5450
(1675526456.980773) vcan0 008#41865C5315800080
(1675526456.984525) vcan0 010#000000002FB031F8
(1675526456.985899) vcan0 291#0000000000000000
(1675526456.985978) vcan0 2A9#8C260082C0000084
(1675526456.986064) vcan0 0F5#A080AC80BF772175
(1675526456.986215) vcan0 120#9F80A1807FFF5589
(1675526456.987387) vcan0 130#EFF41D9F00840112
(1675526456.987530) vcan0 150#A300E9D777F780C0
(1675526456.987604) vcan0 055#B7F7FF67B3009C80
(1675526456.987679) vcan0 065#37E3F4E7FF8DFA01
(1675526456.990151) vcan0 070#000047A800E25B00
(1675526456.990292) vcan0 072#F000FF3F0078A038
(1675526456.990365) vcan0 075#0000000000005458
(1675526456.990439) vcan0 080#FF4F8000C2002C00
(1675526456.990515) vcan0 0B0#39837CA200C239A3
(1675526456.990657) vcan0 0E0#E2732AD800805100
(1675526456.990733) vcan0 145#FD62D980FCC810A1
(1675526456.990806) vcan0 210#E0E080A0A869F04D
(1675526456.991499) vcan0 28C#000020000016BE90
(1675526456.991640) vcan0 288#D5DF807F00000080
(1675526456.991723) vcan0 290#0000000000000000
(1675526456.991798) vcan0 2B5#4B4E556293A64935
(1675526456.991872) vcan0 2C0#5D8700630300A0F1
(1675526456.994414) vcan0 2C5#00D71F003AE30070
(1675526456.994487) vcan0 008#41866C3523800080
(1675526456.994561) vcan0 340#4D00000000000000
(1675526456.994636) vcan0 3AF#0000000000000020
(1675526456.994778) vcan0 010#000000002FB031F8
(1675526456.994854) vcan0 1D0#0000000000000061
(1675526456.994928) vcan0 125#E51E7AE4C1D0D734
(1675526456.995893) vcan0 3C8#5D87008E882C008E
(1675526456.995966) vcan0 1B0#00C0290000B03EEC
(1675526456.996144) vcan0 1B5#FF41A9B8E9E0FFEF
(1675526456.996148) vcan0 1D8#363339343234DA43
(1675526456.996299) vcan0 1E0#0024634300B917E0
(1675526457.001056) vcan0 008#41867C2523800080
(1675526457.002440) vcan0 010#000000002FB031F8
(1675526457.003888) vcan0 072#F000FF3F00788038
(1675526457.003966) vcan0 330#2800000000000000
(1675526457.005412) vcan0 0F5#A080AC80BF7B1175
(1675526457.005490) vcan0 120#A380A5807FFF5589
(1675526457.005568) vcan0 130#F7F41DA000730112
(1675526457.005646) vcan0 150#A500F3E777F76EC0
(1675526457.006914) vcan0 260#D0FF0055495585B0
(1675526457.009935) vcan0 055#B7F7FF67B3009C80
(1675526457.010010) vcan0 065#38E3F5E7008EFA01
(1675526457.010082) vcan0 070#000047A800E25B00
(1675526457.010157) vcan0 075#0000000000005458
(1675526457.010300) vcan0 080#FF4F8000C2002C00
(1675526457.010374) vcan0 0B0#39837CA200C239A3
(1675526457.010449) vcan0 0E0#E2732FE000802C00
(1675526457.010522) vcan0 145#FD52DA80FCC810A1
(1675526457.011359) vcan0 008#44868C1223800080
(1675526457.012873) vcan0 010#000000002FB031F8
(1675526457.013016) vcan0 1D0#0000000000000061
(1675526457.013090) vcan0 210#E0E08020A869F045
(1675526457.013163) vcan0 291#0000000000000000
(1675526457.014404) vcan0 125#E51E7AE4C1D0D734
(1675526457.017376) vcan0 288#D5DF807F00000080
(1675526457.017454) vcan0 1B0#00C0290000B03EEC
(1675526457.017606) vcan0 1B5#FF42AAB8E9E0FFEF
(1675526457.017682) vcan0 1D8#363339343234DA43
(1675526457.017760) vcan0 1E0#0024630300B917E0
(1675526457.017837) vcan0 2C3#5D8700FFFF0A5450
(1675526457.017915) vcan0 072#F000FF3F0078A038
(1675526457.017992) vcan0 290#0000000000000000
(1675526457.021315) vcan0 008#44869C0223800080
(1675526457.022690) vcan0 010#000000002FB031F8
(1675526457.024230) vcan0 2A9#8C26009BC0000084
(1675526457.025679) vcan0 0F5#A080A280BF7F0175
(1675526457.025828) vcan0 120#A380A5807FFF5589
(1675526457.025906) vcan0 130#FFF41DA300600412
(1675526457.025984) vcan0 150#A500F3F777F75EC0
(1675526457.028329) vcan0 055#B7F7FF67B3009C80
(1675526457.029634) vcan0 065#38E3F5E7008EFA01
(1675526457.029777) vcan0 070#000047A800E25B00
(1675526457.029853) vcan0 075#0000000000005458
(1675526457.029926) vcan0 080#FF4F8000C2002C00
(1675526457.031235) vcan0 0B0#39837CA200C239A3
(1675526457.031376) vcan0 0E0#E27333E800800800
(1675526457.031449) vcan0 145#FD42DB80FCC810A1
(1675526457.031524) vcan0 28C#000020000016BE90
(1675526457.031667) vcan0 2B5#4B4E546293A64936
(1675526457.031739) vcan0 370#0724C0005A1BC735
(1675526457.031823) vcan0 008#4486ACF223800080
(1675526457.034159) vcan0 010#000000002FB031F9
(1675526457.034232) vcan0 072#F000FF3F00788038
(1675526457.034306) vcan0 1D0#0000000000000A61
(1675526457.034449) vcan0 125#E51E7AE4C1D0D734
(1675526457.035618) vcan0 260#D0FF0055495485B0
(1675526457.035760) vcan0 1B0#00C0290001B03EEC
(1675526457.035833) vcan0 1B5#FF42AAB8EAE0FFEF
(1675526457.035908) vcan0 1D8#363339343234DA43
(1675526457.035982) vcan0 1E0#0028534300B917E0
(1675526457.038312) vcan0 210#E0E080A0A869F04D
(1675526457.039617) vcan0 288#D0DF807F00000080
(1675526457.041141) vcan0 008#4486BCE223800080
(1675526457.042654) vcan0 010#000000002FB031F8
(1675526457.042732) vcan0 291#0000000000000000
(1675526457.045259) vcan0 0F5#A480A280BF43F175
(1675526457.046662) vcan0 120#A380AA807FF85589
(1675526457.046743) vcan0 130#87F21DA300500412
(1675526457.046821) vcan0 150#A300F40777F750C0
(1675526457.048125) vcan0 055#B7F7FF67B3009C80
(1675526457.048275) vcan0 065#38E3F5E7008EFA01
(1675526457.048353) vcan0 070#000047A800E25B00
(1675526457.048430) vcan0 072#F000FF3F0078A038
(1675526457.048508) vcan0 075#0000000000005458
(1675526457.051110) vcan0 080#FF4F8000C2002C00
(1675526457.051260) vcan0 0B0#39837CA200C239A3
(1675526457.051339) vcan0 0E0#E27334F00080E700
(1675526457.051416) vcan0 145#FD32DC80FCC810A1
(1675526457.051495) vcan0 290#0000000000000000
(1675526457.051645) vcan0 2C0#5D8700630300A0F1
(1675526457.051721) vcan0 2C5#00D71F0039E30070
(1675526457.051799) vcan0 350#A200000000000080
(1675526457.051884) vcan0 360#5D8700D2BB64A001
(1675526457.051963) vcan0 008#4486CCD223800080
(1675526457.052618) vcan0 010#000000002FB031F8
(1675526457.052768) vcan0 1D0#0000000000000061
(1675526457.054144) vcan0 390#80FF051D02165A4F
(1675526457.054221) vcan0 125#E51E7AE4C1D0D734
(1675526457.055598) vcan0 1B0#00C0290000B03EEC
(1675526457.055748) vcan0 1B5#FF43ABB8EAE0FFEF
(1675526457.055825) vcan0 1D8#363339343234DA43
(1675526457.055903) vcan0 1E0#002C434300B917E0
(1675526457.055981) vcan0 2C3#5D8700FFFF0A5450
(1675526457.060862) vcan0 008#4486DCB332800080
(1675526457.062375) vcan0 010#000000002FB031F8
(1675526457.062450) vcan0 072#F000FF3F00788038
(1675526457.063894) vcan0 210#E0E080A0A869F045
(1675526457.063969) vcan0 2A9#8C260082C0000084
(1675526457.065420) vcan0 288#E9DF807F00000080
(1675526457.065494) vcan0 0F5#A480A280BF47E175
(1675526457.065569) vcan0 120#A680AA807FF85589
(1675526457.065713) vcan0 130#8FEF1DA4003F0412
(1675526457.066871) vcan0 150#A300F51777F740C0
(1675526457.067023) vcan0 260#D0FF0055495385B0
(1675526457.069912) vcan0 055#B7F7FF67B3009C80
(1675526457.069989) vcan0 065#38E3F4E7008EFA01
(1675526457.070068) vcan0 070#000047A800E25B00
(1675526457.070219) vcan0 075#0000000000005458
(1675526457.070298) vcan0 080#FF4F8000C2002C00
(1675526457.070376) vcan0 0B0#39837CA200C239A3
(1675526457.070453) vcan0 0E0#E27338F80080C300
(1675526457.070530) vcan0 145#FD22DD80FCC810A1
(1675526457.070680) vcan0 28C#000020000016BE90
(1675526457.070758) vcan0 2B5#4B4E546293A64936
(1675526457.070845) vcan0 340#4D00000000000000
(1675526457.071428) vcan0 008#4486ECB91C800080
(1675526457.074030) vcan0 125#E5207AE4C1D0D734
(1675526457.075404) vcan0 581#FFFFFFFFFFFF0081
(1675526457.075481) vcan0 010#000000002FB031F8
(1675526457.075632) vcan0 1D0#0000000000000061
(1675526457.077037) vcan0 291#0000000000000000
(1675526457.077111) vcan0 1B0#00C02A0001B03EEC
(1675526457.077186) vcan0 1B5#FF43ABB8EAE0FFEF
(1675526457.077329) vcan0 1D8#363339343234DA43
(1675526457.077403) vcan0 1E0#002C430300B917E0
(1675526457.077477) vcan0 400#0101010101590108
(1675526457.077551) vcan0 405#0000000000000000
(1675526457.077694) vcan0 290#0000000000000000
(1675526457.081133) vcan0 072#F000FF3F0078A038
(1675526457.081268) vcan0 3B0#00FC51383EB8C400
(1675526457.081351) vcan0 008#4486FCA91C800080
(1675526457.084988) vcan0 0F5#A8809980BF4BD175
(1675526457.086363) vcan0 120#A680AA807FF75589
(1675526457.086514) vcan0 130#97EC1DA4002F0112
(1675526457.086592) vcan0 010#000000002FB031F8
(1675526457.089409) vcan0 150#A100FB2777F732C0
(1675526457.089489) vcan0 330#2800000000000000
(1675526457.089565) vcan0 3CA#00000000520000C8
(1675526457.089715) vcan0 055#B6F7FF67B3009C80
(1675526457.089794) vcan0 065#38E3F5E7008EFA01
(1675526457.089870) vcan0 070#000048A800E25B00
(1675526457.089949) vcan0 075#0000000000005458
(1675526457.090025) vcan0 080#FF4F8000C2002C00
(1675526457.090177) vcan0 0B0#39837CA200C239A3
(1675526457.090255) vcan0 0E0#E2733EC000809D00
(1675526457.090332) vcan0 145#FD12DE80FCC810A1
(1675526457.090924) vcan0 288#02E0906F00000080
(1675526457.091002) vcan0 210#DEE080A0A869F045
(1675526457.091079) vcan0 008#44860CA70E800080
(1675526457.093535) vcan0 125#E5207AE4C1D0D734
(1675526457.094909) vcan0 010#000000002FB031F8
(1675526457.096486) vcan0 072#F000FF3F00788038
(1675526457.096630) vcan0 1B0#00C02A0001B03FEC
(1675526457.096704) vcan0 1B5#FF43ACB9EAE0FFEF
(1675526457.096778) vcan0 1D0#0000000000000061
(1675526457.096920) vcan0 1D8#363339343234DA43
(1675526457.096996) vcan0 1E0#0030334300B917E0
(1675526457.097069) vcan0 260#D0FF0055495585B0
(1675526457.097144) vcan0 2C3#5D8700FFFF0A5450
(1675526457.101669) vcan0 008#46861C950E800080
(1675526457.104412) vcan0 010#000000002FB031F8
(1675526457.104486) vcan0 291#0000000000000000
(1675526457.104569) vcan0 2A9#8C26008AC0000084
(1675526457.105877) vcan0 0F5#A8809980BF4FC175
