(1675526502.269143) vcan0 125#E5AD7CE4C1D0D734
(1675526502.270628) vcan0 1B0#00C01D0000B026EC
(1675526502.270700) vcan0 1B5#FF0A709CCCE0FFEF
(1675526502.270776) vcan0 1D8#363339343234DA43
(1675526502.270918) vcan0 1E0#0030334300B917E0
(1675526502.270992) vcan0 2C3#5D8700FFFF095450
(1675526502.272093) vcan0 210#FAE080A0A869F145
(1675526502.273607) vcan0 288#E9DF708F00000080
(1675526502.275118) vcan0 008#92831C3723800080
(1675526502.276630) vcan0 010#000000002FB031F8
(1675526502.276704) vcan0 291#0000000000000000
(1675526502.278078) vcan0 2A9#8C26009BC0000084
(1675526502.279588) vcan0 0F5#90809580BF6F416E
(1675526502.279740) vcan0 120#928095807F005689
(1675526502.279816) vcan0 130#DFFF1D9200B10112
(1675526502.281102) vcan0 150#9200F8B7B4F7B1C0
(1675526502.284136) vcan0 055#B6F7FF67B3009C80
(1675526502.284213) vcan0 065#39E3F6E7008EFB01
(1675526502.284289) vcan0 070#000048A800E25B00
(1675526502.284440) vcan0 072#F000FF3F0078A038
(1675526502.284517) vcan0 075#0000000000005458
(1675526502.284596) vcan0 080#FF4F8000C2002C00
(1675526502.284673) vcan0 0B0#39837CA200C239A3
(1675526502.284749) vcan0 145#FD82D780FCC810A1
(1675526502.284900) vcan0 28C#000020000016BE90
(1675526502.284977) vcan0 290#0000000000000000
(1675526502.285054) vcan0 0E0#E27328C800809300
(1675526502.285144) vcan0 2B5#4B4B576293A64A38
(1675526502.285211) vcan0 2C0#5D8700640300A0F1
(1675526502.285660) vcan0 2C5#00D71F023AE30070
(1675526502.285739) vcan0 360#5D8700D3BB64A001
(1675526502.285817) vcan0 3AF#0000000000000020
(1675526502.285893) vcan0 008#94832C2523800080
(1675526502.287124) vcan0 010#000000002FB031F9
(1675526502.287202) vcan0 1D0#0000000000000A61
(1675526502.287352) vcan0 390#80FF051D021A594F
(1675526502.288583) vcan0 3C8#5D87008E882C008E
(1675526502.290100) vcan0 125#E5AA7CE4C1D0D734
(1675526502.290179) vcan0 1B0#00C01D0000B028EC
(1675526502.290337) vcan0 1B5#FF0A709CCCE0FFEF
(1675526502.290414) vcan0 1D8#363339343234DA43
(1675526502.290487) vcan0 1E0#0034234300B917E0
(1675526502.295350) vcan0 008#94833C0632800080
(1675526502.296860) vcan0 010#000000002FB031F8
(1675526502.296935) vcan0 072#F000FF3F00788038
(1675526502.297018) vcan0 210#FAE080A0A869F14D
(1675526502.298324) vcan0 260#D0FF00AA49AE85B0
(1675526502.298467) vcan0 3D0#8A0F6100340680C3
(1675526502.298542) vcan0 288#E9DF708F00000080
(1675526502.299848) vcan0 0F5#94809680BF73316E
(1675526502.299990) vcan0 120#928095807FFF5589
(1675526502.300065) vcan0 130#E7FF1D94009F0412
(1675526502.300139) vcan0 150#9400FBC7B4F79FC0
(1675526502.301380) vcan0 055#B6F7FF67B3009C80
(1675526502.304411) vcan0 065#38E3F6E7008EFA01
(1675526502.304490) vcan0 070#000048A800E25B00
(1675526502.304567) vcan0 075#0000000000005458
(1675526502.304644) vcan0 080#FF4F8000C2002C00
(1675526502.304722) vcan0 0B0#39837CA200C239A3
(1675526502.304871) vcan0 145#FD72D880FCC810A1
(1675526502.304949) vcan0 0E0#E27329D000807200
(1675526502.305899) vcan0 008#94834CF632800080
(1675526502.307345) vcan0 010#000000002FB031F8
(1675526502.307494) vcan0 1D0#0000000000000061
(1675526502.307572) vcan0 291#0000000000000000
(1675526502.308873) vcan0 125#E5AA7CE4C1D0D734
(1675526502.310319) vcan0 1B0#00C01D0000B029EC
(1675526502.310414) vcan0 1B5#FF0B709CCDE0FFEF
(1675526502.310488) vcan0 1D8#363339343234DA43
(1675526502.310631) vcan0 1E0#0034230300B917E0
(1675526502.310706) vcan0 2C3#5D8700FFFF095450
(1675526502.311875) vcan0 290#0000000000000000
(1675526502.313386) vcan0 072#F000FF3F0078A038
(1675526502.316062) vcan0 008#97835CD540800080
(1675526502.318531) vcan0 010#000000002FB031F8
(1675526502.319905) vcan0 2A9#8C260082C0000084
(1675526502.322889) vcan0 0F5#94809680BF77216E
(1675526502.322977) vcan0 120#958095807FFF5589
(1675526502.323054) vcan0 130#EFFF1D95008E0112
(1675526502.323132) vcan0 150#9500F9D7B3F78EC0
(1675526502.323282) vcan0 055#B6F7FF67B3009C80
(1675526502.323358) vcan0 065#38E3F6E7008EFB01
(1675526502.323438) vcan0 070#000048A800E25B00
(1675526502.323515) vcan0 075#0000000000005458
(1675526502.323593) vcan0 080#FF4F8000C2002C00
(1675526502.323744) vcan0 0B0#39837CA200C239A3
(1675526502.323820) vcan0 145#FD62D980FCC810A1
(1675526502.323899) vcan0 210#FAE080A0A869F14D
(1675526502.324408) vcan0 288#F5DF807F00000080
(1675526502.324487) vcan0 28C#000020000016BE90
(1675526502.324564) vcan0 2B5#4B4B576293A64A38
(1675526502.324643) vcan0 0E0#E2732CD800804F00
(1675526502.324719) vcan0 340#4F00000000000000
(1675526502.325887) vcan0 008#97836CC540800080
(1675526502.327333) vcan0 260#D0FF00AA49AD85B0
(1675526502.327482) vcan0 010#000000002FB031F8
(1675526502.327560) vcan0 072#F000FF3F00788038
(1675526502.328861) vcan0 1D0#0000000000000061
(1675526502.328938) vcan0 125#E5A87CE4C1D0D734
(1675526502.330316) vcan0 1B0#00C01D0000B02AEC
(1675526502.330390) vcan0 1B5#FF0B719CCDE0FFEF
(1675526502.330533) vcan0 1D8#363339343234DA43
(1675526502.330607) vcan0 1E0#0038134300B917E0
(1675526502.335543) vcan0 008#99837CB340800080
(1675526502.336849) vcan0 010#000000002FB031F8
(1675526502.338360) vcan0 291#0000000000000000
(1675526502.338435) vcan0 330#2800000000000000
(1675526502.339878) vcan0 0F5#99809680BF7B116E
(1675526502.339951) vcan0 120#958097807FFF5589
(1675526502.340048) vcan0 130#F7FF1D95007E0112
(1675526502.340122) vcan0 150#9500FDE7B3F77EC0
(1675526502.341371) vcan0 055#B6F7FF67B3009C80
(1675526502.344402) vcan0 065#39E3F6E7008EFB01
(1675526502.344480) vcan0 070#000048A800E25B00
(1675526502.344558) vcan0 072#F000FF3F0078A038
(1675526502.344636) vcan0 075#0000000000005458
(1675526502.344787) vcan0 080#FF4F8000C2002C00
(1675526502.344863) vcan0 0B0#39837CA200C239A3
(1675526502.344942) vcan0 145#FD52DA80FCC810A1
(1675526502.345019) vcan0 290#0000000000000000
(1675526502.345098) vcan0 2C0#5D8700640300A0F1
(1675526502.345175) vcan0 0E0#E2732EE000802D00
(1675526502.345324) vcan0 2C5#00D71F0139E30070
(1675526502.345401) vcan0 350#A200000000000080
(1675526502.345840) vcan0 008#99838C8D56800080
(1675526502.347366) vcan0 010#000000002FB031F8
(1675526502.347445) vcan0 1D0#0000000000000061
(1675526502.347523) vcan0 210#FAE080A0A869F145
(1675526502.348823) vcan0 288#EDDF807F00000080
(1675526502.348973) vcan0 125#E5A87CE4C1D0D734
(1675526502.350349) vcan0 1B0#00C01D0000B02BEC
(1675526502.350451) vcan0 1B5#FF0B719DCDE0FFEF
(1675526502.350528) vcan0 1D8#363339343234DA43
(1675526502.350606) vcan0 1E0#003C034300B917E0
(1675526502.350684) vcan0 2C3#5D8700FFFF095450
(1675526502.355513) vcan0 008#9B839C8A47800080
(1675526502.356887) vcan0 010#000000002FB031F8
(1675526502.358332) vcan0 072#F000FF3F00788038
(1675526502.358482) vcan0 260#D0FF005549AB85B0
(1675526502.358559) vcan0 2A9#8C26009BC0000084
(1675526502.358638) vcan0 400#010502000103021F
(1675526502.358724) vcan0 405#0000000000000024
(1675526502.359881) vcan0 0F5#99809980BF7F016E
(1675526502.359959) vcan0 120#988097807FFE5589
(1675526502.360037) vcan0 130#FFFF1D97006C0112
(1675526502.360187) vcan0 150#9900FBF7B3F76AC0
(1675526502.361371) vcan0 055#B6F7FF67B3009C80
(1675526502.364389) vcan0 065#3AE3F7E7008EFB01
(1675526502.364463) vcan0 070#000048A800E25B00
(1675526502.364538) vcan0 075#0000000000005458
(1675526502.364681) vcan0 080#FF4F8000C2002C00
(1675526502.364756) vcan0 0B0#39837CA200C239A3
(1675526502.364829) vcan0 145#FD42DB80FCC810A1
(1675526502.364904) vcan0 28C#000020000016BE90
(1675526502.365046) vcan0 2B5#4B4B566293A64A38
(1675526502.365121) vcan0 370#0724C0005A1BC700
(1675526502.365195) vcan0 0E0#E27331E800800A00
(1675526502.365893) vcan0 008#9B83AC7A47800080
(1675526502.367337) vcan0 010#000000002FB031F9
(1675526502.367479) vcan0 1D0#0000000000000A61
(1675526502.367552) vcan0 291#0000000000000000
(1675526502.368858) vcan0 125#E5A57CE4C1D0D734
(1675526502.370371) vcan0 1B0#00C01D0000B02BEC
(1675526502.370452) vcan0 1B5#FF0C719DCDE0FFEF
(1675526502.370529) vcan0 1D8#363339343234DA43
(1675526502.370608) vcan0 1E0#003C030300B917E0
(1675526502.371838) vcan0 290#0000000000000000
(1675526502.371987) vcan0 072#F000FF3F0078A038
(1675526502.372065) vcan0 210#FAE080A0A869F14D
(1675526502.372142) vcan0 3B0#00D83F383EB8C400
(1675526502.373373) vcan0 288#D9DF807F00000080
(1675526502.375974) vcan0 008#9B83BC7F32800080
(1675526502.377348) vcan0 010#000000002FB031F8
(1675526502.380029) vcan0 0F5#99809980BF43F16E
(1675526502.381373) vcan0 120#98809C807FFF5589
(1675526502.381449) vcan0 130#87FF1D98005B0112
(1675526502.381591) vcan0 150#9900F707B3F75AC0
(1675526502.381665) vcan0 3CA#00000000530000C8
(1675526502.384343) vcan0 055#B6F7FF67B3009C80
(1675526502.384485) vcan0 065#39E3F6E7008EFB01
(1675526502.384560) vcan0 070#000048A800E25B00
(1675526502.384632) vcan0 075#0000000000005458
(1675526502.384706) vcan0 080#FF4F8000C2002C00
(1675526502.384850) vcan0 0B0#39837DA200C239A3
(1675526502.384924) vcan0 145#FD32DC80FCC810A1
(1675526502.384998) vcan0 360#5D8700D3BB64A001
(1675526502.385071) vcan0 0E0#E27332F00080E900
(1675526502.385899) vcan0 008#9B83CC6140800080
(1675526502.387342) vcan0 010#000000002FB031F8
(1675526502.387494) vcan0 072#F000FF3F00788038
(1675526502.387569) vcan0 1D0#0000000000000061
(1675526502.387643) vcan0 260#D0FF005549AD85B0
(1675526502.387717) vcan0 390#80FF051D02165A4F
(1675526502.388819) vcan0 125#E5A57CE4C1D0D734
(1675526502.390363) vcan0 1B0#00C01D0000B02CEC
(1675526502.390442) vcan0 1B5#FF0C729DCDE0FFEF
(1675526502.390593) vcan0 1D8#363339343234DA43
(1675526502.390671) vcan0 1E0#0000F34300B917E0
(1675526502.390748) vcan0 2C3#5D8700FFFF095450
(1675526502.395505) vcan0 008#9B83DC5F32800080
(1675526502.396879) vcan0 010#000000002FB031F8
(1675526502.398326) vcan0 210#FAE08020A869F145
(1675526502.398476) vcan0 291#0000000000000000
(1675526502.398553) vcan0 2A9#8C260082C0000084
(1675526502.398629) vcan0 288#CCDF807F00000080
(1675526502.399871) vcan0 0F5#9C809F80BF47E16E
(1675526502.399951) vcan0 120#98809C807FFE5589
(1675526502.400029) vcan0 130#8FFF1D99004A0112
(1675526502.400179) vcan0 150#9A00F317B3F749C0
(1675526502.401365) vcan0 072#F000FF3F0078A038
(1675526502.404380) vcan0 055#B6F7FF67B3009C80
(1675526502.404456) vcan0 065#3AE3F6E7008EFB01
(1675526502.404529) vcan0 070#000048A800E25B00
(1675526502.404673) vcan0 075#0000000000005458
(1675526502.404747) vcan0 080#FF4F8000C2002C00
(1675526502.404819) vcan0 0B0#39837DA200C239A3
(1675526502.404893) vcan0 145#FD22DD80FCC810A1
(1675526502.404968) vcan0 28C#000020000016BE90
(1675526502.405041) vcan0 290#0000000000000000
(1675526502.405184) vcan0 0E0#E27333F80080C800
(1675526502.405259) vcan0 2B5#4B4B566293A64A37
(1675526502.405342) vcan0 2C0#5D8700640300A0F1
(1675526502.405896) vcan0 2C5#00D71F0139E30070
(1675526502.405971) vcan0 340#4F00000000000000
(1675526502.406044) vcan0 3AF#0000000000000020
(1675526502.406118) vcan0 008#9E83EC3E40800080
(1675526502.407359) vcan0 010#000000002FB031F8
(1675526502.407502) vcan0 1D0#0000000000000061
(1675526502.408877) vcan0 3C8#5D87008E882C008E
(1675526502.408950) vcan0 125#E5A57CE4C1D0D734
(1675526502.410442) vcan0 1B0#00C01D0001B02CEC
(1675526502.410521) vcan0 1B5#FF0D729DCEE0FFEF
(1675526502.410599) vcan0 1D8#363339343234DA43
(1675526502.410749) vcan0 1E0#0004E34300B917E0
(1675526502.415509) vcan0 008#9E83FC3C32800080
(1675526502.416884) vcan0 260#D0FF005549AB85B0
(1675526502.418328) vcan0 010#000000002FB031F8
(1675526502.418487) vcan0 072#F000FF3F00788038
(1675526502.418565) vcan0 330#2800000000000000
(1675526502.419866) vcan0 0F5#9C809F80BF4BD16E
(1675526502.419945) vcan0 120#9B809C807FFD5589
(1675526502.420094) vcan0 130#97FF1D9C00370112
(1675526502.420174) vcan0 150#9D00F027B3F736C0
(1675526502.421368) vcan0 055#B6F7FF67B3009C80
(1675526502.424386) vcan0 065#3AE3F6E7008EFA01
(1675526502.424460) vcan0 070#000048A800E25B00
(1675526502.424535) vcan0 075#0000000000005458
(1675526502.424678) vcan0 080#FF4F8000C2002C00
(1675526502.424752) vcan0 0B0#39837DA200C239A3
(1675526502.424825) vcan0 145#FD12DE80FCC810A1
(1675526502.424900) vcan0 210#FAE080A0A869F145
(1675526502.425043) vcan0 288#D0DF906F00000080
(1675526502.425117) vcan0 0E0#E27336C00080A500
(1675526502.425885) vcan0 008#A0830C1C40800080
(1675526502.427327) vcan0 010#000000002FB031F8
(1675526502.427470) vcan0 1D0#0000000000000061
(1675526502.427543) vcan0 291#0000000000000000
(1675526502.428850) vcan0 125#E5A37CE4C1D0D734
(1675526502.430373) vcan0 1B0#00C01D0000B02CEC
(1675526502.430453) vcan0 1B5#FF0D739DCEE0FFEF
(1675526502.430530) vcan0 1D8#363339343234DA43
(1675526502.430608) vcan0 1E0#0004E30300B917E0
(1675526502.430758) vcan0 2C3#5D8700FFFF095450
(1675526502.431845) vcan0 290#0000000000000000
(1675526502.431995) vcan0 072#F000FF3F0078A038
(1675526502.433370) vcan0 350#A200000000000080
(1675526502.436040) vcan0 008#A2831C0A40800080
(1675526502.437413) vcan0 010#000000002FB031F8
(1675526502.438859) vcan0 2A9#8C26008AC0000084
(1675526502.440389) vcan0 0F5#A0809F80BF4FC16E
(1675526502.440463) vcan0 120#9B809F807FFE5589
(1675526502.440537) vcan0 130#9FFF1D9C00270112
(1675526502.440681) vcan0 150#9D00F137B3F726C0
(1675526502.441851) vcan0 055#B6F7FF67B3009C80
(1675526502.441994) vcan0 065#3AE3F6E7008EFA01
(1675526502.442066) vcan0 070#000048A800E25B00
(1675526502.443509) vcan0 075#0000000000005458
(1675526502.443584) vcan0 080#FF4F8000C2002C00
(1675526502.443657) vcan0 0B0#39837DA200C239A3
(1675526502.443800) vcan0 145#FD02DF80FCC810A1
(1675526502.443875) vcan0 28C#000020000016BE90
(1675526502.443947) vcan0 2B5#4B4B566293A64A37
(1675526502.444022) vcan0 0E0#E27337C800808400
(1675526502.446150) vcan0 008#A2832CFA40800080
(1675526502.448894) vcan0 010#000000002FB031F9
(1675526502.448977) vcan0 072#F000FF3F00788038
(1675526502.449050) vcan0 1D0#0000000000000A61
(1675526502.449135) vcan0 210#FAE080A0A869F14D
(1675526502.449268) vcan0 260#D0FF00AA49A985B0
(1675526502.449341) vcan0 288#C4DF906F00000080
(1675526502.450370) vcan0 125#E5A07CE4C1D0D734
(1675526502.450522) vcan0 1B0#00C01D0000B02CEC
(1675526502.450600) vcan0 1B5#FF0D739ECEE0FFEF
(1675526502.450679) vcan0 1D8#363339343234DA43
(1675526502.450757) vcan0 1E0#0008D34300B917E0
(1675526502.455514) vcan0 008#A4833CD94F800080
(1675526502.456889) vcan0 010#000000002FB031F8
(1675526502.458335) vcan0 291#0000000000000000
(1675526502.458486) vcan0 425#0000000000000000
(1675526502.459861) vcan0 0F5#A080A380BF53B16E
(1675526502.459940) vcan0 120#A0809F807FFC5589
(1675526502.460025) vcan0 130#A7FF1D9F00140412
(1675526502.460104) vcan0 150#A100ED47B2F712C0
(1675526502.461374) vcan0 055#B6F7FF67B3009C80
(1675526502.463024) vcan0 065#39E3F6E7008EFA01
(1675526502.463097) vcan0 070#000048A800E25B00
(1675526502.463171) vcan0 072#F000FF3F0078A038
(1675526502.463315) vcan0 075#0000000000005458
(1675526502.463388) vcan0 080#FF4F8000C2002C00
(1675526502.463462) vcan0 0B0#39837DA200C239A3
(1675526502.463537) vcan0 145#FDF2D080FCC810A1
(1675526502.463679) vcan0 290#0000000000000000
(1675526502.464506) vcan0 2C0#5D8700640300A0F1
(1675526502.464581) vcan0 0E0#E27339D000806200
(1675526502.465886) vcan0 2C5#00D71F013AE30070
(1675526502.465962) vcan0 370#0724C0005A1BC700
(1675526502.466105) vcan0 3E0#000000D937808090
(1675526502.466188) vcan0 008#A7834CC64F800080
(1675526502.468591) vcan0 010#000000002FB031F8
(1675526502.468734) vcan0 1D0#0000000000000061
(1675526502.471593) vcan0 125#E59D7CE4C1D0D734
(1675526502.471744) vcan0 1B0#00C01D0000B02CEC
(1675526502.471821) vcan0 1B5#FF0E749ECEE0FFEF
(1675526502.471900) vcan0 1D8#363339343234DA43
(1675526502.471977) vcan0 1E0#000CC34300B917E0
(1675526502.472055) vcan0 2C3#5D8700FFFF095450
(1675526502.472204) vcan0 210#FAE080A0A869F145
(1675526502.473148) vcan0 288#D0DF906F00000080
(1675526502.475750) vcan0 008#A9835CA65D800080
(1675526502.477123) vcan0 010#000000002FB031F8
(1675526502.478642) vcan0 072#F000FF3F00788038
(1675526502.478720) vcan0 260#D0FF00AA49AB85B0
(1675526502.478798) vcan0 2A9#8C260093C0000084
(1675526502.480122) vcan0 0F5#A080A380BF57A16E
(1675526502.480198) vcan0 120#A080A2807FFB5589
(1675526502.480277) vcan0 130#AFFF1DA000030412
(1675526502.480426) vcan0 150#A100F357B2F702C0
(1675526502.481595) vcan0 055#B6F7FF67B3009C80
(1675526502.481738) vcan0 065#39E3F6E7008EFA01
(1675526502.484620) vcan0 070#000048A800E25B00
(1675526502.484694) vcan0 075#0000000000005458
(1675526502.484838) vcan0 080#FF4F8000C2002C00
(1675526502.484912) vcan0 0B0#39837DA200C239A3
(1675526502.484986) vcan0 145#FDE2D180FCC810A1
(1675526502.485061) vcan0 28C#000020000016BE90
(1675526502.485202) vcan0 2B5#4B4B566293A64A37
(1675526502.485275) vcan0 340#4F00000000000000
(1675526502.485351) vcan0 0E0#E27339D800804200
(1675526502.485424) vcan0 360#5D8700D3BB64A001
(1675526502.486122) vcan0 008#AB836C8D64800080
(1675526502.487632) vcan0 010#000000002FB031F8
(1675526502.487706) vcan0 1D0#0000000000000061
(1675526502.487779) vcan0 291#0000000000000000
(1675526502.487922) vcan0 390#80FF051D02125B4F
(1675526502.489090) vcan0 125#E5977CE4C1D0D734
(1675526502.490579) vcan0 1B0#00C01D0000B02CEC
(1675526502.490728) vcan0 1B5#FF0E749ECFE0FFEF
(1675526502.490806) vcan0 1D8#363339343234DA43
(1675526502.490884) vcan0 1E0#000CC30300B917E0
(1675526502.492113) vcan0 290#0000000000000000
(1675526502.492191) vcan0 072#F000FF3F0078A038
(1675526502.492268) vcan0 3B0#00D83F383EB8C400
(1675526502.496019) vcan0 008#AE837C6B73800080
(1675526502.497393) vcan0 010#000000002FB031F8
(1675526502.498839) vcan0 210#FAE080A0A869F14D
(1675526502.498995) vcan0 330#2800000000000000
(1675526502.499074) vcan0 3D0#8A0F6100340680C3
(1675526502.499152) vcan0 288#D0DF906F00000080
(1675526502.500382) vcan0 0F5#A480A880BF5B916E
(1675526502.500456) vcan0 120#A080A2807FFC5589
(1675526502.500600) vcan0 130#B7FF1DA200F10412
(1675526502.500673) vcan0 150#A600F467B2F7EDC0
(1675526502.500747) vcan0 3CA#00000000540000C8
(1675526502.501848) vcan0 055#B6F7FF67B3009C80
(1675526502.501990) vcan0 065#39E3F6E7008EFB01
(1675526502.502063) vcan0 070#000048A800E25B00
(1675526502.503370) vcan0 075#0000000000005458
(1675526502.503443) vcan0 080#FF4F8000C2002C00
(1675526502.503587) vcan0 0B0#39837DA200C239A3
(1675526502.503660) vcan0 145#FDD2D280FCC810A1
(1675526502.503734) vcan0 430#2A082800000015A6
(1675526502.504844) vcan0 0E0#E2733CE000801F00
(1675526502.506356) vcan0 008#B0838C5973800080
(1675526502.507867) vcan0 010#000000002FB031F8
(1675526502.507940) vcan0 072#F000FF3F00788038
(1675526502.508015) vcan0 1D0#0000000000000061
(1675526502.508157) vcan0 260#D0FF00AA49AA85B0
(1675526502.509327) vcan0 125#E5947CE4C1D0D734
(1675526502.509469) vcan0 1B0#00C01E0000B02DEC
(1675526502.510874) vcan0 1B5#FF0F749ECFE0FFEF
(1675526502.510954) vcan0 1D8#363339343234DA43
(1675526502.511030) vcan0 1E0#0010B34300B917E0
(1675526502.511108) vcan0 2C3#5D8700FFFF095450
(1675526502.516012) vcan0 008#B2839C3981800080
(1675526502.518534) vcan0 010#000000002FB031F8
(1675526502.519909) vcan0 291#0000000000000000
(1675526502.519986) vcan0 2A9#8C26008AC0000084
(1675526502.521388) vcan0 0F5#A480A880BF5F816E
(1675526502.521463) vcan0 120#A380A9807FFD5589
(1675526502.521536) vcan0 130#BFFF1DA300E00412
(1675526502.521679) vcan0 150#A600F177B2F7DDC0
(1675526502.521754) vcan0 055#B6F7FF67B3009C80
(1675526502.524360) vcan0 065#39E3F6E7008EFB01
(1675526502.524502) vcan0 070#000048A800E25B00
(1675526502.524577) vcan0 075#0000000000005458
(1675526502.524650) vcan0 072#F000FF3F0078A038
(1675526502.524724) vcan0 080#FF4F8000C2002C00
(1675526502.524866) vcan0 0B0#39837DA200C239A3
(1675526502.524940) vcan0 145#FDC2D380FCC810A1
(1675526502.525015) vcan0 210#FAE080A0A869F14D
(1675526502.525089) vcan0 288#E1DFA05F00000080
(1675526502.525165) vcan0 0E0#E2733FE80080FC00
(1675526502.525304) vcan0 28C#000020000016BE90
(1675526502.525387) vcan0 290#0000000000000000
(1675526502.525463) vcan0 2B5#4B4B566293A64A37
(1675526502.525880) vcan0 2C0#5D8700650300A0F1
(1675526502.525954) vcan0 2C5#00D71F013AE30070
(1675526502.526096) vcan0 350#A200000000000080
(1675526502.526170) vcan0 3AF#0000000000000020
(1675526502.526245) vcan0 008#B483AC1197800080
(1675526502.527346) vcan0 010#000000002FB031F9
(1675526502.528859) vcan0 1D0#0000000000000A61
(1675526502.528932) vcan0 3C8#5D87008E882C008E
(1675526502.529076) vcan0 125#E58F7CE4C1D0D734
(1675526502.530367) vcan0 1B0#00C01D0000B02CEC
(1675526502.530447) vcan0 1B5#FF0F759ECFE0FFEF
(1675526502.530598) vcan0 1D8#363339343234DA43
(1675526502.530675) vcan0 1E0#0014A34300B917E0
(1675526502.535507) vcan0 008#B783BCF0A5800080
(1675526502.536888) vcan0 010#000000002FB031F8
(1675526502.538335) vcan0 072#F000FF3F00788038
(1675526502.538485) vcan0 260#D0FF005549A985B0
(1675526502.539861) vcan0 0F5#AA80AB80BF63716E
(1675526502.539937) vcan0 120#A380A9807FFC5589
(1675526502.540015) vcan0 130#C7FF1DA400CF0412
(1675526502.540164) vcan0 150#A600F787B1F7CDC0
(1675526502.541347) vcan0 055#B6F7FF67B3009C80
(1675526502.544362) vcan0 065#39E3F6E7008EFA01
(1675526502.544504) vcan0 070#000048A800E25B00
(1675526502.544579) vcan0 075#0000000000005458
(1675526502.544654) vcan0 080#FF4F8000C2002C00
(1675526502.544728) vcan0 0B0#39837CA200C239A3
(1675526502.544869) vcan0 145#FDB2D480FCC810A1
(1675526502.544945) vcan0 0E0#E27344F00080D700
(1675526502.545840) vcan0 008#BB83CCE39E800080
(1675526502.547357) vcan0 010#000000002FB031F8
(1675526502.547432) vcan0 1D0#0000000000000061
(1675526502.547574) vcan0 210#F6E08020A869F145
(1675526502.547648) vcan0 291#0000000000000000
(1675526502.548818) vcan0 288#D5DFA05F00000080
(1675526502.548961) vcan0 125#E58A7CE4C1D0D734
(1675526502.550367) vcan0 1B0#00C01D0001B02DEC
(1675526502.550446) vcan0 1B5#FF10759FCFE0FFEF
(1675526502.550524) vcan0 1D8#363339343234DB43
(1675526502.550602) vcan0 1E0#0014A30300B917E0
(1675526502.550678) vcan0 2C3#5D8700FFFF095450
(1675526502.551906) vcan0 290#0000000000000000
(1675526502.551984) vcan0 072#F000FF3F0078A038
(1675526502.555733) vcan0 008#BD83DCBCB3800080
(1675526502.557107) vcan0 010#000000002FB031F8
(1675526502.558623) vcan0 2A9#8C260093C0000084
(1675526502.560088) vcan0 0F5#AA80AB80BF67616E
(1675526502.560238) vcan0 120#A980AF807FFE5589
(1675526502.560314) vcan0 130#CFFF1DA900BA0712
(1675526502.560390) vcan0 150#AA00F397B1F7B9C0
(1675526502.561631) vcan0 055#B6F7FF67B3009C80
(1675526502.561706) vcan0 065#39E3F6E7008EFB01
(1675526502.564656) vcan0 070#000048A800E25B00
(1675526502.564731) vcan0 075#0000000000005458
(1675526502.564805) vcan0 080#FF4F8000C2002C00
(1675526502.564880) vcan0 0B0#39837CA200C239A3
(1675526502.565023) vcan0 145#FDA2D580FCC810A1
(1675526502.565096) vcan0 28C#000020000016BE90
(1675526502.565169) vcan0 2B5#4B4B566293A64A37
(1675526502.565242) vcan0 340#4E00000000000000
(1675526502.565384) vcan0 0E0#E27348F80080B300
(1675526502.565459) vcan0 370#0724C0005A1BC700
(1675526502.566091) vcan0 008#C283EC83D7800080
(1675526502.567602) vcan0 010#000000002FB031F8
(1675526502.567745) vcan0 072#F000FF3F00788038
(1675526502.567820) vcan0 1D0#0000000000000061
(1675526502.567893) vcan0 260#D0FF005549A985B0
(1675526502.569142) vcan0 125#E5817CE4C1D0D734
(1675526502.570586) vcan0 1B0#00C01E0000B02DEC
(1675526502.570737) vcan0 1B5#FF10769FCFE0FFEF
(1675526502.570814) vcan0 1D8#363339343234DB43
(1675526502.570892) vcan0 1E0#0018934300B917E0
(1675526502.572122) vcan0 210#F6E080A0A869F14D
(1675526502.573570) vcan0 288#DDDFA05F00000080
(1675526502.575160) vcan0 008#C783FC5FE6800080
(1675526502.576608) vcan0 010#000000002FB031F8
(1675526502.578056) vcan0 291#0000000000000000
(1675526502.578206) vcan0 330#2800000000000000
(1675526502.579662) vcan0 0F5#B080AD80BF6B516E
(1675526502.579739) vcan0 120#A980AF807FFE5589
(1675526502.579817) vcan0 130#D7FF1DAA00A90712
(1675526502.581090) vcan0 150#AA00F5A7B0F7A9C0
(1675526502.584109) vcan0 055#B6F7FF67B3009C80
(1675526502.584253) vcan0 065#38E3F6E7FF8DFA01
(1675526502.584327) vcan0 070#000048A800E25B00
(1675526502.584402) vcan0 072#F000FF3F0078A038
(1675526502.584475) vcan0 075#0000000000005458
(1675526502.584616) vcan0 080#FF4F8000C2002C00
(1675526502.584692) vcan0 0B0#39837CA200C239A3
(1675526502.584765) vcan0 145#FD92D680FCC810A1
(1675526502.584840) vcan0 290#0000000000000000
(1675526502.584982) vcan0 2C0#5D8700620300A0F1
(1675526502.585056) vcan0 0E0#E2734BC000809000
(1675526502.585144) vcan0 2C5#00D71F0139E30070
(1675526502.585214) vcan0 360#5D8700D3BB64A001
(1675526502.585629) vcan0 008#CB830C3DF4800080
(1675526502.587139) vcan0 010#000000002FB031F8
(1675526502.587214) vcan0 1D0#0000000000000061
(1675526502.587287) vcan0 390#80FF051D020E5C4F
(1675526502.588592) vcan0 125#E57C7CE4C1D0D734
(1675526502.590104) vcan0 1B0#00C0200001B02DEC
(1675526502.590178) vcan0 1B5#FF10769FD0E0FFEF
(1675526502.590347) vcan0 1D8#363339343234DB43
(1675526502.590368) vcan0 1E0#001C834300B917E0
(1675526502.590520) vcan0 2C3#5D8700FFFF095450
(1675526502.595351) vcan0 008#D0831C1803810080
(1675526502.596868) vcan0 010#000000002FB031F8
(1675526502.596947) vcan0 072#F000FF3F00788038
(1675526502.597023) vcan0 210#F6E080A0A869F145
(1675526502.598326) vcan0 260#D0FF005549A685B0
(1675526502.598413) vcan0 2A9#8C26008AC0000084
(1675526502.598564) vcan0 288#F5DFA05F00000080
(1675526502.599866) vcan0 0F5#B080AD80BF6F416E
(1675526502.599944) vcan0 120#AE80AF807FFD5589
(1675526502.600022) vcan0 130#DFFF1DAD00960712
(1675526502.600099) vcan0 150#AE00F8B7B0F795C0
(1675526502.601366) vcan0 055#B6F7FF67B3009C80
(1675526502.604388) vcan0 065#37E3F6E7008EFB01
(1675526502.604462) vcan0 070#000048A800E25B00
(1675526502.604536) vcan0 075#0000000000005458
(1675526502.604679) vcan0 080#FF4F8000C2002C00
(1675526502.604754) vcan0 0B0#39837CA200C239A3
(1675526502.604828) vcan0 145#FD82D780FCC810A1
(1675526502.604901) vcan0 28C#000020000016BE90
(1675526502.605042) vcan0 2B5#4B4B566293A64A38
(1675526502.605117) vcan0 0E0#E2734FC800806C00
(1675526502.605886) vcan0 008#D4832CEF18810080
(1675526502.608492) vcan0 581#FFFFFFFFFFFF0081
(1675526502.609867) vcan0 010#000000002FB031F9
(1675526502.610009) vcan0 1D0#0000000000000A61
(1675526502.610082) vcan0 125#E5717CE4C1D0D734
(1675526502.611528) vcan0 291#0000000000000000
(1675526502.611605) vcan0 1B0#00C0200000B02EEC
(1675526502.611684) vcan0 1B5#FF11779FD0E0FFEF
(1675526502.611761) vcan0 1D8#363339343234DB43
(1675526502.611838) vcan0 1E0#001C830300B917E0
(1675526502.611916) vcan0 400#0201020001020220
(1675526502.612066) vcan0 405#0000000000000025
(1675526502.612143) vcan0 290#0000000000000000
(1675526502.614382) vcan0 350#A200000000000080
(1675526502.614458) vcan0 072#F000FF3F0078A038
(1675526502.614536) vcan0 3B0#00D83F383EB8C400
(1675526502.615858) vcan0 008#DB833CC927810080
(1675526502.619753) vcan0 0F5#B480AD80BF73316E
(1675526502.621095) vcan0 120#AE80B4807FFE5589
(1675526502.621239) vcan0 010#000000002FB031F8
(1675526502.621312) vcan0 130#E7FF1DAE00850712
(1675526502.621387) vcan0 150#AE00F8C7AFF785C0
(1675526502.624131) vcan0 3CA#00000000550000C8
(1675526502.624207) vcan0 055#B5F7FF67B3009C80
(1675526502.624280) vcan0 065#37E3F6E7008EFB01
(1675526502.624422) vcan0 070#000049A800E25B00
(1675526502.624498) vcan0 075#0000000000005458
(1675526502.624570) vcan0 080#FF4F8000C2002C00
(1675526502.624644) vcan0 0B0#39837CA200C239A3
(1675526502.624788) vcan0 145#FD72D880FCC810A1
(1675526502.624862) vcan0 288#D9DFB04F00000080
(1675526502.624936) vcan0 0E0#E27352D000804900
(1675526502.625017) vcan0 210#F6E080A0A869F145
(1675526502.625639) vcan0 008#E0834CB427810080
(1675526502.627083) vcan0 260#D0FF005549A585B0
(1675526502.628596) vcan0 010#000000002FB031F8
(1675526502.630245) vcan0 072#F000FF3F00788038
(1675526502.630320) vcan0 125#E5687CE4C1D0D734
(1675526502.630374) vcan0 1D0#0000000000000061
(1675526502.630525) vcan0 1B0#00C0210000B02FEC
(1675526502.630603) vcan0 1B5#FF1177A0D0E0FFEF
(1675526502.630681) vcan0 1D8#363339343234DB43
(1675526502.630760) vcan0 1E0#0020734300B917E0
(1675526502.630838) vcan0 2C3#5D8700FFFF0A5450
(1675526502.635377) vcan0 008#E4835C9235810080
(1675526502.638120) vcan0 010#000000002FB031F8
(1675526502.638197) vcan0 291#0000000000000000
(1675526502.638277) vcan0 2A9#8C260082C0000084
(1675526502.639586) vcan0 0F5#B480B180BF77216E
(1675526502.639736) vcan0 120#B180B4807FFE5589
(1675526502.639813) vcan0 130#EFFF1DB100720712
(1675526502.641096) vcan0 150#B200F4D7AFF771C0
(1675526502.642747) vcan0 055#B5F7FF67B3009C80
(1675526502.642820) vcan0 065#37E3F6E7008EFB01
(1675526502.642963) vcan0 070#000049A800E25B00
(1675526502.643037) vcan0 072#F000FF3F0078A038
(1675526502.643112) vcan0 075#0000000000005458
(1675526502.643185) vcan0 080#FF4F8000C2002C00
(1675526502.643328) vcan0 0B0#39837CA200C239A3
(1675526502.643402) vcan0 145#FD62D980FCC810A1
(1675526502.645598) vcan0 28C#000020000016BE90
(1675526502.645741) vcan0 290#0000000000000000
(1675526502.645816) vcan0 0E0#E27354D800802700
(1675526502.645889) vcan0 2B5#4B4B566293A64A38
(1675526502.645973) vcan0 2C0#5D8700610300A0F1
(1675526502.646115) vcan0 2C5#00D71F0138E30070
(1675526502.646188) vcan0 340#4E00000000000000
(1675526502.646263) vcan0 3AF#0000000000000020
(1675526502.646404) vcan0 008#E9836C674B810080
(1675526502.647095) vcan0 010#000000002FB031F8
(1675526502.647239) vcan0 1D0#0000000000000061
(1675526502.647312) vcan0 210#F6E080A0A869F14D
(1675526502.648620) vcan0 288#D9DFB04F00000080
(1675526502.648693) vcan0 3C8#5D87008E882C008E
(1675526502.650136) vcan0 125#E5607CE4C1D0D734
(1675526502.650211) vcan0 1B0#00C0230000B031EC
(1675526502.650285) vcan0 1B5#FF1278A0D0E0FFEF
(1675526502.650366) vcan0 1D8#363339343234DB43
(1675526502.650518) vcan0 1E0#0024634300B917E0
(1675526502.655350) vcan0 008#ED837C4559810080
(1675526502.656877) vcan0 010#000000002FB031F8
(1675526502.656956) vcan0 072#F000FF3F00788038
(1675526502.657033) vcan0 330#2800000000000000
(1675526502.658336) vcan0 260#D0FF00AA49A485B0
(1675526502.659854) vcan0 0F5#B480B180BF7B116F
(1675526502.659932) vcan0 120#B180BA807FFE5589
(1675526502.660010) vcan0 130#F7FF1DB100620412
(1675526502.660160) vcan0 150#B200F4E7AEF761C0
(1675526502.662506) vcan0 055#B5F7FF67B3009C80
(1675526502.663883) vcan0 065#37E3F6E7008EFB01
(1675526502.663957) vcan0 070#000049A800E25B00
(1675526502.664100) vcan0 075#0000000000005458
(1675526502.664173) vcan0 080#FF4F8000C2002C00
(1675526502.664247) vcan0 0B0#39837CA200C239A3
(1675526502.665348) vcan0 145#FD52DA80FCC810A1
(1675526502.665492) vcan0 370#0724C0005A1BC700
(1675526502.665574) vcan0 0E0#E27355E000800600
(1675526502.665647) vcan0 008#F2838C3752810080
(1675526502.666886) vcan0 010#000000002FB031F8
(1675526502.666959) vcan0 1D0#0000000000000061
(1675526502.667034) vcan0 291#0000000000000000
(1675526502.669504) vcan0 125#E5557CE4C1D0D734
(1675526502.670846) vcan0 1B0#00C0240000B033EC
(1675526502.670989) vcan0 1B5#FF1278A0D1E0FFEF
(1675526502.671065) vcan0 1D8#363339343234DB43
(1675526502.671139) vcan0 1E0#0024630300B917E0
(1675526502.672377) vcan0 2C3#5D8700FFFF0A5450
(1675526502.672451) vcan0 290#0000000000000000
(1675526502.672595) vcan0 072#F000FF3F0078A038
(1675526502.672667) vcan0 210#F6E080A0A869F145
(1675526502.673838) vcan0 288#D0DFB04F00000080
(1675526502.675349) vcan0 008#F6839C1C59810080
(1675526502.676870) vcan0 010#000000002FB031F8
(1675526502.676944) vcan0 2A9#8C26009BC0000084
(1675526502.679483) vcan0 0F5#B380B480BF7F016F
(1675526502.680901) vcan0 120#B180BA807FFF5589
(1675526502.680976) vcan0 130#FFFF1DB300500412
(1675526502.681050) vcan0 150#B300F4F7ADF750C0
(1675526502.682493) vcan0 055#B5F7FF67B3009C80
(1675526502.682566) vcan0 065#38E3F6E7008EFB01
(1675526502.682708) vcan0 070#000049A800E25B00
(1675526502.682782) vcan0 075#0000000000005458
(1675526502.682856) vcan0 080#FF4F8000C2002C00
(1675526502.682931) vcan0 0B0#39837CA200C239A3
(1675526502.683074) vcan0 145#FD42DB80FCC810A1
(1675526502.683969) vcan0 28C#000020000016BE90
(1675526502.684112) vcan0 2B5#4B4B566293A64A38
(1675526502.685348) vcan0 360#5D8700D3BB64A001
(1675526502.685433) vcan0 0E0#E27354E80080E700
(1675526502.685576) vcan0 008#FD83ACF767810080
(1675526502.688114) vcan0 010#000000002FB031F9
(1675526502.688187) vcan0 072#F000FF3F00788038
(1675526502.688329) vcan0 1D0#0000000000000A61
(1675526502.688404) vcan0 260#D0FF00AA499F85B0
(1675526502.688478) vcan0 390#80FF051D020A5D4F
(1675526502.689646) vcan0 125#E54A7CE4C1D0D734
(1675526502.689721) vcan0 1B0#00C0270000B035EC
(1675526502.689795) vcan0 1B5#FF1379A0D1E0FFEF
(1675526502.689938) vcan0 1D8#363339343234DB43
(1675526502.691097) vcan0 1E0#0028534300B917E0
(1675526502.695135) vcan0 008#0484BCDF67810080
(1675526502.696580) vcan0 010#000000002FB031F8
(1675526502.696731) vcan0 210#F6E08020A869F14D
(1675526502.696808) vcan0 291#0000000000000000
(1675526502.698119) vcan0 3D0#8A0F6100340680C3
(1675526502.698198) vcan0 288#C4DFB04F00000080
(1675526502.699643) vcan0 0F5#B380B480BF43F16F
(1675526502.699721) vcan0 120#B580BE807FFF5589
(1675526502.699798) vcan0 130#87FD1DB4003F0112
(1675526502.701143) vcan0 150#B300EE07ACF740C0
(1675526502.704154) vcan0 055#B6F7FF67B3009C80
(1675526502.704229) vcan0 065#39E3F6E7018EFB01
(1675526502.704305) vcan0 070#000048A800E25B00
(1675526502.704446) vcan0 072#F000FF3F0078A038
(1675526502.704520) vcan0 075#0000000000005458
(1675526502.704595) vcan0 080#FF4F8000C2002C00
(1675526502.704669) vcan0 0B0#39837CA200C239A3
(1675526502.704741) vcan0 145#FD32DC80FCC810A1
(1675526502.704884) vcan0 290#0000000000000000
(1675526502.704958) vcan0 2C0#5D8700630300A0F1
(1675526502.705040) vcan0 0E0#E27353F00080C800
(1675526502.705115) vcan0 2C5#00D71F0139E30070
(1675526502.705257) vcan0 350#A200000000000080
(1675526502.705605) vcan0 008#0984CCBB76810080
(1675526502.707114) vcan0 010#000000002FB031F8
(1675526502.708556) vcan0 1D0#0000000000000061
(1675526502.710273) vcan0 125#E53F7CE4C1D0D734
(1675526502.710366) vcan0 1B0#00C0280000B037EC
(1675526502.710446) vcan0 1B5#FF1379A1D1E0FFEF
(1675526502.710525) vcan0 1D8#363339343234DB43
(1675526502.710602) vcan0 1E0#002C434300B917E0
(1675526502.710681) vcan0 2C3#5D8700FFFF0A5450
(1675526502.715368) vcan0 008#0D84DCA07D810080
(1675526502.718110) vcan0 260#D0FF00AA49A285B0
(1675526502.718188) vcan0 010#000000002FB031F8
(1675526502.719637) vcan0 072#F000FF3F00788038
(1675526502.719722) vcan0 2A9#8C260082C0000084
(1675526502.719800) vcan0 0F5#AF80B780BF47E16F
(1675526502.719878) vcan0 120#B580BE807FFF5589
(1675526502.719956) vcan0 130#8FFD1DB5002E0112
(1675526502.721097) vcan0 150#B300ED17ABF730C0
(1675526502.724116) vcan0 055#B6F7FF67B3009C80
(1675526502.724260) vcan0 065#3AE3F6E7008EFB01
(1675526502.724333) vcan0 070#000048A800E25B00
(1675526502.724406) vcan0 075#0000000000005458
(1675526502.724482) vcan0 080#FF4F8000C2002C00
(1675526502.724626) vcan0 0B0#39837CA200C239A3
(1675526502.724699) vcan0 145#FD22DD80FCC810A1
(1675526502.724773) vcan0 210#F6E080A0A869F14D
(1675526502.724848) vcan0 28C#000020000016BE90
(1675526502.724922) vcan0 288#B4DFC03F00000080
(1675526502.725063) vcan0 0E0#E27353F80080A800
(1675526502.725146) vcan0 2B5#4B4B566293A64A38
(1675526502.725221) vcan0 340#4E00000000000000
(1675526502.725638) vcan0 008#1484EC8284810080
(1675526502.727079) vcan0 010#000000002FB031F8
(1675526502.728592) vcan0 1D0#0000000000000061
(1675526502.728667) vcan0 291#0000000000000000
(1675526502.728809) vcan0 125#E5317CE4C1D0D734
(1675526502.730114) vcan0 1B0#00C02A0000B03AEC
(1675526502.730186) vcan0 1B5#FF147AA1D1E0FFEF
(1675526502.730262) vcan0 1D8#363339343234DB43
(1675526502.730368) vcan0 1E0#002C430300B917E0
(1675526502.731604) vcan0 290#0000000000000000
(1675526502.731681) vcan0 072#F000FF3F0078A038
(1675526502.733143) vcan0 3B0#00FC3F3C3EB8C400
(1675526502.735728) vcan0 008#1B84FC559A810080
(1675526502.737101) vcan0 010#000000002FB031F8
(1675526502.738629) vcan0 330#2800000000000000
(1675526502.740075) vcan0 0F5#AF80B780BF4BD16F
(1675526502.740226) vcan0 120#B280BF807FFF5589
(1675526502.740303) vcan0 130#97FA1DB5001E0112
(1675526502.740382) vcan0 150#B300E827AAF720C0
(1675526502.740458) vcan0 3CA#00000000560000C8
(1675526502.741627) vcan0 055#B6F7FF67B3009C80
(1675526502.741702) vcan0 065#3AE3F6E7008EFA01
(1675526502.743076) vcan0 070#000048A800E25B00
(1675526502.743219) vcan0 075#0000000000005458
(1675526502.743292) vcan0 080#FF4F8000C2002C00
(1675526502.743366) vcan0 0B0#39837CA200C239A3
(1675526502.743509) vcan0 145#FD12DE80FCC810A1
(1675526502.744610) vcan0 0E0#E27354C000808700
(1675526502.746122) vcan0 008#24840C1FB7810080
(1675526502.747631) vcan0 010#000000002FB031F8
(1675526502.747715) vcan0 072#F000FF3F00788038
(1675526502.747789) vcan0 1D0#0000000000000061
(1675526502.747862) vcan0 210#F6E080A0A869F145
(1675526502.748007) vcan0 260#D0FF0055499F85B0
(1675526502.749108) vcan0 288#B4DFC03F00000080
(1675526502.749181) vcan0 125#E5237CE4C1D0D734
(1675526502.750589) vcan0 1B0#00C02D0000B03DEC
(1675526502.750737) vcan0 1B5#FF147AA1D1E0FFEF
(1675526502.750817) vcan0 1D8#363339343234DB43
(1675526502.750895) vcan0 1E0#0030334300B917E0
(1675526502.750972) vcan0 2C3#5D8700FFFF0A5450
(1675526502.755730) vcan0 008#2D841C06B7810080
(1675526502.757103) vcan0 010#000000002FB031F8
(1675526502.758695) vcan0 291#0000000000000000
(1675526502.758773) vcan0 2A9#8C26009BC0000084
(1675526502.760076) vcan0 0F5#A980B880BF4FC16F
(1675526502.760248) vcan0 120#B280BF807FFF5589
(1675526502.760348) vcan0 130#9FF71DB5000E0112
(1675526502.760424) vcan0 150#B300E837A9F710C0
(1675526502.761597) vcan0 055#B6F7FF67B3009C80
(1675526502.761739) vcan0 065#3AE3F6E7008EFA01
(1675526502.764619) vcan0 070#000048A800E25B00
(1675526502.764762) vcan0 072#F000FF3F0078A038
(1675526502.764836) vcan0 075#0000000000005458
(1675526502.764911) vcan0 080#FF4F8000C2002C00
(1675526502.764984) vcan0 0B0#39837CA200C239A3
(1675526502.765057) vcan0 145#FD02DF80FCC810A1
(1675526502.765202) vcan0 28C#000020000016BE90
(1675526502.765275) vcan0 290#0000000000000000
(1675526502.765349) vcan0 0E0#E27354C800806700
(1675526502.765423) vcan0 2B5#4B4B566293A64A38
(1675526502.765565) vcan0 2C0#5D8700630300A0F1
(1675526502.765649) vcan0 2C5#00D71F0139E30070
(1675526502.765722) vcan0 370#0724C0005A1BC700
(1675526502.766140) vcan0 3AF#0000000000000020
(1675526502.766216) vcan0 3E0#000000D937808090
(1675526502.766289) vcan0 008#36842CC9DB810080
(1675526502.767596) vcan0 010#000000002FB031F9
(1675526502.767671) vcan0 1D0#0000000000000A61
(1675526502.769184) vcan0 3C8#5D87008E882C008E
(1675526502.769256) vcan0 125#E5127CE4C1D0D734
(1675526502.770625) vcan0 1B0#00C02F0001B040EC
(1675526502.770700) vcan0 1B5#FF147BA1D2E0FFEF
(1675526502.770844) vcan0 1D8#363339343234DB43
(1675526502.770917) vcan0 1E0#0034234300B917E0
(1675526502.772086) vcan0 210#F6E080A0A869F14D
(1675526502.773598) vcan0 288#BCDFC03F00000080
(1675526502.775111) vcan0 008#3F843C94F7810080
(1675526502.776565) vcan0 010#000000002FB031F8
(1675526502.778077) vcan0 072#F000FF3F00788038
(1675526502.778220) vcan0 260#D0FF005549A085B0
(1675526502.779594) vcan0 0F5#A980B880BF53B16F
(1675526502.779668) vcan0 120#AF80BA807FFF5589
(1675526502.779811) vcan0 130#A7F71DB500FEFF11
(1675526502.781097) vcan0 150#B000EA47A8F703C0
(1675526502.784055) vcan0 055#B6F7FF67B3009C80
(1675526502.784132) vcan0 065#3CE3F6E7018EFB01
(1675526502.785364) vcan0 070#000048A800E25B00
(1675526502.785514) vcan0 075#0000000000005458
(1675526502.785591) vcan0 080#FE4F8000C2002C00
(1675526502.785669) vcan0 0B0#39837DA200C239A3
(1675526502.785746) vcan0 145#FDF2D080FCC810A1
(1675526502.785825) vcan0 360#5D8700D3BB64A001
(1675526502.785902) vcan0 0E0#E27355D000804600
(1675526502.786062) vcan0 008#48844C561B820080
(1675526502.788158) vcan0 010#000000002FB031F8
(1675526502.788236) vcan0 1D0#0000000000000061
(1675526502.788312) vcan0 291#0000000000000000
(1675526502.788390) vcan0 390#80FF051D02065E6F
(1675526502.789621) vcan0 125#E5FF7BE4C1D0D734
(1675526502.789699) vcan0 1B0#00C0310000B043EC
(1675526502.789849) vcan0 1B5#FF157BA1D2E0FFEF
(1675526502.789927) vcan0 1D8#363339343234DB43
(1675526502.791123) vcan0 1E0#0034230300B917E0
(1675526502.791197) vcan0 2C3#5D8700FFFF0A5450
(1675526502.792644) vcan0 290#0000000000000000
(1675526502.792716) vcan0 072#F000FF3F0078A038
(1675526502.794093) vcan0 350#A200000000000080
(1675526502.795604) vcan0 008#54845C074E820080
(1675526502.797117) vcan0 010#000000002FB031F8
(1675526502.797206) vcan0 210#F6E080A0A869F145
(1675526502.797280) vcan0 2A9#8C260082C0000084
(1675526502.798586) vcan0 288#BCDFC03F00000080
(1675526502.800099) vcan0 0F5#A980B380BF57A16F
(1675526502.800310) vcan0 120#AF80BA807FFE5589
(1675526502.800373) vcan0 130#AFF41DB500EEFF11
(1675526502.800454) vcan0 150#B000EC57A6F7F3C0
(1675526502.801610) vcan0 055#B6F7FF67B3009C80
(1675526502.801688) vcan0 065#3DE3F6E7018EFB01
(1675526502.803352) vcan0 070#000048A800E25B00
(1675526502.803430) vcan0 075#0000000000005458
(1675526502.803506) vcan0 080#FD4F8000C2002C00
(1675526502.803584) vcan0 0B0#39837DA200C239A3
(1675526502.803661) vcan0 145#FDE2D180FCC810A1
(1675526502.803812) vcan0 28C#000020000016BE90
(1675526502.803889) vcan0 2B5#4B4B566293A64A38
(1675526502.803976) vcan0 340#4E00000000000000
(1675526502.806071) vcan0 0E0#E27356D800802500
(1675526502.806221) vcan0 008#61846CB880820080
(1675526502.807596) vcan0 260#D0FF0055499D85B0
(1675526502.807671) vcan0 010#000000002FB031F8
(1675526502.807822) vcan0 072#F000FF3F00788038
(1675526502.807899) vcan0 1D0#0000000000000061
(1675526502.809144) vcan0 125#E5E67BE4C1D0D734
(1675526502.810636) vcan0 1B0#00C0340001B047EC
(1675526502.810709) vcan0 1B5#FF157BA2D2E0FFEF
(1675526502.810784) vcan0 1D8#363339343234DB43
(1675526502.810926) vcan0 1E0#0038134300B917E0
(1675526502.815789) vcan0 008#6F847C6FAB820080
(1675526502.818258) vcan0 010#000000002FB031F8
(1675526502.819634) vcan0 291#0000000000000000
(1675526502.819708) vcan0 330#2800000000000000
(1675526502.821095) vcan0 0F5#A380B380BF5B916F
(1675526502.821174) vcan0 120#AC80B5807FFE5589
(1675526502.821322) vcan0 130#B7F21DB500DEFF11
(1675526502.821401) vcan0 150#AB00EA67A5F7E8C0
(1675526502.824144) vcan0 055#B6F7FF67B3009C80
(1675526502.824221) vcan0 065#3DE3F5E7008EFA01
(1675526502.824298) vcan0 070#000048A800E25B00
(1675526502.824376) vcan0 075#0000000000005458
(1675526502.824453) vcan0 080#FD4F8000C2002C00
(1675526502.824603) vcan0 072#F000FF3F0078A038
(1675526502.824680) vcan0 0B0#39837DA2FFC139A3
(1675526502.824758) vcan0 145#FDD2D280FCC810A1
(1675526502.824837) vcan0 210#F4E080A0A869F145
(1675526502.824915) vcan0 288#C8DFD02F00000080
(1675526502.824992) vcan0 0E0#E27358E000800300
(1675526502.825067) vcan0 290#0000000000000000
(1675526502.825227) vcan0 2C0#5D8700610300A0F1
(1675526502.825594) vcan0 2C5#00D71F013CE30070
(1675526502.825743) vcan0 008#7D848C09F3820080
(1675526502.827118) vcan0 010#000000002FB031F8
(1675526502.828637) vcan0 1D0#0000000000000061
(1675526502.828714) vcan0 125#E5CA7BE4C1D0D734
(1675526502.830090) vcan0 1B0#00C0350001B04AEC
(1675526502.830241) vcan0 1B5#FF167CA2D2E0FFEF
(1675526502.830319) vcan0 1D8#363339343234DB43
(1675526502.830418) vcan0 1E0#003C034300B917E0
(1675526502.830561) vcan0 2C3#5D8700FFFF0A5450
(1675526502.835226) vcan0 008#8A849CB826830080
(1675526502.836601) vcan0 010#000000002FB031F8
(1675526502.838113) vcan0 072#F000FF3F00788038
(1675526502.838187) vcan0 2A9#8C26008AC0000084
(1675526502.838330) vcan0 260#D0FF00AA499E85B0
(1675526502.839577) vcan0 0F5#A380B080BF5F816F
(1675526502.839722) vcan0 120#AC80B5807FFF5589
(1675526502.839795) vcan0 130#BFEF1DB500CEFF11
(1675526502.841090) vcan0 150#AB00EE77A4F7D8C0
(1675526502.844123) vcan0 055#B6F7FF67B3009C80
(1675526502.844202) vcan0 065#3DE3F5E7008EFA01
(1675526502.844277) vcan0 070#000048A800E25B00
(1675526502.844428) vcan0 075#0000000000005458
(1675526502.844504) vcan0 080#FD4F8000C2002C00
(1675526502.844582) vcan0 0B0#39837DA2FFC139A3
(1675526502.844660) vcan0 145#FDC2D380FCC810A1
(1675526502.844739) vcan0 28C#000020000016BE91
(1675526502.844816) vcan0 2B5#4B4B576293A64A36
(1675526502.844965) vcan0 0E0#E2735AE80080E100
(1675526502.845620) vcan0 008#9A84AC6658830080
(1675526502.847138) vcan0 010#000000002FB031F9
(1675526502.847226) vcan0 1D0#0000000000000A61
(1675526502.847305) vcan0 210#F4E08020A869F14D
(1675526502.847382) vcan0 291#0000000000000000
(1675526502.848611) vcan0 288#C8DFD02F00000080
(1675526502.848689) vcan0 125#E5AD7BE4C1D0D734
(1675526502.850136) vcan0 1B0#00C0360001B04DEC
(1675526502.850212) vcan0 1B5#FF167CA2D3E0FFEF
(1675526502.850291) vcan0 1D8#363339343234DB43
(1675526502.850370) vcan0 1E0#003C030300B917E0
(1675526502.851610) vcan0 290#0000000000000000
(1675526502.851683) vcan0 072#F000FF3F0078A038
(1675526502.853141) vcan0 3B0#00D83F383EB8C400
(1675526502.855729) vcan0 008#AA84BC0599830080
(1675526502.857104) vcan0 010#000000002FB031F8
(1675526502.858617) vcan0 400#0300030D0D010121
(1675526502.858691) vcan0 405#D507C29B48186701
(1675526502.860074) vcan0 0F5#9F80AA80BF63716F
(1675526502.860217) vcan0 120#AC80AC807FFF5589
(1675526502.860290) vcan0 130#C7EC1DB500BEFF11
(1675526502.860373) vcan0 150#A600EE87A2F7CDC0
(1675526502.860525) vcan0 3CA#00000000400000C8
(1675526502.861609) vcan0 055#B6F7FF67B3009C80
(1675526502.861688) vcan0 065#3CE3F4E7008EF901
(1675526502.864647) vcan0 070#000048A800E25B00
(1675526502.864725) vcan0 075#0000000000005458
(1675526502.864804) vcan0 080#FD4F8000C2002C00
(1675526502.864880) vcan0 0B0#39837DA2FFC139A3
(1675526502.865031) vcan0 145#FDB2D480FCC810A1
(1675526502.865108) vcan0 370#0724C0005A1BC700
(1675526502.865185) vcan0 0E0#E2735BF00080C000
(1675526502.866128) vcan0 008#BF84CC9FDA830080
(1675526502.867576) vcan0 010#000000002FB031F8
(1675526502.867743) vcan0 072#F000FF3F00788038
(1675526502.867821) vcan0 1D0#0000000000000061
(1675526502.867900) vcan0 260#D0FF00AA499C85B0
(1675526502.869136) vcan0 125#E58B7BE4C1D0D734
(1675526502.870641) vcan0 1B0#00C0370001B050EC
(1675526502.870715) vcan0 1B5#FF177DA2D3E0FFEF
(1675526502.870788) vcan0 1D8#363339343234DB43
(1675526502.870931) vcan0 1E0#0000F34300B917E0
(1675526502.871006) vcan0 2C3#5D8700FFFF0A5450
(1675526502.872106) vcan0 210#F4E080A0A869F145
(1675526502.873617) vcan0 288#D5DFD02F00000080
(1675526502.875060) vcan0 008#CE84DC3E1B840080
(1675526502.876642) vcan0 010#000000002FB031F8
(1675526502.876715) vcan0 291#0000000000000000
(1675526502.878091) vcan0 2A9#8C260093C0000084
(1675526502.879602) vcan0 0F5#9F80AA80BF67616F
(1675526502.879684) vcan0 120#A480AC807F005689
(1675526502.879829) vcan0 130#CFEC1DAC00B7FA11
(1675526502.881092) vcan0 150#A400F397A0F7BFC0
(1675526502.884123) vcan0 055#B6F7FF67B3009C80
(1675526502.884200) vcan0 065#3BE3F4E7008EF901
(1675526502.884351) vcan0 070#000048A800E25B00
(1675526502.884428) vcan0 072#F000FF3F0078A038
(1675526502.884506) vcan0 075#0000000000005458
(1675526502.884582) vcan0 080#FE4F8000C2002C00
(1675526502.884662) vcan0 0B0#39837DA200C239A3
(1675526502.884811) vcan0 145#FDA2D580FCC810A1
(1675526502.884889) vcan0 28C#000020000016BE91
(1675526502.884965) vcan0 290#0000000000000000
(1675526502.885042) vcan0 0E0#E2735FF800809C00
(1675526502.885121) vcan0 2B5#4B4B566293A64A37
(1675526502.885199) vcan0 2C0#5D8700650300A0F1
(1675526502.887086) vcan0 2C5#00D71F013DE30070
(1675526502.887237) vcan0 340#4E00000000000000
(1675526502.887314) vcan0 350#A200000000000080
(1675526502.887393) vcan0 360#5D8700D2BB64A001
(1675526502.887469) vcan0 3AF#0000000000000020
(1675526502.887548) vcan0 008#E384ECD95B840080
(1675526502.887698) vcan0 010#000000002FB031F8
(1675526502.887775) vcan0 1D0#0000000000000061
(1675526502.887852) vcan0 390#80FF051D02025F4F
(1675526502.888651) vcan0 3C8#5D87008E882C008E
