(1675525746.657864) vcan0 1D8#363339343234DF43
(1675525746.660130) vcan0 1E0#0008D34300B917E0
(1675525746.660273) vcan0 290#0000000000000000
(1675525746.660349) vcan0 2C0#528700000000A0F1
(1675525746.660422) vcan0 2C5#31E78BD778E60070
(1675525746.660495) vcan0 008#7880747423800080
(1675525746.660639) vcan0 010#008800002FB031F8
(1675525746.660714) vcan0 210#15E080A0A869CC45
(1675525746.660788) vcan0 291#0000000000000000
(1675525746.660861) vcan0 2A9#8C26008AC0000084
(1675525746.661670) vcan0 0E0#627305E800803600
(1675525746.664391) vcan0 072#F000FF3F00788038
(1675525746.665906) vcan0 0F5#1E9921997F53B273
(1675525746.667420) vcan0 120#41993D997FFC5589
(1675525746.667497) vcan0 130#A7071E331967FF11
(1675525746.667580) vcan0 150#1F19EE47EBF77BC0
(1675525746.668918) vcan0 125#E5DA7FE4C1D0D735
(1675525746.668993) vcan0 288#C8DFC03F00000080
(1675525746.669069) vcan0 008#7880845532800080
(1675525746.670411) vcan0 010#008800002FB031F9
(1675525746.670484) vcan0 1D0#0000000000000261
(1675525746.674391) vcan0 055#F4F72428B2D89C80
(1675525746.675912) vcan0 065#74E624F8FECD6302
(1675525746.675987) vcan0 070#00000AF863E21500
(1675525746.678924) vcan0 075#0000000000005458
(1675525746.679002) vcan0 080#5F508000C2002C00
(1675525746.679077) vcan0 0B0#398318A3E2C139A3
(1675525746.679152) vcan0 145#F9A2D580FC4810A1
(1675525746.679226) vcan0 1B0#00C0000001B000FC
(1675525746.679301) vcan0 1B5#FF189CB20BE0FFEF
(1675525746.679443) vcan0 1D8#363339343234DF43
(1675525746.679527) vcan0 1E0#0008D30300B917E0
(1675525746.679601) vcan0 28C#000000000016FEA9
(1675525746.679675) vcan0 2B5#4BA5276293A68275
(1675525746.679819) vcan0 2C3#528700FFFF905450
(1675525746.679904) vcan0 340#9A00000000000000
(1675525746.679979) vcan0 008#7680944732800080
(1675525746.680421) vcan0 010#008800002FB031F8
(1675525746.680497) vcan0 072#F000FF3F0078A038
(1675525746.680570) vcan0 330#2800000000000000
(1675525746.681909) vcan0 0E0#627307F000801400
(1675525746.683405) vcan0 260#D0FF0055497487B0
(1675525746.684906) vcan0 210#15E080A0A869CC4D
(1675525746.686390) vcan0 290#0000000000000000
(1675525746.687849) vcan0 0F5#1E9924997F57A275
(1675525746.687925) vcan0 120#2E9958997FFE5589
(1675525746.688067) vcan0 130#AF071E331957FF11
(1675525746.688154) vcan0 150#2119EC57EBF769C0
(1675525746.688226) vcan0 125#E5DA7FE4C1D0D735
(1675525746.689334) vcan0 008#7680A42940800080
(1675525746.689492) vcan0 010#008800002FB031F8
(1675525746.690829) vcan0 1D0#0000000000000061
(1675525746.690989) vcan0 291#0000000000000000
(1675525746.692391) vcan0 288#D0DFD02F00000080
(1675525746.693821) vcan0 072#F000FF3F00788038
(1675525746.695460) vcan0 055#F4F72428B2DA9C80
(1675525746.696999) vcan0 065#77E624F800CE6302
(1675525746.697104) vcan0 070#00000AF864E21500
(1675525746.697251) vcan0 075#0000000000005458
(1675525746.697325) vcan0 080#60508000C2002C00
(1675525746.697400) vcan0 0B0#398318A3E2C139A3
(1675525746.697473) vcan0 145#F992D680FC4810A1
(1675525746.697615) vcan0 1B0#00C0000001B000FC
(1675525746.697700) vcan0 1B5#FF28ACBA13E0FFEF
(1675525746.698450) vcan0 1D8#363339343234DF43
(1675525746.698547) vcan0 1E0#000CC34300B917E0
(1675525746.698623) vcan0 370#0720C0007B1BC71F
(1675525746.698781) vcan0 008#7680B40356800080
(1675525746.701664) vcan0 010#008800002FB031F8
(1675525746.701739) vcan0 2A9#8C260082C0000084
(1675525746.703140) vcan0 0E0#627309F80080F200
(1675525746.705957) vcan0 0F5#1C9921997F5B9277
(1675525746.707422) vcan0 120#319943997FF75589
(1675525746.707497) vcan0 130#B7071E331947FF11
(1675525746.707573) vcan0 150#1E19F067EBF75CC0
(1675525746.707716) vcan0 3CA#00000000560000C8
(1675525746.708916) vcan0 125#E5DD7FE4C1D0D735
(1675525746.708992) vcan0 008#7480C4F556800080
(1675525746.710422) vcan0 010#008800002FB031F8
(1675525746.710508) vcan0 072#F000FF3F0078A038
(1675525746.710582) vcan0 1D0#0000000000000061
(1675525746.710657) vcan0 210#15E080A0A869CC45
(1675525746.714411) vcan0 260#D0FF0055497487B0
(1675525746.715917) vcan0 055#F4F72428B2DA9C80
(1675525746.715995) vcan0 065#78E624F802CE6402
(1675525746.716069) vcan0 070#00000AF864E21500
(1675525746.718919) vcan0 075#0000000000005458
(1675525746.718993) vcan0 080#60508000C2002C00
(1675525746.719069) vcan0 0B0#398318A3E2C139A3
(1675525746.719144) vcan0 145#F982D780FC4810A1
(1675525746.719287) vcan0 1B0#00C0000001B000FC
(1675525746.719361) vcan0 1B5#FF38BDC21CE0FFEF
(1675525746.719434) vcan0 1D8#363339343234DF43
(1675525746.719507) vcan0 1E0#0010B34300B917E0
(1675525746.719652) vcan0 28C#000000000016FEA9
(1675525746.719736) vcan0 288#CCDFD02F00000080
(1675525746.719813) vcan0 290#0000000000000000
(1675525746.719886) vcan0 008#7480D4FB40800080
(1675525746.720501) vcan0 2B5#4BA5276293A68275
