(1675526569.730511) vcan0 120#BF8183827FD75589
(1675526569.730567) vcan0 130#A7071E34027D2312
(1675526569.731854) vcan0 150#8C02C245EFF325C0
(1675526569.734878) vcan0 260#D0FF0055490785B0
(1675526569.735020) vcan0 0E0#E273C2D00080D900
(1675526569.735095) vcan0 055#D6F70D28B22D9C80
(1675526569.735168) vcan0 065#90E342F8008E2B02
(1675526569.735243) vcan0 070#000028F808E25B00
(1675526569.735317) vcan0 075#0000000000005458
(1675526569.735459) vcan0 080#24508000C2002C00
(1675526569.735535) vcan0 0B0#0584A8A2F3C105A4
(1675526569.735608) vcan0 145#FDF2D080FCC810A1
(1675526569.736368) vcan0 008#FBAA44FD1B820080
(1675526569.737880) vcan0 125#E5BF55E4C1D0D735
(1675526569.739329) vcan0 010#000000002FB031F8
(1675526569.739472) vcan0 1D0#0000000000000061
(1675526569.739546) vcan0 210#DBDB8020A869F045
(1675526569.739622) vcan0 291#0000000000000000
(1675526569.740859) vcan0 1B0#00C0000002B000EC
(1675526569.741001) vcan0 1B5#FF8B07E11BE0FFEF
(1675526569.741076) vcan0 1D8#363339343234DA43
(1675526569.741150) vcan0 1E0#0034230300B917E0
(1675526569.741224) vcan0 288#2DD9609F00000080
(1675526569.742376) vcan0 2C3#5D8700FFFF0B5450
(1675526569.743896) vcan0 072#F000FF3F0088A038
(1675526569.743973) vcan0 290#0000000000000000
(1675526569.746501) vcan0 350#A200000000000080
(1675526569.747876) vcan0 008#FBAA548C7D810080
(1675526569.749395) vcan0 010#000000002FB031F8
(1675526569.749474) vcan0 2A9#8C260093C0000084
(1675526569.750859) vcan0 0F5#4382F2827F57A280
(1675526569.750936) vcan0 120#C5818D827FD45589
(1675526569.751086) vcan0 130#AF071E43025E2612
(1675526569.751163) vcan0 150#9702BB55F8F30AC0
(1675526569.753550) vcan0 0E0#E273D0D80080AB00
(1675526569.756361) vcan0 055#D6F70D28B22D9C80
(1675526569.756505) vcan0 065#90E343F8008E2B02
(1675526569.756579) vcan0 070#000028F809E25B00
(1675526569.756653) vcan0 075#0000000000005458
(1675526569.756727) vcan0 080#24508000C2002C00
(1675526569.756872) vcan0 0B0#0584A8A2F3C105A4
(1675526569.756944) vcan0 145#FDE2D180FCC810A1
(1675526569.757018) vcan0 28C#000020000016FE52
(1675526569.757092) vcan0 2B5#4B53006293A6495E
(1675526569.757235) vcan0 340#5000000000000000
(1675526569.757308) vcan0 370#2724C0005A1BC735
(1675526569.757392) vcan0 008#02AB6C7200800080
(1675526569.757876) vcan0 125#E5B155E4C1D0D735
(1675526569.759389) vcan0 010#000000002FB031F8
(1675526569.759462) vcan0 072#F000FF3F00888038
(1675526569.759536) vcan0 1D0#0000000000000061
(1675526569.760842) vcan0 1B0#00C0000002B000EC
(1675526569.760985) vcan0 1B5#FF8C08E21CE0FFEF
(1675526569.761060) vcan0 1D8#363339343234DA43
(1675526569.761135) vcan0 1E0#0038134300B917E0
(1675526569.762381) vcan0 260#D0FF0055490385B0
(1675526569.763891) vcan0 210#DBDB80A0A869F04D
(1675526569.766499) vcan0 288#3DD9609F00000080
(1675526569.767873) vcan0 008#0BAB7C1940800080
(1675526569.769383) vcan0 010#000000002FB031F8
(1675526569.769458) vcan0 291#0000000000000000
(1675526569.769531) vcan0 330#2800000000000000
(1675526569.770848) vcan0 0F5#4F82FE827F5B9281
(1675526569.770992) vcan0 120#B38190827FD55589
(1675526569.771065) vcan0 130#B70A1E4902482012
(1675526569.771140) vcan0 150#A002C46501F4F1C0
(1675526569.772375) vcan0 0E0#E273E1E000807A00
(1675526569.775408) vcan0 055#D6F70D28B22D9C80
(1675526569.775486) vcan0 065#90E344F8008E2B02
(1675526569.775562) vcan0 070#000028F808E25B00
(1675526569.775640) vcan0 072#F000FF3F0088A038
(1675526569.775790) vcan0 075#0000000000005458
(1675526569.775868) vcan0 080#24508000C2002C00
(1675526569.775945) vcan0 0B0#0584A8A2F3C105A4
(1675526569.776024) vcan0 145#FDD2D280FCC810A1
(1675526569.776100) vcan0 290#0000000000000000
(1675526569.776252) vcan0 2C0#5D8700A70100A0F1
(1675526569.776329) vcan0 2C5#01D72F2691E30070
(1675526569.776415) vcan0 360#5D8700D2BF64A001
(1675526569.776855) vcan0 008#19AB8C96A5800080
(1675526569.778373) vcan0 010#000000002FB031F8
(1675526569.778452) vcan0 1D0#0000000000000061
(1675526569.778600) vcan0 125#E59B55E4C1D0D735
(1675526569.778680) vcan0 390#80FF051D021E584F
(1675526569.781061) vcan0 1B0#00C0000002B000EC
(1675526569.782393) vcan0 1B5#FF8D0AE31DE0FFEF
(1675526569.782467) vcan0 1D8#363339343234DA43
(1675526569.782610) vcan0 1E0#003C034300B917E0
(1675526569.782685) vcan0 2C3#5D8700FFFF0B5450
(1675526569.786320) vcan0 008#29AB9C0218810080
(1675526569.787626) vcan0 010#000000002FB031F8
(1675526569.789142) vcan0 072#F000FF3F00888038
(1675526569.789212) vcan0 210#DBDB80A0A869F045
(1675526569.789286) vcan0 2A9#8C26008AC0000084
(1675526569.790602) vcan0 0F5#518207837F5F8281
(1675526569.790745) vcan0 120#B581A4827FDC5589
(1675526569.790819) vcan0 130#BF0A1E5102302312
(1675526569.790893) vcan0 150#A902B97507F4D8C0
(1675526569.792161) vcan0 288#19D9609F00000080
