(1675526489.060475) vcan0 075#0000000000005458
(1675526489.060529) vcan0 080#ED4F8000C2002C00
(1675526489.060604) vcan0 0B0#39830EA3DAC139A3
(1675526489.060678) vcan0 125#E59380E4C1D0D735
(1675526489.060819) vcan0 145#F9C2D380FC4810A1
(1675526489.060892) vcan0 1B0#00C0000001B000FC
(1675526489.060977) vcan0 1B5#FF83D454F8E0FFEF
(1675526489.061050) vcan0 1D8#363339343234E043
(1675526489.061134) vcan0 1E0#0028534300B917E0
(1675526489.061268) vcan0 010#000000002FB031F8
(1675526489.061342) vcan0 072#F000FF3F00788038
(1675526489.061827) vcan0 1D0#0000000000000861
(1675526489.061900) vcan0 210#7CE080A0A869E645
(1675526489.062044) vcan0 28C#000020000014FEA9
(1675526489.062118) vcan0 2B5#4BF94C6293A68315
(1675526489.063294) vcan0 008#3D80B01200800080
(1675526489.067195) vcan0 0F5#879080907F6372FA
(1675526489.068568) vcan0 120#A29099907F085689
(1675526489.068719) vcan0 130#C7FA1D9F10C4FF11
(1675526489.068797) vcan0 150#8110288823F8E2C0
(1675526489.071253) vcan0 010#000000002FB031F9
(1675526489.071332) vcan0 291#0000000000000000
(1675526489.071418) vcan0 425#0000000000000000
(1675526489.073746) vcan0 0E0#627338F80080C300
(1675526489.075055) vcan0 008#3D80C00200800080
(1675526489.075129) vcan0 072#F000FF3F0078A038
(1675526489.077670) vcan0 055#EAF7F827B21D9C80
(1675526489.077813) vcan0 065#6CE6F7F7FEBDF201
(1675526489.077887) vcan0 070#000014F8F4E12000
(1675526489.080359) vcan0 075#0000000000005458
(1675526489.080432) vcan0 080#ED4F8000C2002C00
(1675526489.080507) vcan0 0B0#39830EA3DAC139A3
(1675526489.080580) vcan0 125#E59380E4C1D0D735
(1675526489.080723) vcan0 145#F9B2D480FC4810A1
(1675526489.080797) vcan0 1B0#00C0000001B000FC
(1675526489.080870) vcan0 1B5#FF8EDF59FDE0FFEF
(1675526489.080943) vcan0 1D8#363339343234E043
(1675526489.085682) vcan0 1E0#002C434300B917E0
(1675526489.085770) vcan0 260#D0FF0055497487B0
(1675526489.085920) vcan0 010#000000002FB031F8
(1675526489.085998) vcan0 1D0#0000000000000261
(1675526489.086077) vcan0 288#78E0D02F00000080
(1675526489.086154) vcan0 290#0000000000000000
(1675526489.086232) vcan0 2C0#5D8700000000A0F1
(1675526489.086382) vcan0 2C3#5D8700FFFFB85450
(1675526489.086460) vcan0 2C5#00CF86C06DE60070
(1675526489.086537) vcan0 370#1722C0005F1BC735
(1675526489.086616) vcan0 3E0#000000D933808090
(1675526489.086693) vcan0 008#3D80D0F200800080
(1675526489.086844) vcan0 210#7CE080A0A869E64D
(1675526489.088219) vcan0 0F5#799075907F6762FB
(1675526489.089594) vcan0 120#9F9083907F025689
(1675526489.089673) vcan0 130#CFFA1D9F10B4FF11
(1675526489.089751) vcan0 150#7C10269823F8D7C0
(1675526489.091061) vcan0 010#000000002FB031F8
(1675526489.091211) vcan0 072#F000FF3F00788038
(1675526489.091288) vcan0 2A9#8C260093C0000084
(1675526489.093690) vcan0 0E0#627337C00080A400
(1675526489.093834) vcan0 008#3D80E0E200800080
(1675526489.095073) vcan0 360#5E8700D2B364A001
(1675526489.097681) vcan0 055#EAF7F827B21D9C80
(1675526489.097824) vcan0 065#61E6F7F7F9BDF301
(1675526489.097899) vcan0 070#000014F8F4E12000
(1675526489.100574) vcan0 075#0000000000005458
(1675526489.100649) vcan0 080#ED4F8000C2002C00
(1675526489.100791) vcan0 0B0#39830EA3DAC139A3
(1675526489.100865) vcan0 125#E59380E4C1D0D735
(1675526489.100939) vcan0 145#F9A2D580FC4810A1
(1675526489.101013) vcan0 1B0#00C0000002B000FC
(1675526489.101156) vcan0 1B5#FF99EA5E03E0FFEF
(1675526489.101238) vcan0 1D8#363339343234E043
(1675526489.101313) vcan0 1E0#002C430300B917E0
(1675526489.101388) vcan0 28C#000020000014FEA8
(1675526489.101461) vcan0 010#000000002FB031F8
(1675526489.101603) vcan0 1D0#0000000000000061
(1675526489.103228) vcan0 291#0000000000000000
(1675526489.103306) vcan0 2B5#4BF94C6293A68315
(1675526489.103383) vcan0 340#9700000000000000
(1675526489.103534) vcan0 390#80FF051D02025F4F
(1675526489.103612) vcan0 008#3F80F0D000800080
(1675526489.104555) vcan0 288#85E0D02F00000080
(1675526489.107226) vcan0 072#F000FF3F0078A038
(1675526489.107305) vcan0 3B0#00D836383AB0C400
(1675526489.107383) vcan0 290#0000000000000000
(1675526489.108613) vcan0 260#D0FF00AA497487B0
(1675526489.108691) vcan0 0F5#799070907F6B52FD
(1675526489.108778) vcan0 120#9D909A907F035689
(1675526489.108856) vcan0 130#D7FA1D9410AFFD11
(1675526489.108933) vcan0 150#721028A823F8D1C0
(1675526489.111244) vcan0 3CA#00000000510000C8
(1675526489.111322) vcan0 010#000000002FB031F8
(1675526489.111399) vcan0 210#7CE080A0A869E64D
(1675526489.111477) vcan0 330#9200000000000000
(1675526489.111554) vcan0 3D0#8D0F6100340680C3
(1675526489.113737) vcan0 0E0#627338C800808300
(1675526489.115112) vcan0 008#3F8000C000800080
(1675526489.115187) vcan0 430#28082800000014A6
(1675526489.117731) vcan0 055#EAF7F827B21D9C80
(1675526489.117800) vcan0 065#61E6F8F7FCBDF401
(1675526489.117874) vcan0 070#000014F8F4E12000
(1675526489.120552) vcan0 075#0000000000005458
(1675526489.120693) vcan0 080#ED4F8000C2002C00
(1675526489.120778) vcan0 0B0#39830EA3DAC139A3
(1675526489.120853) vcan0 125#E59380E4C1D0D735
(1675526489.120927) vcan0 145#F992D680FC4810A1
(1675526489.121070) vcan0 1B0#00C0000001B000FC
(1675526489.121143) vcan0 1B5#FFA3F46408E0FFEF
(1675526489.121217) vcan0 1D8#363339343234E043
(1675526489.121290) vcan0 1E0#0030334300B917E0
(1675526489.121433) vcan0 2C3#5D8700FFFFB85450
(1675526489.121507) vcan0 010#000000002FB031F8
(1675526489.121581) vcan0 072#F000FF3F00788038
(1675526489.121655) vcan0 1D0#0000000000000061
(1675526489.123225) vcan0 008#3F8010B000800080
(1675526489.124600) vcan0 350#A200000000000080
(1675526489.127201) vcan0 0F5#7B906C907F6F42FE
(1675526489.128576) vcan0 120#949096907F005689
(1675526489.128655) vcan0 130#DFFA1D94109FF711
(1675526489.128742) vcan0 150#74102CB823F8BFC0
(1675526489.131199) vcan0 288#85E0D02F00000080
(1675526489.131275) vcan0 010#000000002FB031F8
(1675526489.132587) vcan0 291#0000000000000000
(1675526489.132666) vcan0 2A9#8C26008AC0000084
(1675526489.135195) vcan0 0E0#62733AD000806100
(1675526489.135272) vcan0 008#3F8020A000800080
(1675526489.135423) vcan0 072#F000FF3F0078A038
(1675526489.135499) vcan0 210#7CE080A0A869E645
(1675526489.137669) vcan0 260#D0FF00AA497487B0
(1675526489.140557) vcan0 055#EAF7F827B21D9C80
(1675526489.140709) vcan0 065#5DE6F9F7FCBDF601
(1675526489.140786) vcan0 070#000014F8F4E12000
(1675526489.140864) vcan0 075#0000000000005458
(1675526489.140942) vcan0 080#ED4F8000C2002C00
(1675526489.141019) vcan0 0B0#39830EA3DAC139A3
(1675526489.141117) vcan0 125#E59380E4C1D0D735
(1675526489.141194) vcan0 145#F982D780FC4810A1
(1675526489.141344) vcan0 1B0#00C0000000B000FC
(1675526489.141421) vcan0 1B5#FFAEFF690DE0FFEF
(1675526489.141499) vcan0 010#000000002FB031F8
(1675526489.141577) vcan0 1D0#0000000000000861
(1675526489.141655) vcan0 1D8#363339343234E043
(1675526489.141805) vcan0 1E0#0034234300B917E0
(1675526489.143381) vcan0 28C#000020000014FEA8
(1675526489.143455) vcan0 290#0000000000000000
(1675526489.143529) vcan0 2B5#4BF94C6293A68318
(1675526489.143603) vcan0 2C0#5D8700000000A0F1
(1675526489.143747) vcan0 2C5#00CF86C061E60070
(1675526489.143822) vcan0 3AF#0000000000000020
(1675526489.143896) vcan0 008#3F80309000800080
(1675526489.148422) vcan0 0F5#80906C907F7332FF
(1675526489.148505) vcan0 120#999078907F045689
(1675526489.148579) vcan0 130#E7FA1D94108FF711
(1675526489.149819) vcan0 150#71102CC823F8B2C0
(1675526489.151332) vcan0 010#000000002FB031F9
(1675526489.151406) vcan0 072#F000FF3F00788038
(1675526489.153951) vcan0 0E0#62733DD800803E00
(1675526489.154027) vcan0 008#3F80408000800080
(1675526489.155331) vcan0 288#85E0E01F00000080
(1675526489.157934) vcan0 055#EAF7F827B21D9C80
(1675526489.158011) vcan0 065#66E6F9F704BEF601
(1675526489.158088) vcan0 070#000014F8F4E12000
(1675526489.158239) vcan0 075#0000000000005458
(1675526489.158316) vcan0 080#ED4F8000C2002C00
(1675526489.160845) vcan0 0B0#39830EA3DAC139A3
(1675526489.160924) vcan0 125#E59380E4C1D0D735
(1675526489.161001) vcan0 145#F972D880FC4810A1
(1675526489.161087) vcan0 1B0#00C0000000B000FC
(1675526489.161166) vcan0 1B5#FFB90A6E12E0FFEF
(1675526489.161244) vcan0 1D8#363339343234E043
(1675526489.161392) vcan0 1E0#0034230300B917E0
(1675526489.161470) vcan0 2C3#5D8700FFFFB85450
(1675526489.161547) vcan0 010#000000002FB031F8
(1675526489.161626) vcan0 1D0#0000000000000261
(1675526489.161703) vcan0 210#7CE08020A869E64D
(1675526489.161781) vcan0 291#0000000000000000
(1675526489.163542) vcan0 3C8#5D87008E882C008E
(1675526489.163615) vcan0 008#3F80507000800080
(1675526489.165952) vcan0 072#F000FF3F0078A038
(1675526489.167328) vcan0 290#0000000000000000
(1675526489.167402) vcan0 260#D0FF00AA497487B0
(1675526489.169944) vcan0 0F5#72906C907F772201
(1675526489.170017) vcan0 120#A29076907F065689
(1675526489.170102) vcan0 130#EFFA1D94107FF711
(1675526489.170245) vcan0 150#72102AD823F8A1C0
(1675526489.170318) vcan0 010#000000002FB031F8
(1675526489.171352) vcan0 2A9#8C260093C0000084
(1675526489.173950) vcan0 0E0#62733CE000801F00
(1675526489.174027) vcan0 008#3F80606000800080
(1675526489.176413) vcan0 055#EAF7F827B21D9C80
(1675526489.177861) vcan0 065#6AE6F9F704BEF501
(1675526489.177938) vcan0 070#000014F8F4E12000
(1675526489.178017) vcan0 075#0000000000005458
(1675526489.181983) vcan0 080#ED4F8000C2002C00
(1675526489.182061) vcan0 0B0#39830EA3DAC139A3
(1675526489.182140) vcan0 125#E59680E4C1D0D735
(1675526489.182217) vcan0 145#F962D980FC4810A1
(1675526489.182367) vcan0 1B0#00C0000002B000FC
(1675526489.182445) vcan0 1B5#FFC3147418E0FFEF
(1675526489.182551) vcan0 1D8#363339343234E043
(1675526489.182627) vcan0 1E0#0038134300B917E0
(1675526489.182701) vcan0 288#8DE0E01F00000080
(1675526489.182776) vcan0 010#000000002FB031F8
(1675526489.182919) vcan0 072#F000FF3F00788038
(1675526489.182992) vcan0 1D0#0000000000000061
(1675526489.183066) vcan0 28C#000020000014FEA8
(1675526489.183211) vcan0 2B5#4BF94C6293A68219
(1675526489.183285) vcan0 340#9700000000000000
(1675526489.183428) vcan0 370#1722C0005F1BC735
(1675526489.183501) vcan0 008#3F80705000800080
(1675526489.185905) vcan0 210#7CE080A0A869E64D
(1675526489.188447) vcan0 0F5#769070907F7B1202
(1675526489.189822) vcan0 120#9D9087907F055689
(1675526489.189897) vcan0 130#F7FA1D94106FF711
(1675526489.190040) vcan0 150#6F102DE823F894C0
(1675526489.191286) vcan0 010#000000002FB031F8
(1675526489.191429) vcan0 291#0000000000000000
(1675526489.191502) vcan0 330#9200000000000000
(1675526489.193937) vcan0 0E0#62733EE80080FD00
(1675526489.194015) vcan0 008#3F80804000800080
(1675526489.195317) vcan0 072#F000FF3F0078A038
(1675526489.195467) vcan0 360#5E8700D2B364A001
(1675526489.197927) vcan0 055#EAF7F827B21D9C80
(1675526489.198005) vcan0 065#6EE6F9F704BEF501
(1675526489.198155) vcan0 070#000014F8F4E12000
(1675526489.198232) vcan0 075#0000000000005458
(1675526489.198311) vcan0 080#ED4F8000C2002C00
(1675526489.200551) vcan0 0B0#39830EA3DAC139A3
(1675526489.200627) vcan0 125#E59680E4C1D0D735
(1675526489.200777) vcan0 145#F952DA80FC4810A1
(1675526489.200855) vcan0 1B0#00C0000001B000FC
(1675526489.200942) vcan0 1B5#FFCE1F791DE0FFEF
(1675526489.201019) vcan0 1D8#363339343234E043
(1675526489.201097) vcan0 1E0#003C034300B917E0
(1675526489.204466) vcan0 260#D0FF0055497487B0
(1675526489.204540) vcan0 290#0000000000000000
(1675526489.204615) vcan0 010#000000002FB031F8
(1675526489.204758) vcan0 1D0#0000000000000061
(1675526489.204831) vcan0 2C0#5D8700000000A0F1
(1675526489.204906) vcan0 2C3#5D8700FFFFB85450
(1675526489.204980) vcan0 2C5#00CF86C06DE60070
(1675526489.205122) vcan0 390#80FF051D023A514F
(1675526489.205197) vcan0 008#3F8090220E800080
(1675526489.205271) vcan0 288#8DE0E01F00000080
(1675526489.206920) vcan0 0F5#789069907F7F0203
(1675526489.208296) vcan0 120#9C9089907F055689
(1675526489.208439) vcan0 130#FFFA1D94105FFA11
(1675526489.210922) vcan0 150#6E102AF824F885C0
(1675526489.211065) vcan0 010#000000002FB031F8
(1675526489.211138) vcan0 072#F000FF3F00788038
(1675526489.211211) vcan0 210#7CE080A0A869E645
(1675526489.211284) vcan0 2A9#8C26008AC0000084
(1675526489.213444) vcan0 0E0#62733FF00080DC00
(1675526489.214822) vcan0 008#3F80A0120E800080
(1675526489.214900) vcan0 350#A200000000000080
(1675526489.217428) vcan0 055#EAF7F827B21D9C80
(1675526489.217505) vcan0 065#6CE6F8F700BEF301
(1675526489.221402) vcan0 070#000014F8F4E12000
(1675526489.221551) vcan0 075#0000000000005458
(1675526489.221630) vcan0 080#ED4F8000C2002C00
(1675526489.221707) vcan0 0B0#39830EA3DAC139A3
(1675526489.221786) vcan0 125#E59680E4C1D0D735
(1675526489.221863) vcan0 145#F942DB80FC4810A1
(1675526489.221950) vcan0 1B0#00C0000001B000FC
(1675526489.222100) vcan0 1B5#FFD92A7E22E0FFEF
(1675526489.222177) vcan0 1D8#363339343234E043
(1675526489.222255) vcan0 1E0#003C030300B917E0
(1675526489.222331) vcan0 28C#000020000014FEA8
(1675526489.222409) vcan0 2B5#4BF94C6293A68215
(1675526489.222561) vcan0 581#FFFFFFFFFFFF0081
(1675526489.222843) vcan0 010#000000002FB031F8
(1675526489.222917) vcan0 1D0#0000000000000861
(1675526489.222990) vcan0 291#0000000000000000
(1675526489.223133) vcan0 400#0101010101590108
(1675526489.223208) vcan0 405#0000000000000000
(1675526489.224311) vcan0 008#4180B0000E800080
(1675526489.226918) vcan0 072#F000FF3F0078A038
(1675526489.227061) vcan0 3B0#00FC45383AB0C400
(1675526489.228298) vcan0 290#0000000000000000
(1675526489.228451) vcan0 260#D0FF0055497487B0
(1675526489.228525) vcan0 0F5#7D906F907F43F205
(1675526489.228599) vcan0 120#9F9080907F075689
(1675526489.228672) vcan0 130#87FA1D94104FFF11
(1675526489.229840) vcan0 150#6E10280824F875C0
(1675526489.229915) vcan0 3CA#00000000520000C8
(1675526489.229989) vcan0 288#7CE0E01F00000080
(1675526489.232456) vcan0 010#000000002FB031F9
(1675526489.233802) vcan0 0E0#627344F80080B700
(1675526489.233951) vcan0 008#4180C0DB23800080
(1675526489.236410) vcan0 210#7DE080A0A869E645
(1675526489.237859) vcan0 055#EAF7F827B21D9C80
(1675526489.237936) vcan0 065#64E6F8F7FDBDF201
(1675526489.238014) vcan0 070#000014F8F4E12000
(1675526489.238091) vcan0 075#0000000000005458
(1675526489.241989) vcan0 080#ED4F8000C2002C00
(1675526489.242075) vcan0 0B0#39830EA3DAC139A3
(1675526489.242154) vcan0 125#E59980E4C1D0D735
(1675526489.242231) vcan0 145#F932DC80FC4810A1
(1675526489.242310) vcan0 1B0#00C0000001B000FC
(1675526489.242386) vcan0 1B5#FFE4348428E0FFEF
(1675526489.242539) vcan0 1D8#363339343234E043
(1675526489.242614) vcan0 1E0#0000F34300B917E0
(1675526489.242687) vcan0 2C3#5D8700FFFFB95450
(1675526489.242762) vcan0 010#000000002FB031F8
(1675526489.242904) vcan0 072#F000FF3F00788038
(1675526489.242979) vcan0 1D0#0000000000000261
(1675526489.243326) vcan0 008#4180D0CB23800080
(1675526489.247445) vcan0 0F5#6D9061907F47E206
(1675526489.248820) vcan0 120#949078907F055689
(1675526489.248893) vcan0 130#8FFA1D8A1049FD11
(1675526489.249036) vcan0 150#6B10281824F868C0
(1675526489.251379) vcan0 010#000000002FB031F8
(1675526489.251522) vcan0 291#0000000000000000
(1675526489.251597) vcan0 2A9#8C260082C0000084
(1675526489.252799) vcan0 0E0#627342C000809900
(1675526489.255402) vcan0 008#4480E0A932800080
(1675526489.255480) vcan0 288#85E0F00F00000080
(1675526489.255630) vcan0 072#F000FF3F0078A038
(1675526489.257944) vcan0 055#EAF7F927B21D9C80
(1675526489.260832) vcan0 065#5DE6F7F7F9BDF201
(1675526489.260911) vcan0 070#000014F8F4E12000
(1675526489.261060) vcan0 075#0000000000005458
(1675526489.261142) vcan0 080#EE4F8000C2002C00
(1675526489.261216) vcan0 0B0#39830EA3DAC139A3
(1675526489.261293) vcan0 125#E59C80E4C1D0D735
(1675526489.261371) vcan0 145#F922DD80FC4810A1
(1675526489.261521) vcan0 1B0#00C0000002B000FC
(1675526489.261607) vcan0 1B5#FFEE3F892DE0FFEF
(1675526489.261685) vcan0 1D8#363339343234E043
(1675526489.261763) vcan0 1E0#0004E34300B917E0
(1675526489.261841) vcan0 260#D0FF0055497487B0
(1675526489.261917) vcan0 010#000000002FB031F8
(1675526489.262068) vcan0 1D0#0000000000000061
(1675526489.262145) vcan0 210#7DE080A0A869E645
(1675526489.263546) vcan0 28C#000020000014FEA8
(1675526489.263689) vcan0 290#0000000000000000
(1675526489.263762) vcan0 2B5#4BF94C6293A68216
(1675526489.263835) vcan0 2C0#5D8700000000A0F1
(1675526489.263910) vcan0 2C5#00CF86C06DE60070
(1675526489.264052) vcan0 340#9700000000000000
(1675526489.264126) vcan0 3AF#0000000000000020
(1675526489.264201) vcan0 008#4680F09732800080
(1675526489.267287) vcan0 0F5#66905E907F4BD207
(1675526489.271203) vcan0 120#8D907D907F065689
(1675526489.271277) vcan0 130#97FA1D7E1045F711
(1675526489.271351) vcan0 150#62102A2824F861C0
(1675526489.271426) vcan0 010#000000002FB031F8
(1675526489.271569) vcan0 072#F000FF3F00788038
(1675526489.271642) vcan0 330#9200000000000000
(1675526489.273652) vcan0 0E0#627347C800807400
(1675526489.275102) vcan0 008#4680007940800080
(1675526489.277702) vcan0 055#EAF7F927B21D9C80
(1675526489.277779) vcan0 065#5BE6F8F7FCBDF401
(1675526489.277857) vcan0 070#000014F8F4E12000
(1675526489.279161) vcan0 075#0000000000005458
(1675526489.279312) vcan0 080#EE4F8000C2002C00
(1675526489.279389) vcan0 0B0#39830EA3DAC139A3
(1675526489.279465) vcan0 125#E59E80E4C1D0D735
(1675526489.279546) vcan0 145#F912DE80FC4810A1
(1675526489.279642) vcan0 1B0#00C0000001B000FC
(1675526489.279720) vcan0 1B5#FFF94A8E32E0FFEF
(1675526489.283228) vcan0 1D8#363339343234E043
(1675526489.283301) vcan0 1E0#0004E30300B917E0
(1675526489.283377) vcan0 010#000000002FB031F8
(1675526489.283519) vcan0 1D0#0000000000000061
(1675526489.283594) vcan0 288#8DE0F00F00000080
(1675526489.283666) vcan0 291#0000000000000000
(1675526489.283740) vcan0 2C3#5D8700FFFFB95450
(1675526489.283884) vcan0 370#1722C0005F1BC735
(1675526489.283958) vcan0 3C8#5D87008E882C008E
(1675526489.284032) vcan0 008#4880105156800080
(1675526489.285680) vcan0 072#F000FF3F0078A038
(1675526489.287055) vcan0 210#7DE080A0A869E64D
(1675526489.287197) vcan0 290#0000000000000000
(1675526489.288572) vcan0 260#D0FF0055497487B0
(1675526489.288656) vcan0 0F5#60905B907F4FC209
(1675526489.288800) vcan0 120#819078907F055689
(1675526489.288874) vcan0 130#9FFA1D7E1035F111
(1675526489.288947) vcan0 150#61102D3824F852C0
(1675526489.290049) vcan0 010#000000002FB031F8
(1675526489.290190) vcan0 2A9#8C26009BC0000084
(1675526489.292660) vcan0 0E0#62734CD000804F00
(1675526489.294038) vcan0 008#4B80203064800080
(1675526489.295559) vcan0 360#5E8700D2B364A001
(1675526489.299672) vcan0 055#EAF7F927B21D9C80
(1675526489.299750) vcan0 065#56E6F9F7FCBDF601
(1675526489.299899) vcan0 070#000014F8F4E12000
(1675526489.299976) vcan0 075#0000000000005458
(1675526489.300054) vcan0 080#EE4F8000C2002C00
(1675526489.300132) vcan0 0B0#39830EA3DAC139A3
(1675526489.300210) vcan0 125#E5A180E4C1D0D735
(1675526489.300305) vcan0 145#F902DF80FC4810A1
(1675526489.300383) vcan0 1B0#00C0000001B000FC
(1675526489.300534) vcan0 1B5#FF04549438E0FFEF
(1675526489.300612) vcan0 1D8#363339343234E043
(1675526489.303731) vcan0 1E0#0008D34300B917E0
(1675526489.303805) vcan0 28C#000020000014FEA8
(1675526489.303880) vcan0 010#000000002FB031F8
(1675526489.304021) vcan0 072#F000FF3F00788038
(1675526489.304096) vcan0 1D0#0000000000000861
(1675526489.304169) vcan0 2B5#4BF94C6293A68218
(1675526489.304244) vcan0 390#80FF051D023A514F
(1675526489.304387) vcan0 008#4D80302C56800080
(1675526489.305078) vcan0 350#A200000000000080
(1675526489.305153) vcan0 288#85E0F00F00000080
(1675526489.307625) vcan0 0F5#6A9059907F53B20A
(1675526489.309070) vcan0 120#8F9072907F055689
(1675526489.309154) vcan0 130#A7FD1D7E1025EF11
(1675526489.309298) vcan0 150#5F102C4824F844C0
(1675526489.311631) vcan0 010#000000002FB031F9
(1675526489.311775) vcan0 210#7DE08020A869E64D
(1675526489.311850) vcan0 291#0000000000000000
(1675526489.311923) vcan0 3D0#8D0F6100340680C3
(1675526489.313089) vcan0 0E0#62734AD800803100
(1675526489.313168) vcan0 008#4F80400C64800080
(1675526489.315697) vcan0 072#F000FF3F0078A038
(1675526489.318154) vcan0 055#EAF7F927B21D9C80
(1675526489.320970) vcan0 065#5AE6FAF700BEF701
(1675526489.321049) vcan0 070#000014F8F4E12000
(1675526489.321141) vcan0 075#0000000000005458
(1675526489.321205) vcan0 080#EE4F8000C2002C00
(1675526489.321354) vcan0 0B0#39830EA3DAC139A3
(1675526489.321431) vcan0 125#E5A680E4C1D0D735
(1675526489.321519) vcan0 145#F9F2D080FC4810A1
(1675526489.321597) vcan0 1B0#00C0000001B000FC
(1675526489.321674) vcan0 1B5#FF0F5F993DE0FFEF
(1675526489.321752) vcan0 1D8#363339343234E043
(1675526489.321902) vcan0 1E0#000CC34300B917E0
(1675526489.321979) vcan0 010#000000002FB031F8
(1675526489.322057) vcan0 1D0#0000000000000261
(1675526489.322133) vcan0 260#D0FF00AA497487B0
(1675526489.322283) vcan0 290#0000000000000000
(1675526489.323541) vcan0 2C0#5D8700000000A0F1
(1675526489.323615) vcan0 2C3#5D8700FFFFB95450
(1675526489.323758) vcan0 2C5#00CF86C056E60070
(1675526489.323833) vcan0 008#4F8050ED73800080
(1675526489.327332) vcan0 0F5#669056907F57A20B
(1675526489.328708) vcan0 120#969078907F0A5689
(1675526489.328782) vcan0 130#AFFA1D7E1015EF11
(1675526489.328866) vcan0 150#6010305825F833C0
(1675526489.331273) vcan0 288#8DE0F00F00000080
(1675526489.331347) vcan0 010#000000002FB031F8
(1675526489.331490) vcan0 072#F000FF3F00788038
(1675526489.331563) vcan0 2A9#8C260082C0000084
(1675526489.332712) vcan0 0E0#627346E000801500
(1675526489.335316) vcan0 008#518060F15D800080
(1675526489.335393) vcan0 210#7DE080A0A869E645
(1675526489.337706) vcan0 055#EAF7F927B21D9C80
(1675526489.340597) vcan0 065#60E6FAF705BEF701
(1675526489.340675) vcan0 070#000014F8F4E12000
(1675526489.340753) vcan0 075#0000000000005458
(1675526489.340902) vcan0 080#ED4F8000C2002C00
(1675526489.340980) vcan0 0B0#39830EA3DAC139A3
(1675526489.341058) vcan0 125#E5A980E4C1D0D735
(1675526489.341136) vcan0 145#F9E2D180FC4810A1
(1675526489.341223) vcan0 1B0#00C0000002B000FC
(1675526489.341301) vcan0 1B5#FF196A9E42E0FFEF
(1675526489.341451) vcan0 1D8#363339343234E043
(1675526489.341529) vcan0 1E0#000CC30300B917E0
(1675526489.341606) vcan0 28C#000020000014FEA8
(1675526489.341683) vcan0 010#000000002FB031F8
(1675526489.341833) vcan0 1D0#0000000000000061
(1675526489.341912) vcan0 291#0000000000000000
(1675526489.343190) vcan0 2B5#4BF94C6293A68219
(1675526489.343268) vcan0 340#9700000000000000
(1675526489.343418) vcan0 008#518070E15D800080
(1675526489.345657) vcan0 072#F000FF3F0078A038
(1675526489.347031) vcan0 3B0#00D8453C3AB0C400
(1675526489.347181) vcan0 290#0000000000000000
(1675526489.351219) vcan0 260#D0FF00AA497487B0
(1675526489.351297) vcan0 0F5#5F9056907F5B920D
(1675526489.351384) vcan0 120#8C9079907F045689
(1675526489.351462) vcan0 130#B7FA1D7E1005F111
(1675526489.351540) vcan0 150#5A10306825F829C0
(1675526489.351617) vcan0 3CA#00000000530000C8
(1675526489.351768) vcan0 010#000000002FB031F8
(1675526489.351845) vcan0 330#9200000000000000
(1675526489.353667) vcan0 0E0#627345E80080F600
(1675526489.355041) vcan0 008#518080CA64800080
(1675526489.355184) vcan0 288#8DE000FF00000080
(1675526489.357792) vcan0 055#EAF7F927B21D9C80
(1675526489.360537) vcan0 065#63E6F9F702BEF501
(1675526489.360680) vcan0 070#000014F8F4E12000
(1675526489.360755) vcan0 075#0000000000005458
(1675526489.360827) vcan0 080#ED4F8000C2002C00
(1675526489.360971) vcan0 0B0#39830EA3DAC139A3
(1675526489.361045) vcan0 125#E5A980E4C1D0D735
(1675526489.361136) vcan0 145#F9D2D280FC4810A1
(1675526489.361204) vcan0 1B0#00C0000001B000FC
(1675526489.361278) vcan0 1B5#FF2474A447E0FFEF
(1675526489.361420) vcan0 010#000000002FB031F8
(1675526489.361494) vcan0 072#F000FF3F00788038
(1675526489.361568) vcan0 1D0#0000000000000061
(1675526489.363218) vcan0 1D8#363339343234E043
(1675526489.363297) vcan0 1E0#0010B34300B917E0
(1675526489.363374) vcan0 210#7DE080A0A869E64D
(1675526489.363451) vcan0 2C3#5D8700FFFFB95450
(1675526489.363529) vcan0 008#548090B764800080
(1675526489.366991) vcan0 0F5#679056907F5F820E
(1675526489.368295) vcan0 120#89906C907F045689
(1675526489.368447) vcan0 130#BFFA1D7E10F5F711
(1675526489.370902) vcan0 150#5B102D7826F818C0
(1675526489.371052) vcan0 010#000000002FB031F8
(1675526489.371138) vcan0 291#0000000000000000
(1675526489.371218) vcan0 2A9#8C26009BC0000084
(1675526489.373486) vcan0 0E0#627344F00080D700
(1675526489.374792) vcan0 008#5480A0A764800080
(1675526489.374935) vcan0 072#F000FF3F0078A038
(1675526489.377406) vcan0 055#EAF7F827B21D9C80
(1675526489.377479) vcan0 065#66E6F9F703BEF401
(1675526489.380364) vcan0 070#000014F8F4E12000
(1675526489.380438) vcan0 075#0000000000005458
(1675526489.380513) vcan0 080#ED4F8000C2002C00
(1675526489.380587) vcan0 0B0#39830EA3DAC139A3
(1675526489.380728) vcan0 125#E5AC80E4C1D0D735
(1675526489.380804) vcan0 145#F9C2D380FC4810A1
(1675526489.380877) vcan0 1B0#00C0000001B000FC
(1675526489.380952) vcan0 1B5#FF2F7FA94DE0FFEF
(1675526489.381094) vcan0 1D8#363339343234E043
(1675526489.381177) vcan0 1E0#0014A34300B917E0
(1675526489.381252) vcan0 260#D0FF00AA497487B0
(1675526489.381326) vcan0 010#000000002FB031F8
(1675526489.381469) vcan0 1D0#0000000000000861
(1675526489.383157) vcan0 288#91E000FF00000080
(1675526489.383235) vcan0 28C#000020000014FEA8
(1675526489.383385) vcan0 290#0000000000000000
(1675526489.383463) vcan0 2B5#4BF94C6293A68216
(1675526489.383541) vcan0 2C0#5D8700000000A0F1
(1675526489.383618) vcan0 2C5#00CF86C061E60070
(1675526489.383696) vcan0 370#1722C0005F1BC735
(1675526489.383846) vcan0 3AF#0000000000000020
(1675526489.383924) vcan0 3E0#000000D933808090
(1675526489.384003) vcan0 008#5480B0AC4F800080
(1675526489.385521) vcan0 210#7DE080A0A869E64D
(1675526489.389418) vcan0 0F5#669053907F63720F
(1675526489.389506) vcan0 120#92906F907F095689
(1675526489.389584) vcan0 130#C7FA1D7E10E5FD11
(1675526489.389662) vcan0 150#5B102E8827F808C0
(1675526489.390965) vcan0 010#000000002FB031F9
(1675526489.391044) vcan0 072#F000FF3F00788038
(1675526489.393455) vcan0 0E0#627345F80080B600
(1675526489.393530) vcan0 008#5680C0A940800080
(1675526489.394835) vcan0 350#A200000000000080
(1675526489.394911) vcan0 360#5E8700D2B364A001
(1675526489.397449) vcan0 055#EAF7F927B21E9C80
(1675526489.400333) vcan0 065#5DE6F8F7FCBDF201
(1675526489.400407) vcan0 070#000014F8F4E12000
(1675526489.400550) vcan0 075#0000000000005458
(1675526489.400625) vcan0 080#EE4F8000C2002C00
(1675526489.400700) vcan0 0B0#39830EA3DAC139A3
(1675526489.400773) vcan0 125#E5AC80E4C1D0D735
(1675526489.400856) vcan0 145#F9B2D480FC4810A1
(1675526489.401000) vcan0 1B0#00C0000001B000FC
(1675526489.401075) vcan0 1B5#FF3989AE52E0FFEF
(1675526489.401149) vcan0 1D8#363339343234E043
(1675526489.401222) vcan0 1E0#0014A30300B917E0
(1675526489.401364) vcan0 2C3#5D8700FFFFBA5450
(1675526489.401438) vcan0 010#000000002FB031F8
(1675526489.401854) vcan0 1D0#0000000000000261
(1675526489.401928) vcan0 291#0000000000000000
(1675526489.402002) vcan0 390#80FF051D0232536F
(1675526489.402146) vcan0 3C8#5D87008E882C008E
(1675526489.403304) vcan0 008#5680D09940800080
(1675526489.405905) vcan0 288#99E000FF00000080
(1675526489.406055) vcan0 072#F000FF3F0078A038
(1675526489.407284) vcan0 290#0000000000000000
(1675526489.410031) vcan0 260#D0FF0055497487B0
(1675526489.410121) vcan0 0F5#60904A907F676211
(1675526489.410272) vcan0 120#89906D907F085689
(1675526489.410349) vcan0 130#CFFA1D7910DAFD11
(1675526489.410427) vcan0 150#5E102C9827F8F5C0
(1675526489.410504) vcan0 010#000000002FB031F8
(1675526489.410583) vcan0 210#7DE080A0A869E645
(1675526489.413931) vcan0 2A9#8C260082C0000084
(1675526489.414006) vcan0 0E0#627343C000809800
(1675526489.414148) vcan0 008#5680E08940800080
(1675526489.416552) vcan0 055#EAF7F927B2209C80
(1675526489.417860) vcan0 065#59E6F8F7FCBDF201
(1675526489.417935) vcan0 070#000014F8F5E12000
(1675526489.418010) vcan0 075#0000000000005458
(1675526489.421987) vcan0 080#EF4F8000C2002C00
(1675526489.422060) vcan0 0B0#39830EA3DAC139A3
(1675526489.422136) vcan0 125#E5AF80E4C1D0D735
(1675526489.422234) vcan0 145#F9A2D580FC4810A1
(1675526489.422308) vcan0 1B0#00C0000002B000FC
(1675526489.422452) vcan0 1B5#FF4494B357E0FFEF
(1675526489.422526) vcan0 1D8#363339343234E043
(1675526489.422576) vcan0 1E0#0018934300B917E0
(1675526489.422730) vcan0 28C#000020000014FEA8
(1675526489.422807) vcan0 2B5#4BF94C6293A68216
(1675526489.422884) vcan0 010#000000002FB031F8
(1675526489.422963) vcan0 072#F000FF3F00788038
(1675526489.423041) vcan0 1D0#0000000000000061
(1675526489.423190) vcan0 340#9700000000000000
(1675526489.423340) vcan0 008#5680F08732800080
(1675526489.427164) vcan0 0F5#56904A907F6B5212
(1675526489.428542) vcan0 120#6F9060907F085689
(1675526489.428692) vcan0 130#D7FA1D7010D3FA11
(1675526489.428771) vcan0 150#511030A828F8F2C0
(1675526489.431162) vcan0 288#99E000FF00000080
(1675526489.431312) vcan0 010#000000002FB031F8
(1675526489.431389) vcan0 291#0000000000000000
(1675526489.431467) vcan0 330#9500000000000000
(1675526489.433730) vcan0 0E0#627343C800807800
(1675526489.435037) vcan0 008#5880007532800080
(1675526489.435186) vcan0 072#F000FF3F0078A038
(1675526489.435264) vcan0 210#7DE080A0A869E645
(1675526489.437720) vcan0 055#EAF7F927B2229C80
(1675526489.437798) vcan0 065#53E6F8F7FABDF301
(1675526489.437876) vcan0 070#000014F8F6E12000
(1675526489.440330) vcan0 075#0000000000005458
(1675526489.440408) vcan0 080#F04F8000C2002C00
(1675526489.440486) vcan0 0B0#39830EA3DAC139A3
(1675526489.440563) vcan0 125#E5AF80E4C1D0D735
(1675526489.440714) vcan0 145#F992D680FC4810A1
(1675526489.440875) vcan0 1B0#00C0000001B000FC
(1675526489.440952) vcan0 1B5#FF4F9FB95DE0FFEF
(1675526489.441031) vcan0 1D8#363339343234E043
(1675526489.443102) vcan0 1E0#001C834300B917E0
(1675526489.443178) vcan0 260#D0FF0055497487B0
(1675526489.443251) vcan0 010#000000002FB031F8
(1675526489.443393) vcan0 1D0#0000000000000061
(1675526489.443467) vcan0 290#0000000000000000
(1675526489.443541) vcan0 2C0#5D8700000000A0F1
(1675526489.443617) vcan0 2C3#5D8700FFFFBA5450
(1675526489.443758) vcan0 2C5#00D785C156E60070
(1675526489.443834) vcan0 008#5880106532800080
(1675526489.446923) vcan0 0F5#55904D907F6F4213
(1675526489.448299) vcan0 120#679066907F095689
(1675526489.448440) vcan0 130#DFFA1D6F10C4F411
(1675526489.450981) vcan0 150#521031B829F8E1C0
(1675526489.451065) vcan0 010#000000002FB031F8
(1675526489.451139) vcan0 072#F000FF3F00788038
(1675526489.451212) vcan0 2A9#8C26008AC0000084
(1675526489.453447) vcan0 0E0#627343D000805800
(1675526489.454826) vcan0 008#5880206B1C800080
(1675526489.454904) vcan0 288#95E010EF00000080
(1675526489.457505) vcan0 055#EAF7FA27B2279C81
(1675526489.457656) vcan0 065#50E6F9F7FDBDF501
(1675526489.460040) vcan0 070#000014F8F7E12000
(1675526489.460191) vcan0 075#0000000000005458
(1675526489.460268) vcan0 080#F24F8000C2002C00
(1675526489.460345) vcan0 0B0#39830EA3DAC139A3
(1675526489.460424) vcan0 125#E5AF80E4C1D0D735
(1675526489.460502) vcan0 145#F982D780FC4810A1
(1675526489.460650) vcan0 1B0#00C0000000B000FC
(1675526489.460728) vcan0 1B5#FF59A9BE62E0FFEF
(1675526489.463921) vcan0 1D8#363339343234E043
(1675526489.464063) vcan0 1E0#001C830300B917E0
(1675526489.464139) vcan0 28C#000020000014FEA8
(1675526489.464212) vcan0 010#000000002FB031F8
(1675526489.464286) vcan0 1D0#0000000000000861
(1675526489.464429) vcan0 210#7DE08020A869E645
(1675526489.464503) vcan0 291#0000000000000000
(1675526489.464577) vcan0 2B5#4BF94C6293A6821A
(1675526489.464651) vcan0 008#5880305B1C800080
(1675526489.465343) vcan0 072#F000FF3F0078A038
(1675526489.465417) vcan0 3B0#00D845383AB0C400
(1675526489.467958) vcan0 290#0000000000000000
(1675526489.468031) vcan0 260#D0FF0055497487B0
(1675526489.468175) vcan0 0F5#589043907F733215
(1675526489.469345) vcan0 120#839067907F085689
(1675526489.469419) vcan0 130#E7FD1D6710BCEF11
(1675526489.469503) vcan0 150#4E1030C829F8D5C0
(1675526489.469646) vcan0 3CA#00000000540000C8
(1675526489.470818) vcan0 010#000000002FB031F9
(1675526489.470961) vcan0 400#2401100101010309
(1675526489.471035) vcan0 405#D507569E48186701
(1675526489.473450) vcan0 0E0#627344D800803700
(1675526489.473527) vcan0 008#588040590E800080
(1675526489.477210) vcan0 055#EAF7FB27B2299C80
(1675526489.480099) vcan0 065#56E6FAF702BEF801
(1675526489.480177) vcan0 070#000014F8F8E12000
(1675526489.480255) vcan0 075#0000000000005458
(1675526489.480331) vcan0 080#F34F8000C2002C00
(1675526489.480481) vcan0 0B0#39830EA3DAC139A3
(1675526489.480559) vcan0 125#E5AF80E4C1D0D735
(1675526489.480636) vcan0 145#F972D880FC4810A1
(1675526489.480714) vcan0 1B0#00C0000001B000FC
(1675526489.480802) vcan0 1B5#FF64B4C367E0FFEF
(1675526489.480880) vcan0 1D8#363339343234E043
(1675526489.481031) vcan0 1E0#0020734300B917E0
(1675526489.481109) vcan0 288#95E010EF00000080
(1675526489.481547) vcan0 010#000000002FB031F8
(1675526489.481697) vcan0 072#F000FF3F00788038
(1675526489.481775) vcan0 1D0#0000000000000261
(1675526489.481853) vcan0 2C3#5D8700FFFFBA5450
(1675526489.481930) vcan0 370#1722C0005F1BC735
(1675526489.484164) vcan0 008#588050490E800080
(1675526489.484307) vcan0 350#A200000000000080
(1675526489.485548) vcan0 210#7DE080A0A869E64D
(1675526489.488157) vcan0 0F5#589041907F772216
(1675526489.489602) vcan0 120#809066907F065689
(1675526489.489676) vcan0 130#EFFA1D6710ACEF11
(1675526489.489751) vcan0 150#501030D82AF8C3C0
(1675526489.491067) vcan0 010#000000002FB031F8
(1675526489.491209) vcan0 291#0000000000000000
(1675526489.491284) vcan0 2A9#8C260093C0000084
(1675526489.493685) vcan0 0E0#627340E000801B00
(1675526489.493836) vcan0 008#588060390E800080
(1675526489.495070) vcan0 072#F000FF3F0078A038
(1675526489.495148) vcan0 360#5E8700D2B364A001
(1675526489.497674) vcan0 055#EAF7FB27B22D9C80
(1675526489.497826) vcan0 065#59E6FBF704BEFA01
(1675526489.497903) vcan0 070#000014F8F9E12000
(1675526489.500575) vcan0 075#0000000000005458
(1675526489.500652) vcan0 080#F54F8000C2002C00
(1675526489.500802) vcan0 0B0#39830EA3DAC139A3
(1675526489.500880) vcan0 125#E5AF80E4C1D0D735
(1675526489.500958) vcan0 145#F962D980FC4810A1
(1675526489.501035) vcan0 1B0#00C0000002B000FC
(1675526489.501123) vcan0 1B5#FF6FBFC96CE0FFEF
(1675526489.501201) vcan0 1D8#363339343234E043
(1675526489.501350) vcan0 1E0#0024634300B917E0
(1675526489.501428) vcan0 260#D0FF00AA497487B0
(1675526489.501506) vcan0 010#000000002FB031F8
(1675526489.501583) vcan0 1D0#0000000000000061
(1675526489.501661) vcan0 28C#000020000014FEA8
(1675526489.503378) vcan0 290#0000000000000000
(1675526489.504550) vcan0 2B5#4BF94B6293A6811C
(1675526489.504693) vcan0 2C0#5D8700000000A0F1
(1675526489.504768) vcan0 2C5#00D785C150E60070
(1675526489.504842) vcan0 340#9700000000000000
(1675526489.504984) vcan0 390#80FF051D0232534F
(1675526489.505058) vcan0 3AF#0000000000000020
(1675526489.505136) vcan0 008#588070290E800080
(1675526489.505207) vcan0 288#95E010EF00000080
(1675526489.508577) vcan0 0F5#589049907F7B1217
(1675526489.508652) vcan0 120#6C9056907F0A5689
(1675526489.508727) vcan0 130#F7FA1D67109CF111
(1675526489.509827) vcan0 150#4B1031E82BF8B8C0
(1675526489.511342) vcan0 010#000000002FB031F8
(1675526489.511416) vcan0 072#F000FF3F00788038
(1675526489.511489) vcan0 210#7EE080A0A869E64D
(1675526489.511631) vcan0 330#9500000000000000
(1675526489.511706) vcan0 3D0#8D0F6100340680C3
(1675526489.513990) vcan0 0E0#627340E80080FB00
(1675526489.514063) vcan0 008#5880802700800080
(1675526489.516467) vcan0 055#EAF7FC27B2319C80
(1675526489.517843) vcan0 065#63E6FCF707BEFA01
(1675526489.517918) vcan0 070#000014F8FAE12000
(1675526489.517992) vcan0 075#0000000000005458
(1675526489.520802) vcan0 080#F64F8000C2002C00
(1675526489.520955) vcan0 0B0#39830EA3DAC139A3
(1675526489.521030) vcan0 125#E5AF80E4C1D0D735
(1675526489.521104) vcan0 145#F952DA80FC4810A1
(1675526489.521178) vcan0 1B0#00C0000001B000FC
(1675526489.521321) vcan0 1B5#FF79C9CE72E0FFEF
(1675526489.521395) vcan0 1D8#363339343234E043
(1675526489.521470) vcan0 1E0#0024630300B917E0
(1675526489.521543) vcan0 2C3#5D8700FFFFBA5450
(1675526489.521686) vcan0 010#000000002FB031F8
(1675526489.521759) vcan0 1D0#0000000000000061
(1675526489.521832) vcan0 291#0000000000000000
(1675526489.521908) vcan0 3C8#5D87008E882C008E
(1675526489.523453) vcan0 008#5880901700800080
(1675526489.526054) vcan0 072#F000FF3F0078A038
(1675526489.527357) vcan0 290#0000000000000000
(1675526489.531472) vcan0 260#D0FF00AA497487B0
(1675526489.531561) vcan0 0F5#559043907F7F0219
(1675526489.531638) vcan0 120#819064907F025689
(1675526489.531788) vcan0 130#FFFA1D67108CF411
(1675526489.531867) vcan0 150#521031F82BF8A1C0
(1675526489.531944) vcan0 288#95E010EF00000080
(1675526489.532022) vcan0 010#000000002FB031F8
(1675526489.532099) vcan0 2A9#8C26008AC0000084
(1675526489.532821) vcan0 0E0#627342F00080D900
(1675526489.535428) vcan0 008#5880A00700800080
(1675526489.535572) vcan0 210#7EE080A0A869E645
(1675526489.537976) vcan0 055#EAF7FC27B2329C80
(1675526489.540789) vcan0 065#61E6FBF702BEF801
(1675526489.540933) vcan0 070#000014F8FBE12000
(1675526489.541007) vcan0 075#0000000000005458
(1675526489.541081) vcan0 080#F94F8000C2002C00
(1675526489.541224) vcan0 0B0#39830EA3DAC139A3
(1675526489.541307) vcan0 125#E5AF80E4C1D0D735
(1675526489.541382) vcan0 145#F942DB80FC4810A1
(1675526489.541456) vcan0 1B0#00C0000001B000FC
(1675526489.541599) vcan0 1B5#FF84D4D377E0FFEF
(1675526489.541742) vcan0 1D8#363339343234E043
(1675526489.541815) vcan0 1E0#0028534300B917E0
(1675526489.541958) vcan0 28C#000020000014FEA8
(1675526489.542033) vcan0 010#000000002FB031F8
(1675526489.542176) vcan0 072#F000FF3F00788038
(1675526489.542249) vcan0 1D0#0000000000000861
(1675526489.543447) vcan0 2B5#4BF94C6293A6811A
(1675526489.543597) vcan0 008#5880B0F700800080
(1675526489.547204) vcan0 0F5#5B9040907F43F21A
(1675526489.548578) vcan0 120#979070907F085689
(1675526489.548657) vcan0 130#87FA1D67107CFA11
(1675526489.548806) vcan0 150#4E1031082CF895C0
(1675526489.550118) vcan0 010#000000002FB031F9
(1675526489.550198) vcan0 291#0000000000000000
(1675526489.552721) vcan0 0E0#627344F80080B700
(1675526489.554098) vcan0 008#5880C0D215800080
(1675526489.555541) vcan0 288#91E020DF00000080
(1675526489.555684) vcan0 072#F000FF3F0078A038
(1675526489.559731) vcan0 055#EAF7FD27B2389C81
(1675526489.559805) vcan0 065#5FE6FBF700BEF701
(1675526489.559947) vcan0 070#000014F8FCE12000
(1675526489.560023) vcan0 075#0000000000005458
(1675526489.560096) vcan0 080#FA4F8000C2002C00
(1675526489.560171) vcan0 0B0#39830EA3DAC139A3
(1675526489.560312) vcan0 125#E5AF80E4C1D0D735
(1675526489.560387) vcan0 145#F932DC80FC4810A1
(1675526489.560461) vcan0 1B0#00C0000001B000FC
(1675526489.560534) vcan0 1B5#FF8FDED87CE0FFEF
(1675526489.560630) vcan0 1D8#363339343234E043
(1675526489.560772) vcan0 1E0#002C434300B917E0
(1675526489.563810) vcan0 260#D0FF00AA497487B0
(1675526489.563887) vcan0 290#0000000000000000
(1675526489.563966) vcan0 010#000000002FB031F8
(1675526489.564115) vcan0 1D0#0000000000000261
(1675526489.564192) vcan0 210#7EE080A0A869E64D
(1675526489.564271) vcan0 2C0#5D8700000000A0F1
(1675526489.564349) vcan0 2C3#5D8700FFFFBB5450
(1675526489.564426) vcan0 2C5#00D785C161E60070
(1675526489.564576) vcan0 008#5B80D0BF15800080
(1675526489.567536) vcan0 0F5#559047907F47E21B
(1675526489.568840) vcan0 120#67906A907F0B5689
(1675526489.568918) vcan0 130#8FFD1D67106CFF11
(1675526489.568996) vcan0 150#52102E182CF881C0
(1675526489.571452) vcan0 010#000000002FB031F8
(1675526489.571538) vcan0 072#F000FF3F00788038
(1675526489.571617) vcan0 2A9#8C260093C0000084
(1675526489.572834) vcan0 0E0#627348C000809300
(1675526489.574349) vcan0 008#5B80E0AF15800080
(1675526489.574421) vcan0 350#A200000000000080
(1675526489.576962) vcan0 055#EAF7FD27B23A9C80
(1675526489.579844) vcan0 065#5DE6FBF7FEBDF801
(1675526489.579920) vcan0 070#000014F8FDE12000
(1675526489.579994) vcan0 075#0000000000005458
(1675526489.580135) vcan0 080#FC4F8000C2002C00
(1675526489.580211) vcan0 0B0#39830EA3DAC139A3
(1675526489.580285) vcan0 125#E5B280E4C1D0D735
(1675526489.580359) vcan0 145#F922DD80FC4810A1
(1675526489.580432) vcan0 1B0#00C0000002B000FC
(1675526489.580506) vcan0 1B5#FF99E9DE81E0FFEF
(1675526489.580650) vcan0 1D8#363339343234E043
(1675526489.580733) vcan0 1E0#002C430300B917E0
(1675526489.580807) vcan0 288#8DE020DF00000080
(1675526489.584030) vcan0 010#000000002FB031F8
(1675526489.584181) vcan0 1D0#0000000000000061
(1675526489.584260) vcan0 28C#000020000014FEA8
(1675526489.584337) vcan0 291#0000000000000000
(1675526489.584415) vcan0 2B5#4BF94C6293A6811A
(1675526489.584493) vcan0 340#9700000000000000
(1675526489.584644) vcan0 370#1722C0005F1BC735
(1675526489.584721) vcan0 008#5B80F09123800080
(1675526489.585304) vcan0 072#F000FF3F0078A038
(1675526489.585382) vcan0 210#7EE080A0A869E64D
(1675526489.587910) vcan0 3B0#00D845383AB0C600
(1675526489.588059) vcan0 290#0000000000000000
(1675526489.588137) vcan0 260#D0FF00AA497487B0
(1675526489.588216) vcan0 0F5#4A9043907F4BD21D
(1675526489.589313) vcan0 120#619059907F065689
(1675526489.589462) vcan0 130#97FD1D67105CFF11
(1675526489.589541) vcan0 150#45102D282CF87EC0
(1675526489.589617) vcan0 3CA#00000000550000C8
(1675526489.590849) vcan0 010#000000002FB031F8
(1675526489.590927) vcan0 330#9500000000000000
(1675526489.593483) vcan0 0E0#62734CC800806F00
(1675526489.593558) vcan0 008#5D80007F23800080
(1675526489.594866) vcan0 360#5E8700D2B364A001
(1675526489.597472) vcan0 055#EAF7FE27B23D9C80
(1675526489.600355) vcan0 065#5BE6FBF700BEF901
(1675526489.600428) vcan0 070#000014F8FEE12000
(1675526489.600502) vcan0 075#0000000000005458
(1675526489.600644) vcan0 080#FE4F8000C2002C00
(1675526489.600718) vcan0 0B0#39830EA3DAC139A3
(1675526489.600793) vcan0 125#E5B480E4C1D0D735
(1675526489.600878) vcan0 145#F912DE80FC4810A1
(1675526489.600952) vcan0 1B0#00C0000001B000FC
(1675526489.601096) vcan0 1B5#FFA4F4E387E0FFEF
(1675526489.601169) vcan0 1D8#363339343234E043
(1675526489.601243) vcan0 1E0#0030334300B917E0
(1675526489.601316) vcan0 010#000000002FB031F8
(1675526489.601460) vcan0 072#F000FF3F00788038
(1675526489.601809) vcan0 1D0#0000000000000061
(1675526489.601953) vcan0 2C3#5D8700FFFFBB5450
(1675526489.602026) vcan0 390#80FF051D022A554F
(1675526489.603309) vcan0 008#5D80106032800080
(1675526489.604828) vcan0 288#91E020DF00000080
(1675526489.607430) vcan0 0F5#4A903D907F4FC21E
(1675526489.608807) vcan0 120#679059907F095689
(1675526489.608958) vcan0 130#9FFD1D611052FD11
(1675526489.609035) vcan0 150#461031382CF86DC0
(1675526489.611440) vcan0 010#000000002FB031F8
(1675526489.611519) vcan0 210#7EE08020A869E645
(1675526489.611668) vcan0 291#0000000000000000
(1675526489.611748) vcan0 2A9#8C26008AC0000084
(1675526489.612823) vcan0 0E0#627348D000805300
(1675526489.615432) vcan0 008#5F80204040800080
(1675526489.615506) vcan0 072#F000FF3F0078A038
(1675526489.617909) vcan0 055#EAF7FE27B2439C80
(1675526489.620862) vcan0 065#5AE6FCF7FFBDFC01
(1675526489.620936) vcan0 070#000014F8FEE12000
(1675526489.621009) vcan0 075#0000000000005458
(1675526489.621084) vcan0 080#02508000C2002C00
(1675526489.621158) vcan0 0B0#39830EA3DAC139A3
(1675526489.621300) vcan0 125#E5B780E4C1D0D735
(1675526489.621376) vcan0 145#F902DF80FC4810A1
(1675526489.621450) vcan0 1B0#00C0000001B000FC
(1675526489.621533) vcan0 1B5#FFAEFEE88CE0FFEF
(1675526489.621607) vcan0 1D8#363339343234E043
(1675526489.621751) vcan0 1E0#0034234300B917E0
(1675526489.621824) vcan0 260#D0FF0055497487B0
(1675526489.621898) vcan0 28C#000020000014FEA8
(1675526489.621973) vcan0 010#000000002FB031F8
(1675526489.622047) vcan0 1D0#0000000000000861
(1675526489.623653) vcan0 290#0000000000000000
(1675526489.623732) vcan0 2B5#4BFA4B6293A6811D
(1675526489.623809) vcan0 2C0#5D8700000000A0F1
(1675526489.623888) vcan0 2C5#00D785C15DE60070
(1675526489.623966) vcan0 3AF#0000000000000020
(1675526489.624043) vcan0 008#5F80303040800080
(1675526489.628732) vcan0 0F5#4A903A907F53B21F
(1675526489.628809) vcan0 120#679063907F045689
(1675526489.628887) vcan0 130#A7FD1D5B1048FA11
(1675526489.628978) vcan0 150#42102D482CF861C0
(1675526489.630067) vcan0 288#8DE020DF00000080
(1675526489.632706) vcan0 010#000000002FB031F9
(1675526489.632857) vcan0 072#F000FF3F00788038
(1675526489.632934) vcan0 0E0#627347D800803400
(1675526489.634023) vcan0 008#6180401E40800080
(1675526489.635613) vcan0 210#7EE080A0A869E645
(1675526489.639725) vcan0 055#EAF7FF27B2469C81
(1675526489.639803) vcan0 065#5BE6FDF700BEFE01
(1675526489.639880) vcan0 070#000014F8FFE12000
(1675526489.640031) vcan0 075#0000000000005458
(1675526489.640108) vcan0 080#04508000C2002C00
(1675526489.640186) vcan0 0B0#39830EA3DAC139A3
(1675526489.640265) vcan0 125#E5BA80E4C1D0D735
(1675526489.640341) vcan0 145#F9F2D080FC4810A1
(1675526489.640491) vcan0 1B0#00C0000001B000FC
(1675526489.640580) vcan0 1B5#FFB909EE91E0FFEF
(1675526489.640657) vcan0 1D8#363339343234E043
(1675526489.640734) vcan0 1E0#0034230300B917E0
(1675526489.641100) vcan0 2C3#5D8700FFFFBB5450
(1675526489.641178) vcan0 010#000000002FB031F8
(1675526489.641255) vcan0 1D0#0000000000000261
(1675526489.641334) vcan0 291#0000000000000000
(1675526489.641482) vcan0 3C8#5D87008E882C008E
(1675526489.643738) vcan0 008#618050F856800080
(1675526489.645047) vcan0 072#F000FF3F0078A038
(1675526489.647655) vcan0 290#0000000000000000
(1675526489.647796) vcan0 260#D0FF0055497487B0
(1675526489.649104) vcan0 0F5#529037907F57A221
(1675526489.649180) vcan0 120#58904C907F045689
(1675526489.649254) vcan0 130#AFFD1D5B1038F711
(1675526489.649327) vcan0 150#44102E582DF84FC0
(1675526489.650577) vcan0 010#000000002FB031F8
(1675526489.650650) vcan0 2A9#8C260082C0000084
(1675526489.653230) vcan0 0E0#627346E000801500
(1675526489.653309) vcan0 008#648060FB40800080
(1675526489.654540) vcan0 288#91E030CF00000080
(1675526489.657214) vcan0 055#EAF7FF27B24C9C81
(1675526489.660107) vcan0 065#5EE6FEF702BEFE01
(1675526489.660183) vcan0 070#000014F800E22000
(1675526489.660262) vcan0 075#0000000000005458
(1675526489.660340) vcan0 080#07508000C2002C00
(1675526489.660490) vcan0 0B0#39830EA3DAC139A3
(1675526489.660566) vcan0 125#E5BD80E4C1D0D735
(1675526489.660644) vcan0 145#F9E2D180FC4810A1
(1675526489.660722) vcan0 1B0#00C0000001B000FC
(1675526489.660799) vcan0 1B5#FFC413F396E0FFEF
(1675526489.660950) vcan0 1D8#363339343234E043
(1675526489.661036) vcan0 1E0#0038134300B917E0
(1675526489.661115) vcan0 28C#000020000014FEA8
(1675526489.661190) vcan0 2B5#4BFA4B6293A68121
(1675526489.661559) vcan0 010#000000002FB031F8
(1675526489.661709) vcan0 072#F000FF3F00788038
(1675526489.661786) vcan0 1D0#0000000000000061
(1675526489.661864) vcan0 210#7EE080A0A869E645
(1675526489.661940) vcan0 340#9700000000000000
(1675526489.664201) vcan0 008#648070DC4F800080
(1675526489.664276) vcan0 350#A200000000000080
(1675526489.667982) vcan0 0F5#439035907F5B9222
(1675526489.669290) vcan0 120#639035907F045689
(1675526489.669433) vcan0 130#B7FD1D58102BF411
(1675526489.669506) vcan0 150#41102E682DF842C0
(1675526489.670815) vcan0 010#000000002FB031F8
(1675526489.670889) vcan0 291#0000000000000000
(1675526489.671043) vcan0 330#9500000000000000
(1675526489.671119) vcan0 425#0000000000000000
(1675526489.673445) vcan0 0E0#627348E80080F300
(1675526489.673596) vcan0 008#668080CA4F800080
(1675526489.676055) vcan0 072#F000FF3F0078A038
(1675526489.677358) vcan0 055#EAF7FF27B24E9C80
(1675526489.677435) vcan0 065#62E6FFF704BEFF01
(1675526489.681477) vcan0 070#000014F800E22000
(1675526489.681555) vcan0 075#0000000000005458
(1675526489.681632) vcan0 080#08508000C2002C00
(1675526489.681781) vcan0 0B0#39830EA3DAC139A3
(1675526489.681861) vcan0 125#E5BF80E4C1D0D735
(1675526489.681938) vcan0 145#F9D2D280FC4810A1
(1675526489.682015) vcan0 1B0#00C0000002B000FC
(1675526489.682092) vcan0 1B5#FFCE1EF89CE0FFEF
(1675526489.682242) vcan0 1D8#363339343234E043
(1675526489.682331) vcan0 1E0#003C034300B917E0
