(1675525863.974641) vcan0 3AF#0000000000000020
(1675525863.974701) vcan0 3D0#9D0F6100641B80C3
(1675525863.975210) vcan0 288#E9DF609F00000080
(1675525863.976682) vcan0 0F5#3FA94BA97F63728F
(1675525863.976760) vcan0 120#88A967A97FFE5589
(1675525863.976910) vcan0 130#C7FD1D6729E3FF11
(1675525863.976988) vcan0 150#4729FD8703F803C0
(1675525863.977066) vcan0 3CA#00000000400000C8
(1675525863.979378) vcan0 260#D0FF00AA497487B0
(1675525863.980971) vcan0 0E0#E27313D000808800
(1675525863.981050) vcan0 008#44800C9F1C800080
(1675525863.981136) vcan0 010#008000002FB031F8
(1675525863.981207) vcan0 1D0#0000000000000061
(1675525863.981285) vcan0 291#0000000000000000
(1675525863.984906) vcan0 125#E50180E4C1D0D735
(1675525863.986431) vcan0 1B0#00C0000002B000FC
(1675525863.986509) vcan0 072#F000FF3F0078A038
(1675525863.986659) vcan0 1B5#FF2D99A37DE0FFEF
(1675525863.986738) vcan0 1D8#363339343234E143
(1675525863.986814) vcan0 1E0#0000F34300B917E0
(1675525863.987902) vcan0 2C3#4F9E00FFFFD45450
(1675525863.989423) vcan0 055#F9F71038B2409E80
(1675525863.992459) vcan0 065#73E60FF8FFED4902
(1675525863.992537) vcan0 070#000005F84BE20D00
(1675525863.992615) vcan0 008#44801C8F1C800080
(1675525863.992692) vcan0 075#0000000000005458
(1675525863.992845) vcan0 080#2B508000C2002C00
(1675525863.992922) vcan0 010#008000002FB031F8
(1675525863.992999) vcan0 0B0#528319A3E5C152E3
(1675525863.993077) vcan0 145#F902DF80FC4810A1
(1675525863.993163) vcan0 2A9#8C260082C0000084
(1675525863.993891) vcan0 210#0BE080A0D069D545
(1675525863.995412) vcan0 0F5#2AA93FA97F676293
(1675525863.996937) vcan0 120#80A980A97F045689
(1675525863.997015) vcan0 130#CFFD1D6729D3FF11
(1675525863.997092) vcan0 150#3A29FC9702F800C0
(1675525863.998394) vcan0 288#E9DF708F00000080
(1675525863.999916) vcan0 290#0000000000000000
(1675525863.999994) vcan0 0E0#E27311D800806A00
(1675525864.001443) vcan0 008#44802C7F1C800080
(1675525864.001519) vcan0 010#008000002FB031F8
(1675525864.001597) vcan0 072#F000FF3F00788038
(1675525864.001675) vcan0 1D0#0000000000000061
(1675525864.004136) vcan0 125#E50180E4C1D0D735
(1675525864.005656) vcan0 1B0#00C0000003B000FC
(1675525864.007177) vcan0 1B5#FF48B4B08AE0FFEF
(1675525864.007263) vcan0 1D8#363339343234E143
(1675525864.007342) vcan0 1E0#0004E34300B917E0
(1675525864.008644) vcan0 055#F9F71038B2409E80
(1675525864.010165) vcan0 065#77E60FF8FDED4B02
(1675525864.010243) vcan0 070#000005F84BE20D00
(1675525864.010393) vcan0 008#44803C7D0E800080
(1675525864.011842) vcan0 010#008000002FB031F9
(1675525864.011920) vcan0 075#0000000000005458
(1675525864.011996) vcan0 080#2B508000C2002C00
(1675525864.012075) vcan0 0B0#528319A3E5C152E3
(1675525864.012153) vcan0 145#F9F2D080FC4810A1
(1675525864.012230) vcan0 260#D0FF00AA497487B0
(1675525864.012380) vcan0 28C#00000000002CFEA9
(1675525864.013324) vcan0 291#0000000000000000
(1675525864.013401) vcan0 2B5#4BC9166293A6785B
(1675525864.013551) vcan0 330#2800000000000000
(1675525864.013638) vcan0 340#9F00000000000000
(1675525864.016247) vcan0 072#F000FF3F0078A038
(1675525864.016323) vcan0 0F5#47A94BA97F6B5296
(1675525864.016473) vcan0 120#5BA96FA97F055689
(1675525864.016552) vcan0 130#D7FD1D6729C3FF11
(1675525864.016630) vcan0 150#3F29FBA702F8EBC0
(1675525864.019014) vcan0 0E0#E27319E000804200
(1675525864.020391) vcan0 008#46804C5623800080
(1675525864.020541) vcan0 010#008000002FB031F8
(1675525864.021916) vcan0 1D0#0000000000000A61
(1675525864.021992) vcan0 210#0BE080A0D069D54D
(1675525864.023438) vcan0 288#E1DF708F00000080
(1675525864.024958) vcan0 125#E5FF7FE4C1D0D735
(1675525864.026480) vcan0 1B0#00C0000005B000FC
(1675525864.026559) vcan0 1B5#FF62CFBE98E0FFEF
(1675525864.026636) vcan0 1D8#363339343234E143
(1675525864.026723) vcan0 1E0#0004E30300B917E0
(1675525864.026801) vcan0 2C3#4F9E00FFFFD55450
(1675525864.029187) vcan0 055#F9F71038B2409E80
(1675525864.030711) vcan0 008#46805C4623800080
(1675525864.030788) vcan0 010#008000002FB031F8
(1675525864.030864) vcan0 065#7AE610F803EE4B02
(1675525864.030943) vcan0 070#000005F84BE20D00
(1675525864.033693) vcan0 072#F000FF3F00788038
(1675525864.033841) vcan0 075#0000000000005458
(1675525864.033919) vcan0 080#2B508000C2002C00
(1675525864.033996) vcan0 0B0#528319A3E5C152E3
(1675525864.034074) vcan0 145#F9E2D180FC4810A1
(1675525864.034153) vcan0 290#0000000000000000
(1675525864.034231) vcan0 2A9#8C26009BC0000084
(1675525864.034308) vcan0 2C0#4F9E00000000A0F1
(1675525864.034458) vcan0 2C5#25DF8CC176E6D470
(1675525864.034545) vcan0 370#0725C0009503CB1F
(1675525864.034621) vcan0 3E0#000000D933808092
(1675525864.035133) vcan0 0F5#3FA94FA97F6F4299
(1675525864.036679) vcan0 120#77A95EA97FFF5589
(1675525864.036756) vcan0 130#DFFD1D6729B3FF11
(1675525864.036834) vcan0 150#3C29F8B702F8DEC0
(1675525864.039440) vcan0 260#D0FF00AA497487B0
(1675525864.040965) vcan0 0E0#E27322E800801900
(1675525864.041043) vcan0 008#48806C2532800080
(1675525864.041119) vcan0 010#008000002FB031F8
(1675525864.041199) vcan0 1D0#0000000000000061
(1675525864.041274) vcan0 291#0000000000000000
(1675525864.043661) vcan0 072#F000FF3F0078A038
(1675525864.045184) vcan0 125#E5FF7FE4C1D0D735
(1675525864.046853) vcan0 210#0DE080A0D069D54D
(1675525864.046931) vcan0 3B0#00D8743864B8C400
(1675525864.047017) vcan0 1B0#00C0000001B000FC
(1675525864.047096) vcan0 1B5#FF7DE9CBA5E0FFEF
(1675525864.047173) vcan0 1D8#363339343234E143
(1675525864.047251) vcan0 1E0#0008D34300B917E0
(1675525864.049639) vcan0 288#EDDF708F00000080
(1675525864.049788) vcan0 055#F9F71038B2409E80
(1675525864.049866) vcan0 065#77E610F801EE4B02
(1675525864.052686) vcan0 070#000005F84CE20D00
(1675525864.052836) vcan0 008#48807C1532800080
(1675525864.052913) vcan0 010#008000002FB031F8
(1675525864.052991) vcan0 075#0000000000005458
(1675525864.053069) vcan0 080#2C508000C2002C00
(1675525864.053145) vcan0 0B0#528319A3E5C152E3
(1675525864.053226) vcan0 145#F9D2D280FC4810A1
(1675525864.053303) vcan0 28C#00000000002CFEA9
(1675525864.053380) vcan0 2B5#4BC9166293A6795C
(1675525864.054188) vcan0 350#A200000000000080
(1675525864.055708) vcan0 360#699E0028BB53A001
(1675525864.055786) vcan0 0F5#32A93BA97F73329D
(1675525864.055865) vcan0 120#8CA97BA97F025689
(1675525864.057173) vcan0 130#E7FD1D6729A3FF11
(1675525864.057250) vcan0 150#3C29F9C701F8CEC0
(1675525864.058700) vcan0 290#0000000000000000
(1675525864.060149) vcan0 0E0#E27322F00080F900
(1675525864.060299) vcan0 008#48808C0532800080
(1675525864.061678) vcan0 010#008000002FB031F8
(1675525864.061755) vcan0 072#F000FF3F00788038
(1675525864.061905) vcan0 1D0#0000000000000061
(1675525864.061983) vcan0 390#80FF0500022E544F
(1675525864.063142) vcan0 3C8#4F9E008E882C008E
(1675525864.064666) vcan0 125#E5FF7FE4C1D0D735
(1675525864.066262) vcan0 1B0#00C0000003B000FC
(1675525864.066349) vcan0 1B5#FF9804D8B2E0FFEF
(1675525864.066429) vcan0 1D8#363339343234E143
(1675525864.066508) vcan0 1E0#000CC34300B917E0
(1675525864.067669) vcan0 2C3#4F9E00FFFFD55450
(1675525864.069188) vcan0 055#F9F71038B2409E80
(1675525864.070713) vcan0 065#73E610F8FEED4C02
(1675525864.070791) vcan0 070#000005F84DE20D00
(1675525864.070869) vcan0 008#4B809CF232800080
(1675525864.070945) vcan0 010#008000002FB031F8
(1675525864.071025) vcan0 075#0000000000005458
(1675525864.072329) vcan0 080#2C508000C2002C00
(1675525864.072408) vcan0 0B0#528319A3E5C152E3
(1675525864.072486) vcan0 145#F9C2D380FC4810A1
(1675525864.072564) vcan0 210#0DE080A0D069D545
(1675525864.072641) vcan0 260#D0FF0055497487B0
(1675525864.072791) vcan0 291#0000000000000000
(1675525864.072877) vcan0 2A9#8C260082C0000084
(1675525864.073821) vcan0 288#F5DF708F00000080
(1675525864.076720) vcan0 0F5#4BA943A97F7722A0
(1675525864.076797) vcan0 120#63A963A97FFE5589
(1675525864.076875) vcan0 130#EFFF1D672993FF11
(1675525864.076953) vcan0 150#3029FFD701F8CAC0
(1675525864.077030) vcan0 072#F000FF3F0078A038
(1675525864.079416) vcan0 0E0#E27326F80080D500
(1675525864.080937) vcan0 008#4B80ACE232800080
(1675525864.082460) vcan0 581#FFFFFFFFFFFF0081
(1675525864.082537) vcan0 010#008000002FB031F9
(1675525864.082615) vcan0 1D0#0000000000000261
(1675525864.082692) vcan0 400#0101020102010118
(1675525864.082771) vcan0 405#0000000000000021
(1675525864.083933) vcan0 125#E5FF7FE4C1D0D735
(1675525864.085451) vcan0 1B0#00C0000004B000FC
(1675525864.086922) vcan0 1B5#FFB31FE6C0E0FFEF
(1675525864.087003) vcan0 1D8#363339343234E143
(1675525864.087153) vcan0 1E0#000CC30300B917E0
(1675525864.088458) vcan0 055#F9F71038B2409E80
(1675525864.089908) vcan0 065#79E610F800EE4C02
(1675525864.093013) vcan0 008#4B80BCD232800080
(1675525864.093092) vcan0 070#000005F84DE20D00
(1675525864.093168) vcan0 075#0000000000005458
(1675525864.093318) vcan0 080#2C508000C2002C00
(1675525864.093396) vcan0 0B0#528319A3E5C152E3
(1675525864.093474) vcan0 145#F9B2D480FC4810A1
(1675525864.093552) vcan0 28C#00000000002CFEA9
(1675525864.093629) vcan0 290#0000000000000000
(1675525864.093709) vcan0 2B5#4BC9166293A67A5D
(1675525864.093786) vcan0 2C0#4F9E00010000A0F1
(1675525864.093862) vcan0 2C5#25DF8CC179E6D470
(1675525864.094021) vcan0 010#008000002FB031F8
(1675525864.094099) vcan0 072#F000FF3F00788038
(1675525864.094392) vcan0 330#2800000000000000
(1675525864.094545) vcan0 340#9F00000000000000
(1675525864.094622) vcan0 3AF#0000000000000020
(1675525864.095929) vcan0 0F5#36A947A97F7B12A3
(1675525864.096007) vcan0 120#77A96BA97FFF5589
(1675525864.096084) vcan0 130#F7FF1D632987FD11
(1675525864.097395) vcan0 150#3F29FFE700F8ABC0
(1675525864.097544) vcan0 3CA#00000000510000C8
(1675525864.097624) vcan0 210#0DE08020D069D54D
(1675525864.098929) vcan0 288#F9DF807F00000080
(1675525864.100452) vcan0 260#D0FF0055497487B0
(1675525864.100529) vcan0 0E0#E27329C00080B200
(1675525864.100607) vcan0 008#4D80CCC032800080
(1675525864.101911) vcan0 010#008000002FB031F8
(1675525864.101999) vcan0 1D0#0000000000000861
(1675525864.103446) vcan0 291#0000000000000000
(1675525864.104896) vcan0 125#E5FD7FE4C1D0D735
(1675525864.106565) vcan0 1B0#00C0000003B000FC
(1675525864.106642) vcan0 1B5#FFCE3AF3CDE0FFEF
(1675525864.106795) vcan0 072#F000FF3F0078A038
(1675525864.106871) vcan0 1D8#363339343234E143
(1675525864.106949) vcan0 1E0#0010B34300B917E0
(1675525864.107026) vcan0 2C3#4F9E00FFFFD65450
(1675525864.110710) vcan0 055#F9F71038B2409E80
(1675525864.110787) vcan0 065#77E610F802EE4D02
(1675525864.110866) vcan0 070#000005F84EE20D00
(1675525864.110945) vcan0 008#4D80DC9B47800080
(1675525864.111093) vcan0 075#0000000000005458
(1675525864.111173) vcan0 010#008000002FB031F8
(1675525864.112186) vcan0 080#2D508000C2002C00
(1675525864.112272) vcan0 0B0#528319A3E5C152E3
(1675525864.112350) vcan0 145#F9A2D580FC4810A1
(1675525864.112428) vcan0 2A9#8C26009BC0000084
(1675525864.114887) vcan0 0F5#3BA93FA97F7F02A7
(1675525864.116415) vcan0 120#88A973A97FFF5589
(1675525864.116565) vcan0 130#FFFF1D632977FD11
(1675525864.116643) vcan0 150#4529FFF700F895C0
(1675525864.119175) vcan0 0E0#E27327C800809400
(1675525864.120694) vcan0 008#4D80ECA032800080
(1675525864.120773) vcan0 010#008000002FB031F8
(1675525864.120852) vcan0 072#F000FF3F00788038
(1675525864.120930) vcan0 1D0#0000000000000061
(1675525864.122161) vcan0 210#0DE080A0D069D545
(1675525864.122309) vcan0 290#0000000000000000
(1675525864.123688) vcan0 288#F5DF807F00000080
(1675525864.125212) vcan0 125#E5FD7FE4C1D0D735
(1675525864.126674) vcan0 1B0#00C0000002B000FC
(1675525864.126753) vcan0 1B5#FFE95500DAE0FFEF
(1675525864.126830) vcan0 1D8#363339343234E143
(1675525864.126980) vcan0 1E0#0014A34300B917E0
(1675525864.129439) vcan0 055#F9F71138B2409E80
(1675525864.131101) vcan0 065#73E610F8FEED4E02
(1675525864.131179) vcan0 008#4D80FC9032800080
(1675525864.131256) vcan0 010#008000002FB031F8
(1675525864.131335) vcan0 070#000005F84FE20D00
(1675525864.131411) vcan0 075#0000000000005458
(1675525864.131560) vcan0 080#2D508000C2002C00
(1675525864.131637) vcan0 0B0#528319A3E5C152E3
(1675525864.133951) vcan0 145#F992D680FC4810A1
(1675525864.134029) vcan0 260#D0FF0055497487B0
(1675525864.134179) vcan0 28C#00000000002CFEA9
(1675525864.134257) vcan0 291#0000000000000000
(1675525864.134342) vcan0 2B5#4BC9166293A67A5E
(1675525864.134420) vcan0 370#0725C0009503CB1F
(1675525864.134500) vcan0 425#0000000000000000
(1675525864.135444) vcan0 072#F000FF3F0078A038
(1675525864.135522) vcan0 0F5#3BA93FA97F43F2AA
(1675525864.136972) vcan0 120#63A973A97FFE5589
(1675525864.137050) vcan0 130#87FF1D632967FD11
(1675525864.137144) vcan0 150#3829FF07FFF792C0
(1675525864.139662) vcan0 0E0#E27324D000807700
(1675525864.141181) vcan0 008#4D800C8F23800080
(1675525864.141260) vcan0 010#008000002FB031F8
(1675525864.141338) vcan0 1D0#0000000000000061
(1675525864.142641) vcan0 350#A200000000000080
(1675525864.144164) vcan0 210#0DE080A0D069D545
(1675525864.145685) vcan0 125#E5FD7FE4C1D0D735
(1675525864.145762) vcan0 1B0#00C0000004B000FC
(1675525864.145858) vcan0 1B5#FF036F0EE8E0FFEF
(1675525864.147185) vcan0 1D8#363339343234E143
(1675525864.147264) vcan0 1E0#0014A30300B917E0
(1675525864.147343) vcan0 2C3#4F9E00FFFFD75450
(1675525864.148650) vcan0 288#06E0807F00000080
(1675525864.150170) vcan0 055#F9F71138B2409E80
(1675525864.150321) vcan0 065#77E610F8FFED4F02
(1675525864.150397) vcan0 070#000005F84FE20D00
(1675525864.150476) vcan0 008#4D801C7F23800080
(1675525864.151853) vcan0 010#008000002FB031F8
(1675525864.151931) vcan0 072#F000FF3F00788038
(1675525864.152010) vcan0 075#0000000000005458
(1675525864.152087) vcan0 080#2E508000C2002C00
(1675525864.152164) vcan0 0B0#528319A3E5C152E3
(1675525864.152244) vcan0 145#F982D780FC4810A1
(1675525864.152321) vcan0 290#0000000000000000
(1675525864.153348) vcan0 2A9#8C260082C0000084
(1675525864.153426) vcan0 2C0#4F9E00010000A0F1
(1675525864.153502) vcan0 2C5#26DF8CC175E6D470
(1675525864.156250) vcan0 360#699E0028BB53A001
(1675525864.156329) vcan0 0F5#3FA947A97F47E2AD
(1675525864.156405) vcan0 120#6FA96BA97FFC5589
(1675525864.156557) vcan0 130#8FFF1D632957FD11
(1675525864.156634) vcan0 150#4D290118FFF76DC0
(1675525864.158880) vcan0 260#D0FF0055497487B0
(1675525864.160403) vcan0 0E0#E27322D800805900
(1675525864.160554) vcan0 008#4D802C6F23800080
(1675525864.160631) vcan0 010#008000002FB031F8
(1675525864.161937) vcan0 1D0#0000000000000061
(1675525864.162014) vcan0 291#0000000000000000
(1675525864.162093) vcan0 390#80FF0500022E544F
(1675525864.164698) vcan0 072#F000FF3F0078A038
(1675525864.166311) vcan0 125#E5FD7FE4C1D0D735
(1675525864.166389) vcan0 3B0#00D8743864B8C400
(1675525864.166467) vcan0 1B0#00C0000001B000FC
(1675525864.166544) vcan0 1B5#FF1E8A1BF5E0FFEF
(1675525864.166696) vcan0 1D8#363339343234E143
(1675525864.166773) vcan0 1E0#0018934300B917E0
(1675525864.170463) vcan0 055#F9F71138B2409E80
(1675525864.170541) vcan0 065#7AE611F804EE4F02
(1675525864.170619) vcan0 070#000005F850E20D00
(1675525864.170698) vcan0 008#4D803C6D15800080
(1675525864.170775) vcan0 010#008000002FB031F9
(1675525864.173525) vcan0 075#0000000000005458
(1675525864.173602) vcan0 080#2E508000C2002C00
(1675525864.173679) vcan0 0B0#528319A3E5C152E3
(1675525864.173757) vcan0 145#F972D880FC4810A1
(1675525864.173835) vcan0 210#0DE080A0D069D54D
(1675525864.173920) vcan0 28C#00000000002CFEA9
(1675525864.173999) vcan0 2B5#4BCA166293A67A5F
(1675525864.174078) vcan0 330#2800000000000000
(1675525864.174228) vcan0 340#9F00000000000000
(1675525864.174306) vcan0 3D0#9D0F6100641B80C3
(1675525864.175032) vcan0 288#02E0807F00000080
(1675525864.175184) vcan0 430#3208300000002CC6
(1675525864.176419) vcan0 0F5#3FA94BA97F4BD2B1
(1675525864.176497) vcan0 120#80A967A97FFD5589
(1675525864.176647) vcan0 130#97FF1D632947FD11
(1675525864.176725) vcan0 150#49290128FFF761C0
(1675525864.179183) vcan0 290#0000000000000000
(1675525864.180704) vcan0 0E0#E27322E000803900
(1675525864.180782) vcan0 008#4D804C5D15800080
(1675525864.180861) vcan0 010#008000002FB031F8
(1675525864.180936) vcan0 072#F000FF3F00788038
(1675525864.181025) vcan0 1D0#0000000000000A61
(1675525864.183413) vcan0 3C8#4F9E008E882C008E
(1675525864.184934) vcan0 125#E5FD7FE4C1D0D735
(1675525864.186461) vcan0 1B0#00C0000002B000FC
(1675525864.186539) vcan0 1B5#FF39A52802E0FFEF
(1675525864.186616) vcan0 1D8#363339343234E143
(1675525864.186696) vcan0 1E0#001C834300B917E0
(1675525864.186773) vcan0 2C3#4F9E00FFFFD75450
(1675525864.189162) vcan0 260#D0FF00AA497487B0
(1675525864.190682) vcan0 008#4D805C4D15800080
(1675525864.190761) vcan0 055#F9F71138B2409E80
(1675525864.190839) vcan0 065#76E611F800EE5002
(1675525864.190990) vcan0 070#000005F851E20D00
(1675525864.192292) vcan0 010#008000002FB031F8
(1675525864.192444) vcan0 075#0000000000005458
(1675525864.192521) vcan0 080#2E508000C2002C00
(1675525864.192607) vcan0 0B0#528319A3E5C152E3
(1675525864.192686) vcan0 145#F962D980FC4810A1
(1675525864.192763) vcan0 291#0000000000000000
(1675525864.192840) vcan0 2A9#8C26008AC0000084
(1675525864.196463) vcan0 072#F000FF3F0078A038
(1675525864.196542) vcan0 210#0DE080A0D069D545
(1675525864.196618) vcan0 0F5#32A93FA97F4FC2B4
(1675525864.196696) vcan0 120#77A973A97FFE5589
(1675525864.196776) vcan0 130#9FFF1D632937FF11
(1675525864.196854) vcan0 150#41290238FEF759C0
(1675525864.197941) vcan0 288#06E0906F00000080
(1675525864.199392) vcan0 0E0#E27318E800802300
(1675525864.200912) vcan0 008#4D806C3D15800080
(1675525864.201063) vcan0 010#008000002FB031F8
(1675525864.201147) vcan0 1D0#0000000000000061
(1675525864.204899) vcan0 125#E5FD7FE4C1D0D735
(1675525864.206462) vcan0 1B0#00C0000002B000FC
(1675525864.206537) vcan0 1B5#FF54C03610E0FFEF
(1675525864.206611) vcan0 1D8#363339343234E143
(1675525864.206685) vcan0 1E0#001C830300B917E0
(1675525864.209162) vcan0 055#F9F71138B2409E80
(1675525864.210676) vcan0 065#76E611F800EE5002
(1675525864.210820) vcan0 008#4D807C4200800080
(1675525864.210893) vcan0 010#008000002FB031F8
(1675525864.210967) vcan0 070#000005F850E20D00
(1675525864.211042) vcan0 072#F000FF3F00788038
(1675525864.212351) vcan0 075#0000000000005458
(1675525864.212424) vcan0 080#2E508000C2002C00
(1675525864.212500) vcan0 0B0#528319A3E5C152E3
(1675525864.212573) vcan0 145#F952DA80FC4810A1
(1675525864.212715) vcan0 28C#00000000002CFEA9
(1675525864.212790) vcan0 290#0000000000000000
(1675525864.212872) vcan0 2B5#4BCA166293A67B60
(1675525864.213770) vcan0 2C0#4F9E00000000A0F1
(1675525864.213913) vcan0 2C5#27DF8CC176E6D470
(1675525864.213986) vcan0 3AF#0000000000000020
(1675525864.215296) vcan0 0F5#47A94BA97F53B2B8
(1675525864.216866) vcan0 120#63A96BA97FFE5589
(1675525864.216940) vcan0 130#A7FF1D632927FF11
(1675525864.217013) vcan0 150#47290348FEF743C0
(1675525864.217090) vcan0 3CA#00000000520000C8
(1675525864.220936) vcan0 260#D0FF00AA497487B0
(1675525864.221008) vcan0 0E0#E27316F000800500
(1675525864.221153) vcan0 008#4D808C3200800080
(1675525864.221227) vcan0 010#008000002FB031F8
(1675525864.221301) vcan0 1D0#0000000000000061
(1675525864.221375) vcan0 210#0DE080A0D069D54D
(1675525864.222409) vcan0 291#0000000000000000
(1675525864.223945) vcan0 288#FEDF906F00000080
(1675525864.225462) vcan0 072#F000FF3F0078A038
(1675525864.225535) vcan0 125#E5FD7FE4C1D0D735
(1675525864.225609) vcan0 1B0#00C0000003B000FC
(1675525864.226908) vcan0 1B5#FF6FDB431DE0FFEF
(1675525864.227059) vcan0 1D8#363339343234E143
(1675525864.227137) vcan0 1E0#0020734300B917E0
(1675525864.227213) vcan0 2C3#4F9E00FFFFD85450
(1675525864.228445) vcan0 055#F9F71138B2409E80
(1675525864.229969) vcan0 065#7BE611F801EE5002
(1675525864.230046) vcan0 008#4D809C2200800080
(1675525864.232941) vcan0 010#008000002FB031F8
(1675525864.233019) vcan0 070#000005F850E20D00
(1675525864.233097) vcan0 075#0000000000005458
(1675525864.233247) vcan0 080#2E508000C2002C00
(1675525864.233326) vcan0 0B0#528319A3E5C152E3
(1675525864.233412) vcan0 145#F942DB80FC4810A1
(1675525864.233489) vcan0 2A9#8C260093C0000084
(1675525864.233570) vcan0 370#0725C0009503CB1F
(1675525864.234368) vcan0 350#A200000000000080
(1675525864.235888) vcan0 0F5#43A953A97F57A2BB
(1675525864.236038) vcan0 120#77A95EA97FFC5589
(1675525864.236115) vcan0 130#AFFF1D632917FF11
(1675525864.237422) vcan0 150#41290158FDF739C0
(1675525864.238943) vcan0 290#0000000000000000
(1675525864.240464) vcan0 0E0#E27314F80080E700
(1675525864.240542) vcan0 008#4D80AC1200800080
(1675525864.240619) vcan0 010#008000002FB031F8
(1675525864.240697) vcan0 072#F000FF3F00788038
(1675525864.241930) vcan0 1D0#0000000000000061
(1675525864.244680) vcan0 210#0DE08020D069D54D
(1675525864.246277) vcan0 125#E5FD7FE4C1D0D735
(1675525864.246363) vcan0 1B0#00C0000001B000FC
(1675525864.246443) vcan0 1B5#FF89F5502BE0FFEF
(1675525864.246519) vcan0 1D8#363339343234E143
(1675525864.246599) vcan0 1E0#0024634300B917E0
(1675525864.248912) vcan0 288#FEDF906F00000080
(1675525864.250435) vcan0 055#F9F71138B2409E80
(1675525864.250511) vcan0 065#76E611F802EE5002
(1675525864.250662) vcan0 008#4D80BC0200800080
(1675525864.250739) vcan0 010#008000002FB031F9
(1675525864.250818) vcan0 070#000005F850E20D00
(1675525864.253493) vcan0 075#0000000000005458
(1675525864.253569) vcan0 080#2E508000C2002C00
(1675525864.253648) vcan0 0B0#528319A3E5C152E3
(1675525864.253799) vcan0 145#F932DC80FC4810A1
(1675525864.253878) vcan0 260#D0FF00AA497487B0
(1675525864.253956) vcan0 28C#00000000002CFEA9
(1675525864.254041) vcan0 291#0000000000000000
(1675525864.254119) vcan0 2B5#4BCA166293A67B60
(1675525864.254197) vcan0 330#2800000000000000
(1675525864.254274) vcan0 340#9F00000000000000
(1675525864.254929) vcan0 072#F000FF3F0078A038
(1675525864.256460) vcan0 360#699E0028BB53A001
(1675525864.256537) vcan0 0F5#36A93FA97F5B92BE
(1675525864.256615) vcan0 120#77A97BA97F005689
(1675525864.256692) vcan0 130#B7FF1D632907FF11
(1675525864.256770) vcan0 150#3F290168FDF72BC0
(1675525864.259157) vcan0 0E0#E27309C00080D200
(1675525864.260677) vcan0 008#4D80CCF200800080
(1675525864.260756) vcan0 010#008000002FB031F8
(1675525864.260832) vcan0 1D0#0000000000000A61
(1675525864.260984) vcan0 390#80FF05000226566F
(1675525864.264668) vcan0 125#E5FF7FE4C1D0D735
(1675525864.266198) vcan0 1B0#00C0000003B000FC
(1675525864.266275) vcan0 1B5#FFA4105E38E0FFEF
(1675525864.266425) vcan0 1D8#363339343234E143
(1675525864.266503) vcan0 1E0#0024630300B917E0
(1675525864.267662) vcan0 2C3#4F9E00FFFFD85450
(1675525864.269184) vcan0 055#F9F71138B2409E80
(1675525864.270706) vcan0 065#73E611F8FCED5002
(1675525864.270784) vcan0 008#4D80DCE200800080
(1675525864.270861) vcan0 010#008000002FB031F8
(1675525864.270939) vcan0 070#000005F850E20D00
(1675525864.271089) vcan0 072#F000FF3F00788038
(1675525864.273762) vcan0 075#0000000000005458
(1675525864.273839) vcan0 080#2E508000C2002C00
(1675525864.273918) vcan0 0B0#528319A3E5C152E3
(1675525864.273995) vcan0 145#F922DD80FC4810A1
(1675525864.274073) vcan0 210#0DE080A0D069D545
(1675525864.274159) vcan0 290#0000000000000000
(1675525864.274237) vcan0 2A9#8C26008AC0000084
(1675525864.274385) vcan0 2C0#4F9E00000000A0F1
(1675525864.274465) vcan0 2C5#27DF8CC17AE6D470
(1675525864.275193) vcan0 288#02E0906F00000080
(1675525864.276643) vcan0 0F5#4FA943A97F5F82C2
(1675525864.276795) vcan0 120#5BA96BA97FFD5589
(1675525864.276871) vcan0 130#BFFF1D6329F7FF11
(1675525864.276950) vcan0 150#41290178FDF719C0
(1675525864.279480) vcan0 260#D0FF0055497487B0
(1675525864.280928) vcan0 0E0#E27303C80080B800
(1675525864.281006) vcan0 008#4D80ECD200800080
(1675525864.281084) vcan0 010#008000002FB031F8
(1675525864.281235) vcan0 1D0#0000000000000061
(1675525864.281311) vcan0 291#0000000000000000
(1675525864.284923) vcan0 125#E5FD7FE4C1D0D735
(1675525864.286465) vcan0 1B0#00C0000004B000FC
(1675525864.286542) vcan0 1B5#FFBF2B6B45E0FFEF
(1675525864.286619) vcan0 072#F000FF3F0078A038
(1675525864.286698) vcan0 1D8#363339343234E143
(1675525864.286777) vcan0 1E0#0028534300B917E0
(1675525864.287934) vcan0 3B0#00D8743C64B8C402
(1675525864.289454) vcan0 055#F9F71138B2409E80
(1675525864.292492) vcan0 065#77E611F8FFED5002
(1675525864.292566) vcan0 008#4D80FCC200800080
(1675525864.292647) vcan0 070#000005F850E20D00
(1675525864.292724) vcan0 075#0000000000005458
(1675525864.292800) vcan0 080#2E508000C2002C00
(1675525864.292878) vcan0 0B0#528319A3E5C152E3
(1675525864.293030) vcan0 010#008000002FB031F8
(1675525864.293108) vcan0 145#F912DE80FC4810A1
(1675525864.293186) vcan0 28C#00000000002CFEA9
(1675525864.293271) vcan0 2B5#4BCA166293A67B60
(1675525864.295151) vcan0 210#0DE080A0D069D54D
(1675525864.296678) vcan0 0F5#3BA947A97F6372C5
(1675525864.296757) vcan0 120#80A963A97FFE5589
(1675525864.296835) vcan0 130#C7FF1D6329E7FF11
(1675525864.296985) vcan0 150#45290288FCF705C0
(1675525864.298145) vcan0 288#F5DFA05F00000080
(1675525864.299668) vcan0 290#0000000000000000
(1675525864.299746) vcan0 0E0#E27304D000809700
(1675525864.301195) vcan0 008#4D800CB200800080
(1675525864.301274) vcan0 010#008000002FB031F8
(1675525864.301351) vcan0 072#F000FF3F00788038
(1675525864.301429) vcan0 1D0#0000000000000061
(1675525864.303958) vcan0 3C8#4F9E008E882C008E
(1675525864.305407) vcan0 125#E5FF7FE4C1D0D735
(1675525864.306928) vcan0 1B0#00C0000003B000FC
(1675525864.307017) vcan0 1B5#FFDA467853E0FFEF
(1675525864.307165) vcan0 1D8#363339343234E143
(1675525864.307244) vcan0 1E0#002C434300B917E0
(1675525864.307322) vcan0 2C3#4F9E00FFFFD95450
(1675525864.308409) vcan0 055#F9F71138B2409E80
(1675525864.309934) vcan0 065#7AE611F804EE5002
(1675525864.310011) vcan0 008#4D801CA200800080
(1675525864.312978) vcan0 070#000005F851E20D00
(1675525864.313056) vcan0 010#008000002FB031F8
(1675525864.313137) vcan0 075#0000000000005458
(1675525864.313212) vcan0 080#2E508000C2002C00
(1675525864.313289) vcan0 0B0#528319A3E5C152E3
(1675525864.313368) vcan0 145#F902DF80FC4810A1
(1675525864.313518) vcan0 260#D0FF0055497487B0
(1675525864.313594) vcan0 291#0000000000000000
(1675525864.313674) vcan0 2A9#8C260093C0000084
(1675525864.314408) vcan0 072#F000FF3F0078A038
(1675525864.315932) vcan0 0F5#3FA943A97F6762C8
(1675525864.316012) vcan0 120#90A96FA97FFE5589
(1675525864.316089) vcan0 130#CFFF1D6329D7FF11
(1675525864.317399) vcan0 150#4929FF97FCF7F1C0
(1675525864.318920) vcan0 0E0#627301D800807A00
(1675525864.320444) vcan0 008#4D802C9200800080
(1675525864.320522) vcan0 010#008000002FB031F8
(1675525864.320600) vcan0 1D0#0000000000000061
(1675525864.321907) vcan0 210#07E080A0D069D545
(1675525864.323428) vcan0 350#A200000000000080
(1675525864.324948) vcan0 288#FEDFA05F00000080
(1675525864.325026) vcan0 125#E5FF7FE4C1D0D735
(1675525864.326478) vcan0 1B0#00C0000002B000FC
(1675525864.326557) vcan0 1B5#FFF5618660E0FFEF
(1675525864.326636) vcan0 1D8#363339343234E143
(1675525864.326723) vcan0 1E0#002C430300B917E0
(1675525864.329183) vcan0 055#F9F71138B2409E80
(1675525864.330704) vcan0 065#75E611F801EE5102
(1675525864.330783) vcan0 008#4D803C8200800080
(1675525864.330862) vcan0 010#008000002FB031F9
(1675525864.330937) vcan0 070#000005F851E20D00
(1675525864.331089) vcan0 072#F000FF3F00788038
(1675525864.333765) vcan0 075#0000000000005458
(1675525864.333844) vcan0 080#2F508000C2002C00
(1675525864.333921) vcan0 0B0#528319A3E5C152E3
(1675525864.334000) vcan0 145#F9F2D080FC4810A1
(1675525864.334150) vcan0 28C#00000000002CFEA9
(1675525864.334227) vcan0 290#0000000000000000
(1675525864.334305) vcan0 2B5#4BCB166293A67B61
(1675525864.334382) vcan0 2C0#4F9E00010000A0F1
(1675525864.334462) vcan0 2C5#27DF8CC176E6D470
(1675525864.334548) vcan0 330#2800000000000000
(1675525864.334625) vcan0 340#9F00000000000000
(1675525864.334703) vcan0 370#0725C0009503CB1F
(1675525864.335212) vcan0 3AF#0000000000000020
(1675525864.335291) vcan0 3E0#000000D933808092
(1675525864.335368) vcan0 400#0101010201010119
(1675525864.335446) vcan0 405#2AF82A16591B6701
(1675525864.336683) vcan0 0F5#47A94BA97F6B52CC
(1675525864.336763) vcan0 120#63A97BA97F025689
(1675525864.336839) vcan0 130#D7FF1D6329C7FF11
(1675525864.336919) vcan0 150#402901A8FCF7EAC0
(1675525864.337071) vcan0 3CA#00000000530000C8
(1675525864.339459) vcan0 260#D0FF0055497487B0
(1675525864.340980) vcan0 0E0#627307E000805400
(1675525864.341059) vcan0 008#4D804C7200800080
(1675525864.341137) vcan0 010#008000002FB031F8
(1675525864.341226) vcan0 1D0#0000000000000A61
(1675525864.341300) vcan0 291#0000000000000000
(1675525864.343690) vcan0 072#F000FF3F0078A038
(1675525864.345144) vcan0 125#E5FF7FE4C1D0D735
(1675525864.346841) vcan0 210#07E080A0D069D545
(1675525864.346918) vcan0 1B0#00C0000005B000FC
(1675525864.346997) vcan0 1B5#FF107B936DE0FFEF
(1675525864.347075) vcan0 1D8#363339343234E143
(1675525864.347154) vcan0 1E0#0030334300B917E0
(1675525864.347303) vcan0 2C3#4F9E00FFFFDA5450
(1675525864.349692) vcan0 288#F5DFA05F00000080
(1675525864.349770) vcan0 055#F9F71138B2409E80
(1675525864.352733) vcan0 008#4D805C6200800080
(1675525864.352812) vcan0 010#008000002FB031F8
(1675525864.352889) vcan0 065#79E611F8FFED5102
(1675525864.352967) vcan0 070#000005F851E20D00
(1675525864.353053) vcan0 075#0000000000005458
(1675525864.353134) vcan0 080#2E508000C2002C00
(1675525864.353210) vcan0 0B0#528319A3E5C152E3
(1675525864.353358) vcan0 145#F9E2D180FC4810A1
(1675525864.353436) vcan0 2A9#8C26008AC0000084
(1675525864.354163) vcan0 360#699E0028BB53A001
(1675525864.355686) vcan0 0F5#36A947A97F6F42CF
(1675525864.355763) vcan0 120#77A973A97FFF5589
(1675525864.357216) vcan0 130#DFFF1D6329B7FF11
(1675525864.357294) vcan0 150#5129FFB7FBF7C9C0
(1675525864.358672) vcan0 290#0000000000000000
(1675525864.360193) vcan0 0E0#627301E800803A00
(1675525864.360272) vcan0 008#4D806C5200800080
(1675525864.360350) vcan0 010#008000002FB031F8
(1675525864.361658) vcan0 072#F000FF3F00788038
(1675525864.361807) vcan0 1D0#0000000000000061
(1675525864.361832) vcan0 390#80FF05000226564F
(1675525864.364438) vcan0 125#E5FF7FE4C1D0D735
(1675525864.365959) vcan0 1B0#00C0000003B000FC
(1675525864.366039) vcan0 1B5#FF2A96A07BE0FFEF
(1675525864.366116) vcan0 1D8#363339343234E143
(1675525864.367426) vcan0 1E0#0034234300B917E0
(1675525864.368947) vcan0 055#F9F71138B2409E80
(1675525864.370469) vcan0 065#7BE611F802EE5102
(1675525864.370547) vcan0 008#4D807C4200800080
(1675525864.370624) vcan0 010#008000002FB031F8
(1675525864.370703) vcan0 070#000005F851E20D00
(1675525864.373447) vcan0 075#0000000000005458
(1675525864.373525) vcan0 080#2F508000C2002C00
(1675525864.373677) vcan0 0B0#528319A3E5C152E3
(1675525864.373754) vcan0 145#F9D2D280FC4810A1
(1675525864.373833) vcan0 210#07E080A0D069D54D
(1675525864.373918) vcan0 260#D0FF00AA497487B0
(1675525864.373997) vcan0 28C#00000000002CFEA9
(1675525864.374074) vcan0 291#0000000000000000
(1675525864.374151) vcan0 2B5#4BCB166293A67B61
(1675525864.374229) vcan0 3D0#9D0F6100641B80C3
(1675525864.374883) vcan0 288#F1DFA05F00000080
(1675525864.375034) vcan0 072#F000FF3F0078A038
(1675525864.376412) vcan0 0F5#43A94BA97F7332D2
(1675525864.376562) vcan0 120#80A96BA97FFF5589
(1675525864.376640) vcan0 130#E7FF1D6329A7FF11
(1675525864.376719) vcan0 150#4B29FBC7FBF7BFC0
(1675525864.379251) vcan0 0E0#627300F000801B00
(1675525864.380698) vcan0 008#4D808C3200800080
(1675525864.380776) vcan0 010#008000002FB031F8
(1675525864.380855) vcan0 1D0#0000000000000061
(1675525864.384685) vcan0 125#E5FF7FE4C1D0D735
(1675525864.386185) vcan0 1B0#00C0000003B000FC
(1675525864.386336) vcan0 1B5#FF45B1AE88E0FFEF
(1675525864.386413) vcan0 1D8#363339343234E143
(1675525864.386491) vcan0 1E0#0034230300B917E0
(1675525864.386570) vcan0 2C3#4F9E00FFFFDA5450
(1675525864.388959) vcan0 055#F9F71138B2409E80
(1675525864.390482) vcan0 065#78E611F801EE5102
(1675525864.390558) vcan0 008#4D809C2200800080
(1675525864.390637) vcan0 070#000005F851E20D00
(1675525864.390715) vcan0 075#0000000000005458
(1675525864.393465) vcan0 080#2F508000C2002C00
(1675525864.393543) vcan0 010#008000002FB031F8
(1675525864.393622) vcan0 072#F000FF3F00788038
(1675525864.393698) vcan0 0B0#528319A3E5C152E3
(1675525864.393777) vcan0 145#F9C2D380FC4810A1
(1675525864.393927) vcan0 290#0000000000000000
(1675525864.394013) vcan0 2A9#8C260082C0000084
(1675525864.394092) vcan0 2C0#4F9E00000000A0F1
(1675525864.394169) vcan0 2C5#28DF8CC07CE6D470
(1675525864.394898) vcan0 210#07E08020D069D545
(1675525864.396421) vcan0 0F5#3FA947A97F7722D6
(1675525864.396498) vcan0 120#5EA96BA97FFE5589
(1675525864.396649) vcan0 130#EFFF1D632997FF11
(1675525864.396727) vcan0 150#3F29FFD7FBF7BBC0
(1675525864.397958) vcan0 288#F5DFB04F00000080
(1675525864.399408) vcan0 0E0#E27301F80080FA00
(1675525864.400929) vcan0 008#4D80AC1200800080
(1675525864.401006) vcan0 260#D0FF00AA497487B0
(1675525864.401157) vcan0 010#008000002FB031F8
(1675525864.401234) vcan0 1D0#0000000000000061
(1675525864.401311) vcan0 291#0000000000000000
(1675525864.403627) vcan0 072#F000FF3F0078A038
(1675525864.405156) vcan0 125#E5FF7FE4C1D0D735
(1675525864.405233) vcan0 3B0#00FC743864B8C400
(1675525864.406686) vcan0 1B0#00C0000002B000FC
(1675525864.406763) vcan0 1B5#FF60CCBB95E0FFEF
(1675525864.406843) vcan0 1D8#363339343234E143
(1675525864.406994) vcan0 1E0#0038134300B917E0
(1675525864.409381) vcan0 008#4D80BC0200800080
(1675525864.410975) vcan0 010#008000002FB031F9
(1675525864.411052) vcan0 055#F9F71138B2409E80
(1675525864.411129) vcan0 065#74E611F8FCED5102
(1675525864.411208) vcan0 070#000005F851E20D00
(1675525864.413954) vcan0 075#0000000000005458
(1675525864.414033) vcan0 080#2F508000C2002C00
(1675525864.414108) vcan0 0B0#528319A3E5C152E3
(1675525864.414259) vcan0 145#F9B2D480FC4810A1
(1675525864.414337) vcan0 28C#00000000002CFEA9
(1675525864.414424) vcan0 2B5#4BCB166293A67B61
(1675525864.414502) vcan0 330#2800000000000000
(1675525864.414581) vcan0 340#9F00000000000000
(1675525864.414658) vcan0 350#A200000000000080
(1675525864.415386) vcan0 0F5#4BA947A97F7B12D9
(1675525864.416910) vcan0 120#63A95BA97F015689
(1675525864.417059) vcan0 130#F7FF1D5E298CFD11
(1675525864.417144) vcan0 150#4B29FFE7FAF79FC0
(1675525864.418442) vcan0 290#0000000000000000
(1675525864.419893) vcan0 0E0#E27305C00080D600
(1675525864.421484) vcan0 008#4D80CCF200800080
(1675525864.421563) vcan0 010#008000002FB031F8
(1675525864.421640) vcan0 072#F000FF3F00788038
(1675525864.421717) vcan0 1D0#0000000000000A61
(1675525864.421796) vcan0 210#07E080A0D069D54D
(1675525864.422956) vcan0 288#F5DFB04F00000080
(1675525864.424413) vcan0 3C8#4F9E008E882C008E
(1675525864.425936) vcan0 125#E5FD7FE4C1D0D735
(1675525864.426015) vcan0 1B0#00C0000005B000FC
(1675525864.426092) vcan0 1B5#FF7BE7C9A3E0FFEF
(1675525864.426246) vcan0 1D8#363339343234E143
(1675525864.427477) vcan0 1E0#003C034300B917E0
(1675525864.427557) vcan0 2C3#4F9E00FFFFDB5450
(1675525864.428933) vcan0 055#F9F71138B2409E80
(1675525864.430454) vcan0 065#77E611F8FFED5102
(1675525864.430533) vcan0 008#4D80DCE200800080
(1675525864.430610) vcan0 010#008000002FB031F8
(1675525864.430688) vcan0 070#000005F850E20D00
(1675525864.433435) vcan0 075#0000000000005458
(1675525864.433513) vcan0 080#2E508000C2002C00
(1675525864.433664) vcan0 0B0#528319A3E5C152E3
(1675525864.433741) vcan0 145#F9A2D580FC4810A1
(1675525864.433828) vcan0 260#D0FF00AA497487B0
(1675525864.433906) vcan0 291#0000000000000000
(1675525864.433985) vcan0 2A9#8C26009BC0000084
(1675525864.434062) vcan0 370#0725C0009503CB1F
(1675525864.435007) vcan0 072#F000FF3F0078A038
(1675525864.436460) vcan0 0F5#3FA94FA97F7F02DC
(1675525864.436539) vcan0 120#88A96FA97F015689
(1675525864.436616) vcan0 130#FFFF1D5E297CFD11
(1675525864.436694) vcan0 150#3A29FFF7FAF7A0C0
(1675525864.439155) vcan0 0E0#E27308C80080B300
(1675525864.440676) vcan0 008#4D80ECD200800080
(1675525864.440755) vcan0 010#008000002FB031F8
(1675525864.440833) vcan0 1D0#0000000000000061
(1675525864.444663) vcan0 125#E5FF7FE4C1D0D735
(1675525864.446253) vcan0 210#07E080A0D069D54D
(1675525864.446328) vcan0 1B0#00C0000002B000FC
(1675525864.446411) vcan0 1B5#FF9601D6B0E0FFEF
(1675525864.446485) vcan0 1D8#363339343234E143
(1675525864.446560) vcan0 1E0#003C030300B917E0
(1675525864.448896) vcan0 288#EDDFB04F00000080
(1675525864.450479) vcan0 055#F9F71138B2409E80
(1675525864.450554) vcan0 065#77E611F801EE5002
(1675525864.450628) vcan0 008#4D80FCC200800080
(1675525864.450701) vcan0 010#008000002FB031F8
(1675525864.450776) vcan0 070#000005F850E20D00
(1675525864.452085) vcan0 072#F000FF3F00788038
(1675525864.452157) vcan0 075#0000000000005458
(1675525864.452302) vcan0 080#2E508000C2002C00
(1675525864.452375) vcan0 0B0#528319A3E5C152E3
(1675525864.452449) vcan0 145#F992D680FC4810A1
(1675525864.452524) vcan0 28C#00000000002CFEA9
(1675525864.452598) vcan0 290#0000000000000000
(1675525864.453584) vcan0 2B5#4BCB166293A67B60
(1675525864.453659) vcan0 2C0#4F9E00000000A0F1
(1675525864.453732) vcan0 2C5#28DF8CC078E6D470
(1675525864.453808) vcan0 3AF#0000000000000020
(1675525864.456431) vcan0 360#699E0028BB53A001
(1675525864.456575) vcan0 0F5#32A947A97F43F2E0
(1675525864.456650) vcan0 120#77A97BA97F055689
(1675525864.456725) vcan0 130#87FF1D5E296CFD11
(1675525864.456799) vcan0 150#3A29FF07FAF790C0
(1675525864.456874) vcan0 3CA#00000000540000C8
(1675525864.459144) vcan0 0E0#E2730CD000808F00
(1675525864.460661) vcan0 260#D0FF00AA497487B0
(1675525864.460803) vcan0 008#4D800CB200800080
(1675525864.460877) vcan0 010#008000002FB031F8
(1675525864.460952) vcan0 1D0#0000000000000061
(1675525864.462193) vcan0 291#0000000000000000
(1675525864.462275) vcan0 390#80FF0500021E584F
(1675525864.463655) vcan0 072#F000FF3F0078A038
(1675525864.465168) vcan0 125#E5FD7FE4C1D0D735
(1675525864.466728) vcan0 1B0#00C0000002B000FC
(1675525864.466803) vcan0 1B5#FFB01CE3BDE0FFEF
(1675525864.466879) vcan0 1D8#363339343234E143
(1675525864.466953) vcan0 1E0#0000F34300B917E0
(1675525864.467026) vcan0 2C3#4F9E00FFFFDC5450
(1675525864.469432) vcan0 055#F9F71138B2409E80
(1675525864.472521) vcan0 065#74E611F8FFED5002
(1675525864.472596) vcan0 008#4D801CA200800080
(1675525864.472669) vcan0 010#008000002FB031F8
(1675525864.472743) vcan0 070#000005F850E20D00
(1675525864.472818) vcan0 075#0000000000005458
(1675525864.472959) vcan0 080#2E508000C2002C00
(1675525864.473928) vcan0 0B0#528319A3E5C152E3
(1675525864.474017) vcan0 145#F982D780FC4810A1
(1675525864.474161) vcan0 210#07E080A0D069D545
(1675525864.474234) vcan0 2A9#8C260082C0000084
(1675525864.474307) vcan0 288#F1DFB04F00000080
(1675525864.475411) vcan0 0F5#53A94FA97F47E2E3
(1675525864.476920) vcan0 120#5EA977A97FFF5589
(1675525864.476999) vcan0 130#8FFF1D5E295CFD11
(1675525864.477149) vcan0 150#3F29FF17FAF77BC0
(1675525864.479680) vcan0 0E0#E2731CD800805F00
(1675525864.481203) vcan0 008#4D802C9200800080
(1675525864.481283) vcan0 290#0000000000000000
(1675525864.481360) vcan0 010#008000002FB031F8
(1675525864.481439) vcan0 072#F000FF3F00788038
(1675525864.481589) vcan0 1D0#0000000000000061
(1675525864.483902) vcan0 125#E5FD7FE4C1D0D735
(1675525864.485421) vcan0 1B0#00C0000005B000FC
(1675525864.487033) vcan0 1B5#FFCB37F1CBE0FFEF
(1675525864.487110) vcan0 1D8#363339343234E143
(1675525864.487189) vcan0 1E0#0004E34300B917E0
(1675525864.488420) vcan0 055#F9F71138B2409E80
(1675525864.489940) vcan0 065#77E611F8FFED5002
(1675525864.490019) vcan0 008#4D803C8200800080
(1675525864.491539) vcan0 070#000005F850E20D00
(1675525864.491689) vcan0 075#0000000000005458
(1675525864.491769) vcan0 080#2E508000C2002C00
(1675525864.491846) vcan0 010#008000002FB031F9
(1675525864.491924) vcan0 0B0#528319A3E5C152E3
(1675525864.492001) vcan0 145#F972D880FC4810A1
(1675525864.492079) vcan0 260#D0FF0055497487B0
(1675525864.493096) vcan0 28C#00000000002CFEA9
(1675525864.493173) vcan0 291#0000000000000000
(1675525864.493252) vcan0 2B5#4BCB166293A67A60
(1675525864.493338) vcan0 330#2800000000000000
(1675525864.493416) vcan0 340#9F00000000000000
(1675525864.494649) vcan0 072#F000FF3F0078A038
(1675525864.497470) vcan0 210#07E080A0D069D54D
(1675525864.497548) vcan0 0F5#36A94BA97F4BD2E6
(1675525864.497626) vcan0 120#80A95BA97FFB5589
(1675525864.497703) vcan0 130#97FF1D5E294CFD11
(1675525864.497781) vcan0 150#3F29F927FAF76BC0
(1675525864.498941) vcan0 288#F1DFC03F00000080
(1675525864.500463) vcan0 0E0#E2732DE000802E00
(1675525864.500541) vcan0 008#4D804C7200800080
(1675525864.500618) vcan0 010#008000002FB031F8
(1675525864.500695) vcan0 1D0#0000000000000A61
(1675525864.503151) vcan0 350#A200000000000080
(1675525864.504672) vcan0 125#E5FD7FE4C1D0D735
(1675525864.506195) vcan0 1B0#00C0000005B000FC
(1675525864.506297) vcan0 1B5#FFE652FED8E0FFEF
(1675525864.506373) vcan0 1D8#363339343234E143
(1675525864.506452) vcan0 1E0#0004E30300B917E0
(1675525864.507686) vcan0 2C3#4F9E00FFFFDC5450
(1675525864.509209) vcan0 055#F9F71138B2409E80
(1675525864.510729) vcan0 065#78E611F802EE5102
(1675525864.510807) vcan0 008#4D805C6200800080
(1675525864.510885) vcan0 010#008000002FB031F8
(1675525864.510964) vcan0 070#000005F851E20D00
(1675525864.513708) vcan0 072#F000FF3F00788038
(1675525864.513787) vcan0 075#0000000000005458
(1675525864.513865) vcan0 080#2F508000C2002C00
(1675525864.513942) vcan0 0B0#528319A3E5C152E3
(1675525864.514094) vcan0 145#F962D980FC4810A1
(1675525864.514171) vcan0 290#0000000000000000
(1675525864.514248) vcan0 2A9#8C26009BC0000084
(1675525864.514334) vcan0 2C0#4F9E00010000A0F1
(1675525864.514411) vcan0 2C5#28DF8CC077E6D470
(1675525864.515140) vcan0 0F5#3FA936A97F4FC2EA
(1675525864.516669) vcan0 120#98A96FA97FFB5589
(1675525864.516747) vcan0 130#9FFF1D5E293CFF11
(1675525864.516896) vcan0 150#4129FD37FAF759C0
(1675525864.519427) vcan0 0E0#E27330E800800B00
(1675525864.520948) vcan0 260#D0FF0055497487B0
(1675525864.521027) vcan0 008#4D806C5200800080
(1675525864.521105) vcan0 010#008000002FB031F8
(1675525864.521182) vcan0 1D0#0000000000000061
(1675525864.521331) vcan0 210#07E080A0D069D545
(1675525864.522422) vcan0 291#0000000000000000
(1675525864.523942) vcan0 288#02E0C03F00000080
(1675525864.525462) vcan0 125#E5FA7FE4C1D0D735
(1675525864.525541) vcan0 072#F000FF3F0078A038
(1675525864.525626) vcan0 3B0#00D8743864B8C400
(1675525864.525705) vcan0 1B0#00C0000003B000FC
(1675525864.526975) vcan0 1B5#FF016D0BE5E0FFEF
(1675525864.527126) vcan0 1D8#363339343234E143
(1675525864.527204) vcan0 1E0#0008D34300B917E0
(1675525864.528436) vcan0 055#F9F71138B2409E80
(1675525864.529955) vcan0 065#77E611F800EE5102
(1675525864.530034) vcan0 008#4D807C4200800080
(1675525864.532993) vcan0 010#008000002FB031F8
(1675525864.533070) vcan0 070#000005F852E20D00
(1675525864.533149) vcan0 075#0000000000005458
(1675525864.533225) vcan0 080#2F508000C2002C00
(1675525864.533375) vcan0 0B0#528319A3E5C152E3
(1675525864.533453) vcan0 145#F952DA80FC4810A1
(1675525864.533533) vcan0 28C#00000000002CFEA9
(1675525864.533609) vcan0 2B5#4BCB166293A67961
(1675525864.533695) vcan0 370#0725C0009503CB1F
(1675525864.534420) vcan0 0F5#43A93FA97F53B2ED
(1675525864.535940) vcan0 120#6BA957A97FFF5589
(1675525864.536018) vcan0 130#A7FF1D5E292CFF11
(1675525864.537399) vcan0 150#3A290248FAF750C0
(1675525864.538921) vcan0 290#0000000000000000
(1675525864.540440) vcan0 0E0#E2732CF00080EF00
(1675525864.540517) vcan0 008#4D808C240E800080
(1675525864.540596) vcan0 010#008000002FB031F8
(1675525864.541898) vcan0 072#F000FF3F00788038
(1675525864.542051) vcan0 1D0#0000000000000061
(1675525864.543427) vcan0 3C8#4F9E008E882C008E
(1675525864.544945) vcan0 210#07E08020D069D545
(1675525864.545024) vcan0 125#E5F77FE4C1D0D735
(1675525864.546472) vcan0 1B0#00C0000002B000FC
(1675525864.546550) vcan0 1B5#FF1C8719F3E0FFEF
(1675525864.546636) vcan0 1D8#363339343234E143
(1675525864.546716) vcan0 1E0#000CC34300B917E0
(1675525864.546794) vcan0 2C3#4F9E00FFFFDD5450
(1675525864.549180) vcan0 288#FEDFC03F00000080
(1675525864.552284) vcan0 055#F9F71138B2409E80
(1675525864.552362) vcan0 065#76E611F800EE5102
(1675525864.552438) vcan0 008#4F809C120E800080
(1675525864.552516) vcan0 010#008000002FB031F8
(1675525864.552595) vcan0 070#000005F852E20D00
(1675525864.552673) vcan0 075#0000000000005458
(1675525864.552823) vcan0 080#2F508000C2002C00
(1675525864.552902) vcan0 0B0#528319A3E4C152E3
(1675525864.552979) vcan0 145#F942DB80FC4810A1
(1675525864.553057) vcan0 260#D0FF0055497487B0
(1675525864.553137) vcan0 291#0000000000000000
(1675525864.553211) vcan0 2A9#8C260082C0000084
(1675525864.553660) vcan0 072#F000FF3F0078A038
(1675525864.555178) vcan0 360#699E0028BB53A001
(1675525864.556699) vcan0 0F5#36A943A97F57A2F0
(1675525864.556778) vcan0 120#77A96BA97F015689
(1675525864.556854) vcan0 130#AFFF1D5E291CFF11
(1675525864.556932) vcan0 150#47290258FAF733C0
(1675525864.559389) vcan0 0E0#E27329F80080D200
(1675525864.560909) vcan0 008#4F80AC020E800080
(1675525864.561059) vcan0 010#008000002FB031F9
(1675525864.561138) vcan0 1D0#0000000000000261
(1675525864.561215) vcan0 390#80FF0500021E584F
(1675525864.563669) vcan0 125#E5F77FE4C1D0D735
(1675525864.565190) vcan0 1B0#00C0000002B000FC
(1675525864.566714) vcan0 1B5#FF36A22600E0FFEF
(1675525864.566791) vcan0 1D8#363339343234E143
(1675525864.566868) vcan0 1E0#000CC30300B917E0
(1675525864.569405) vcan0 055#F9F71138B2409E80
(1675525864.572514) vcan0 065#77E611F801EE5202
(1675525864.572592) vcan0 008#4F80BCF20E800080
(1675525864.572670) vcan0 010#008000002FB031F8
(1675525864.572747) vcan0 070#000005F852E20D00
(1675525864.572826) vcan0 072#F000FF3F00788038
(1675525864.572905) vcan0 075#0000000000005458
(1675525864.573055) vcan0 080#2F508000C2002C00
(1675525864.573136) vcan0 0B0#528319A3E4C152E3
(1675525864.573210) vcan0 145#F932DC80FC4810A1
(1675525864.573287) vcan0 210#07E080A0D069D54D
(1675525864.573365) vcan0 28C#00000000002CFEA9
(1675525864.573444) vcan0 290#0000000000000000
(1675525864.574097) vcan0 2B5#4BCC166293A67A62
(1675525864.574175) vcan0 2C0#4F9E00000000A0F1
(1675525864.574254) vcan0 2C5#28DF8CC078E6D470
(1675525864.574340) vcan0 330#2800000000000000
(1675525864.574417) vcan0 340#9F00000000000000
(1675525864.574569) vcan0 3AF#0000000000000020
(1675525864.574647) vcan0 3D0#9D0F6100641B80C3
(1675525864.574723) vcan0 288#E9DFC03F00000080
(1675525864.576968) vcan0 0F5#43A943A97F5B92F4
(1675525864.577046) vcan0 120#90A973A97FFD5589
(1675525864.577137) vcan0 130#B7FF1D5E290CFF11
(1675525864.577203) vcan0 150#4529FF67FAF725C0
(1675525864.577280) vcan0 3CA#00000000550000C8
(1675525864.579740) vcan0 0E0#E27327C00080B400
(1675525864.582704) vcan0 260#D0FF00AA497487B0
(1675525864.582780) vcan0 008#4F80CCE20E800080
(1675525864.582931) vcan0 010#008000002FB031F8
(1675525864.583009) vcan0 1D0#0000000000000861
(1675525864.583085) vcan0 291#0000000000000000
(1675525864.583173) vcan0 400#010100010204051A
(1675525864.583251) vcan0 405#699E003C00333D02
(1675525864.584122) vcan0 125#E5F77FE4C1D0D735
(1675525864.585644) vcan0 1B0#00C0000002B000FC
(1675525864.585792) vcan0 1B5#FF51BD330DE0FFEF
(1675525864.587172) vcan0 1D8#363339343234E143
(1675525864.587321) vcan0 072#F000FF3F0078A038
(1675525864.587401) vcan0 1E0#0010B34300B917E0
(1675525864.587477) vcan0 2C3#4F9E00FFFFDD5450
(1675525864.588710) vcan0 055#F9F71238B2409E80
(1675525864.590156) vcan0 065#75E611F8FFED5202
(1675525864.590305) vcan0 008#4F80DCD20E800080
(1675525864.590383) vcan0 070#000005F853E20D00
(1675525864.591688) vcan0 075#0000000000005458
(1675525864.591765) vcan0 080#30508000C2002C00
(1675525864.591916) vcan0 0B0#528319A3E4C152E3
(1675525864.592002) vcan0 145#F922DD80FC4810A1
(1675525864.592081) vcan0 010#008000002FB031F8
(1675525864.593170) vcan0 2A9#8C26008AC0000084
(1675525864.594688) vcan0 350#A200000000000080
(1675525864.596282) vcan0 0F5#3FA947A97F5F82F7
(1675525864.596361) vcan0 120#53A96BA97FFE5589
(1675525864.596438) vcan0 130#BFFF1D5E29FCFF11
(1675525864.596515) vcan0 150#3C29F977FAF71EC0
(1675525864.597676) vcan0 210#0AE080A0D069D545
(1675525864.599196) vcan0 288#F5DFD02F00000080
(1675525864.600716) vcan0 290#0000000000000000
(1675525864.600794) vcan0 0E0#E27324C800809700
(1675525864.600871) vcan0 008#4F80ECC20E800080
(1675525864.602177) vcan0 010#008000002FB031F8
(1675525864.602255) vcan0 072#F000FF3F00788038
(1675525864.602332) vcan0 1D0#0000000000000061
(1675525864.603645) vcan0 125#E5F77FE4C1D0D735
(1675525864.605167) vcan0 1B0#00C0000003B000FC
(1675525864.606690) vcan0 1B5#FF6CD8411BE0FFEF
(1675525864.606768) vcan0 1D8#363339343234E143
(1675525864.606847) vcan0 1E0#0014A34300B917E0
(1675525864.609448) vcan0 055#F9F71238B2409E80
(1675525864.610971) vcan0 008#4F80FCB20E800080
(1675525864.611049) vcan0 010#008000002FB031F8
(1675525864.611125) vcan0 065#77E611F800EE5302
(1675525864.611204) vcan0 070#000005F853E20D00
(1675525864.611280) vcan0 075#0000000000005458
(1675525864.612585) vcan0 080#30508000C2002C00
(1675525864.612662) vcan0 0B0#528319A3E4C152E3
(1675525864.612740) vcan0 145#F912DE80FC4810A1
(1675525864.612889) vcan0 260#D0FF00AA497487B0
(1675525864.612967) vcan0 28C#00000000002CFEA9
(1675525864.613052) vcan0 291#0000000000000000
(1675525864.613143) vcan0 2B5#4BCC166293A67A63
(1675525864.615444) vcan0 072#F000FF3F0078A038
(1675525864.615519) vcan0 0F5#3FA943A97F6372FB
(1675525864.617041) vcan0 120#73A96BA97F085689
(1675525864.617121) vcan0 130#C7FF1D5E29ECFF11
(1675525864.617199) vcan0 150#4729FF87FAF703C0
(1675525864.618430) vcan0 0E0#E27328D000807300
(1675525864.619949) vcan0 008#4F800CA20E800080
(1675525864.621470) vcan0 010#008000002FB031F8
(1675525864.621547) vcan0 1D0#0000000000000061
(1675525864.621626) vcan0 210#0AE080A0D069D54D
(1675525864.624156) vcan0 288#F1DFD02F00000080
(1675525864.625678) vcan0 125#E5F77FE4C1D0D735
(1675525864.625756) vcan0 1B0#00C0000002B000FC
(1675525864.625833) vcan0 1B5#FF87F34E28E0FFEF
(1675525864.627220) vcan0 1D8#363339343234E143
(1675525864.627298) vcan0 1E0#0014A30300B917E0
(1675525864.627376) vcan0 2C3#4F9E00FFFFDE5450
(1675525864.628680) vcan0 055#F9F71138B2409E80
(1675525864.630200) vcan0 065#78E612F800EE5302
(1675525864.630278) vcan0 008#4F801C920E800080
(1675525864.630354) vcan0 010#008000002FB031F8
(1675525864.631802) vcan0 070#000005F853E20D00
(1675525864.631877) vcan0 072#F000FF3F00788038
(1675525864.632028) vcan0 075#0000000000005458
(1675525864.632106) vcan0 080#30508000C2002C00
(1675525864.632184) vcan0 0B0#528319A3E4C152E3
(1675525864.632262) vcan0 145#F902DF80FC4810A1
(1675525864.632339) vcan0 290#0000000000000000
(1675525864.633354) vcan0 2A9#8C260093C0000084
(1675525864.633431) vcan0 2C0#4F9E00000000A0F1
(1675525864.633517) vcan0 2C5#29DF8CC078E6D470
(1675525864.633594) vcan0 370#0725C0009503CB1F
(1675525864.633672) vcan0 3E0#000000D933808092
(1675525864.636275) vcan0 0F5#4FA94FA97F6762FE
(1675525864.636353) vcan0 120#88A95BA97FFF5589
(1675525864.636431) vcan0 130#CFFF1D5E29DCFF11
(1675525864.636510) vcan0 150#4529FD97FAF7F5C0
(1675525864.638900) vcan0 0E0#E27326D800805500
(1675525864.640420) vcan0 260#D0FF00AA497487B0
(1675525864.640497) vcan0 008#4F802C9000800080
(1675525864.640647) vcan0 010#008000002FB031F8
(1675525864.641951) vcan0 1D0#0000000000000061
(1675525864.642028) vcan0 291#0000000000000000
(1675525864.644706) vcan0 125#E5F77FE4C1D0D735
(1675525864.646326) vcan0 072#F000FF3F0078A038
(1675525864.646404) vcan0 210#0AE080A0D069D54D
(1675525864.646503) vcan0 1B0#00C0000002B000FC
(1675525864.646583) vcan0 1B5#FFA20D5B35E0FFEF
(1675525864.646661) vcan0 1D8#363339343234E143
(1675525864.646739) vcan0 1E0#0018934300B917E0
(1675525864.646816) vcan0 3B0#00D8743864B8C400
(1675525864.650433) vcan0 288#EDDFD02F00000080
(1675525864.650511) vcan0 055#F9F71238B2409E80
(1675525864.650587) vcan0 065#76E611F800EE5302
(1675525864.650739) vcan0 008#4F803C8000800080
(1675525864.650818) vcan0 010#008000002FB031F9
(1675525864.650895) vcan0 070#000005F853E20D00
(1675525864.653425) vcan0 075#0000000000005458
(1675525864.653575) vcan0 080#30508000C2002C00
(1675525864.653652) vcan0 0B0#528319A3E4C152E3
(1675525864.653731) vcan0 145#F9F2D080FC4810A1
(1675525864.653808) vcan0 28C#00000000002CFEA9
(1675525864.653896) vcan0 2B5#4BCC166293A67A63
(1675525864.653973) vcan0 330#2800000000000000
(1675525864.654051) vcan0 340#9F00000000000000
(1675525864.654923) vcan0 360#699E0028BB53A001
(1675525864.656451) vcan0 0F5#36A957A97F6B5201
(1675525864.656529) vcan0 120#5EA96BA97FFE5589
(1675525864.656607) vcan0 130#D7FF1D5E29CCFF11
(1675525864.656685) vcan0 150#4729FBA7FAF7E3C0
(1675525864.659214) vcan0 290#0000000000000000
(1675525864.660663) vcan0 0E0#E2731CE000803F00
(1675525864.660742) vcan0 008#4F804C7000800080
(1675525864.660892) vcan0 010#008000002FB031F8
(1675525864.660971) vcan0 072#F000FF3F00788038
(1675525864.661046) vcan0 1D0#0000000000000A61
(1675525864.662208) vcan0 390#80FF050002165A4F
(1675525864.663654) vcan0 3C8#4F9E008E882C008E
(1675525864.665182) vcan0 125#E5F77FE4C1D0D735
(1675525864.666706) vcan0 1B0#00C0000004B000FC
(1675525864.666785) vcan0 1B5#FFBD286943E0FFEF
(1675525864.666862) vcan0 1D8#363339343234E143
(1675525864.666940) vcan0 1E0#001C834300B917E0
(1675525864.667090) vcan0 2C3#4F9E00FFFFDF5450
(1675525864.669404) vcan0 055#F9F71138B2409E80
(1675525864.672440) vcan0 065#79E612F800EE5302
(1675525864.672517) vcan0 008#4F805C6000800080
(1675525864.672594) vcan0 010#008000002FB031F8
(1675525864.672674) vcan0 070#000005F853E20D00
(1675525864.672750) vcan0 075#0000000000005458
(1675525864.672829) vcan0 080#30508000C2002C00
(1675525864.673989) vcan0 0B0#528319A3E5C152E3
(1675525864.674067) vcan0 145#F9E2D180FC4810A1
(1675525864.674143) vcan0 210#0AE080A0D069D545
(1675525864.674230) vcan0 260#D0FF0055497487B0
(1675525864.674308) vcan0 291#0000000000000000
(1675525864.674386) vcan0 2A9#8C26008AC0000084
(1675525864.675478) vcan0 288#D9DFD02F00000080
(1675525864.675627) vcan0 072#F000FF3F0078A038
(1675525864.675704) vcan0 0F5#47A94FA97F6F4205
(1675525864.676977) vcan0 120#67A96BA97F0A5689
(1675525864.677053) vcan0 130#DFFF1D5E29BCFF11
(1675525864.677141) vcan0 150#4729F7B7FAF7D3C0
(1675525864.678438) vcan0 0E0#E27321E800801A00
(1675525864.679956) vcan0 008#4F806C5000800080
(1675525864.681404) vcan0 010#008000002FB031F8
(1675525864.681556) vcan0 1D0#0000000000000061
(1675525864.682931) vcan0 350#A200000000000080
(1675525864.684457) vcan0 125#E5F47FE4C1D0D735
(1675525864.685905) vcan0 1B0#00C0000002B000FC
(1675525864.686061) vcan0 1B5#FFD7437650E0FFEF
(1675525864.686141) vcan0 1D8#363339343234E143
(1675525864.687411) vcan0 1E0#001C830300B917E0
(1675525864.688932) vcan0 055#F9F71138B2409E80
(1675525864.690450) vcan0 065#79E611F802EE5302
(1675525864.690528) vcan0 008#4F807C320E800080
(1675525864.690606) vcan0 070#000005F853E20D00
(1675525864.690684) vcan0 075#0000000000005458
(1675525864.693501) vcan0 080#30508000C2002C00
(1675525864.693578) vcan0 0B0#528319A3E5C152E3
(1675525864.693656) vcan0 145#F9D2D280FC4810A1
(1675525864.693734) vcan0 010#008000002FB031F8
(1675525864.693886) vcan0 072#F000FF3F00788038
(1675525864.693961) vcan0 28C#00000000002CFEA9
(1675525864.694041) vcan0 290#0000000000000000
(1675525864.694118) vcan0 2B5#4BCC166293A67A63
(1675525864.694204) vcan0 2C0#4F9E00010000A0F1
(1675525864.694283) vcan0 2C5#29DF8CC079E6D470
(1675525864.694359) vcan0 3AF#0000000000000020
(1675525864.694942) vcan0 210#0AE08020D069D54D
(1675525864.696465) vcan0 0F5#3BA947A97F733208
(1675525864.696543) vcan0 120#7BA95BA97FFF5589
(1675525864.696620) vcan0 130#E7FF1D5E29ACFF11
(1675525864.696698) vcan0 150#3A29F8C7FAF7D0C0
(1675525864.696776) vcan0 3CA#00000000560000C8
(1675525864.699163) vcan0 288#E1DFE01F00000080
(1675525864.700684) vcan0 0E0#E27328F00080F300
(1675525864.700762) vcan0 260#D0FF0055497487B0
(1675525864.700841) vcan0 008#51808C200E800080
(1675525864.700917) vcan0 010#008000002FB031F8
(1675525864.701068) vcan0 1D0#0000000000000061
(1675525864.702155) vcan0 291#0000000000000000
(1675525864.703685) vcan0 125#E5F47FE4C1D0D735
(1675525864.705208) vcan0 072#F000FF3F0078A038
(1675525864.706720) vcan0 1B0#00C0000002B000FC
(1675525864.706794) vcan0 1B5#FFF25E835EE0FFEF
(1675525864.706868) vcan0 1D8#363339343234E143
(1675525864.706943) vcan0 1E0#0020734300B917E0
(1675525864.707086) vcan0 2C3#4F9E00FFFFDF5450
(1675525864.709425) vcan0 055#F9F71138B2409E80
(1675525864.712445) vcan0 065#76E611F800EE5302
(1675525864.712520) vcan0 008#51809C100E800080
(1675525864.712663) vcan0 010#008000002FB031F8
(1675525864.712736) vcan0 070#000005F852E20D00
(1675525864.712812) vcan0 075#0000000000005458
(1675525864.712887) vcan0 080#2F508000C2002C00
(1675525864.712959) vcan0 0B0#528319A3E4C152E3
(1675525864.713102) vcan0 145#F9C2D380FC4810A1
(1675525864.713184) vcan0 2A9#8C260093C0000084
(1675525864.715179) vcan0 0F5#2EA93BA97F77220B
(1675525864.716692) vcan0 120#5BA96BA97FFF5589
(1675525864.716770) vcan0 130#EFFF1D5E299CFF11
(1675525864.716849) vcan0 150#3F29F8D7FAF7BBC0
(1675525864.719453) vcan0 290#0000000000000000
(1675525864.721048) vcan0 0E0#E2732BF80080D000
(1675525864.721133) vcan0 008#5180AC000E800080
(1675525864.721276) vcan0 010#008000002FB031F8
(1675525864.721354) vcan0 072#F000FF3F00788038
(1675525864.721431) vcan0 1D0#0000000000000061
(1675525864.721510) vcan0 210#0AE080A0D069D545
(1675525864.725194) vcan0 288#EDDFE01F00000080
(1675525864.725271) vcan0 125#E5F47FE4C1D0D735
(1675525864.726682) vcan0 1B0#00C0000002B000FC
(1675525864.726761) vcan0 1B5#FF0D78916BE0FFEF
(1675525864.726848) vcan0 1D8#363339343234E143
(1675525864.726925) vcan0 1E0#0024634300B917E0
(1675525864.729385) vcan0 055#F9F71138B2409E80
(1675525864.732491) vcan0 065#72E611F8FDED5202
(1675525864.732570) vcan0 008#5480BCED0E800080
(1675525864.732721) vcan0 010#008000002FB031F9
(1675525864.732799) vcan0 070#000005F853E20D00
(1675525864.732876) vcan0 075#0000000000005458
(1675525864.732954) vcan0 080#30508000C2002C00
(1675525864.733032) vcan0 0B0#528319A3E4C152E3
(1675525864.733109) vcan0 145#F9B2D480FC4810A1
(1675525864.733186) vcan0 260#D0FF0055497487B0
(1675525864.733265) vcan0 28C#00000000002CFEA9
(1675525864.733415) vcan0 291#0000000000000000
(1675525864.733493) vcan0 2B5#4BCD166293A67A62
(1675525864.733933) vcan0 330#2800000000000000
(1675525864.734020) vcan0 340#9F00000000000000
(1675525864.734099) vcan0 370#0725C0009503CB1F
(1675525864.734177) vcan0 425#0000000000000000
(1675525864.735409) vcan0 072#F000FF3F0078A038
(1675525864.735560) vcan0 0F5#43A943A97F7B120F
(1675525864.736902) vcan0 120#43A95BA97F045689
(1675525864.737052) vcan0 130#F7FF1D5B298FFD11
(1675525864.737144) vcan0 150#4129FCE7FAF7A9C0
(1675525864.738436) vcan0 0E0#E27329C00080B200
(1675525864.739957) vcan0 008#5480CCDD0E800080
(1675525864.741407) vcan0 010#008000002FB031F8
(1675525864.741559) vcan0 1D0#0000000000000A61
(1675525864.744164) vcan0 125#E5F47FE4C1D0D735
(1675525864.745686) vcan0 210#0AE080A0D069D545
(1675525864.745765) vcan0 1B0#00C0000003B000FC
(1675525864.745842) vcan0 1B5#FF28939E78E0FFEF
(1675525864.747191) vcan0 1D8#363339343234E143
(1675525864.747269) vcan0 1E0#0024630300B917E0
(1675525864.747349) vcan0 2C3#4F9E00FFFFE05450
(1675525864.748652) vcan0 288#EDDFE01F00000080
(1675525864.750173) vcan0 055#F9F71238B2409E80
(1675525864.750250) vcan0 065#78E611F800EE5302
(1675525864.750400) vcan0 008#5480DCCD0E800080
(1675525864.750477) vcan0 010#008000002FB031F8
(1675525864.751852) vcan0 070#000005F853E20D00
(1675525864.751930) vcan0 072#F000FF3F00788038
(1675525864.752007) vcan0 075#0000000000005458
(1675525864.752085) vcan0 080#30508000C2002C00
(1675525864.752163) vcan0 0B0#528319A3E5C152E3
(1675525864.752239) vcan0 145#F9A2D580FC4810A1
(1675525864.752318) vcan0 290#0000000000000000
(1675525864.753335) vcan0 2A9#8C26008AC0000084
(1675525864.753420) vcan0 2C0#4F9E00000000A0F1
(1675525864.753498) vcan0 2C5#29DF8CC072E6D470
(1675525864.756247) vcan0 360#699E0028BB53A001
(1675525864.756324) vcan0 0F5#27A93BA97F7F0212
(1675525864.756402) vcan0 120#84A96BA97FFC5589
(1675525864.756552) vcan0 130#FFFD1D5B297FFD11
(1675525864.756629) vcan0 150#4129FBF7FBF799C0
(1675525864.758945) vcan0 0E0#E2732AC800809100
(1675525864.760464) vcan0 008#5480ECBD0E800080
(1675525864.760542) vcan0 010#008000002FB031F8
(1675525864.760619) vcan0 1D0#0000000000000061
(1675525864.761923) vcan0 260#D0FF0055497487B0
(1675525864.762001) vcan0 291#0000000000000000
(1675525864.762150) vcan0 390#80FF050002125B4F
(1675525864.763455) vcan0 072#F000FF3F0078A038
(1675525864.764902) vcan0 125#E5F47FE4C1D0D735
(1675525864.766459) vcan0 3B0#00D8743864B8C400
(1675525864.766537) vcan0 1B0#00C0000005B000FC
(1675525864.766615) vcan0 1B5#FF42AEAB86E0FFEF
(1675525864.766693) vcan0 1D8#363339343234E143
(1675525864.766770) vcan0 1E0#0028534300B917E0
(1675525864.769157) vcan0 008#5480FCAD0E800080
(1675525864.770679) vcan0 010#008000002FB031F8
(1675525864.770757) vcan0 055#F9F71238B2409E80
(1675525864.770835) vcan0 065#75E612F802EE5402
(1675525864.773726) vcan0 070#000005F854E20D00
(1675525864.773804) vcan0 075#0000000000005458
(1675525864.773882) vcan0 080#30508000C2002C00
(1675525864.773960) vcan0 0B0#528319A3E5C152E3
(1675525864.774038) vcan0 145#F992D680FC4810A1
(1675525864.774189) vcan0 210#0AE080A0D069D54D
(1675525864.774266) vcan0 28C#00000000002CFEA9
(1675525864.774353) vcan0 2B5#4BCD166293A67A63
(1675525864.774430) vcan0 3D0#9D0F6100641B80C3
(1675525864.774508) vcan0 350#A200000000000080
(1675525864.775164) vcan0 288#E9DFE01F00000080
(1675525864.775243) vcan0 430#30082E0000002CC6
(1675525864.776693) vcan0 0F5#36A93BA97F43F215
(1675525864.776770) vcan0 120#80A977A97F025689
(1675525864.776850) vcan0 130#87FF1D5B296FFD11
(1675525864.776928) vcan0 150#4329FF07FBF787C0
(1675525864.779455) vcan0 290#0000000000000000
(1675525864.780975) vcan0 0E0#E2732ED000806D00
(1675525864.781054) vcan0 008#54800C8F1C800080
(1675525864.781140) vcan0 010#008000002FB031F8
(1675525864.781209) vcan0 072#F000FF3F00788038
(1675525864.781287) vcan0 1D0#0000000000000061
(1675525864.783673) vcan0 3C8#4F9E008E882C008E
(1675525864.785141) vcan0 125#E5F47FE4C1D0D735
(1675525864.786671) vcan0 1B0#00C0000004B000FC
(1675525864.786822) vcan0 1B5#FF5DC9B993E0FFEF
(1675525864.786897) vcan0 1D8#363339343234E143
(1675525864.786977) vcan0 1E0#002C434300B917E0
(1675525864.787053) vcan0 2C3#4F9E00FFFFE05450
(1675525864.789445) vcan0 055#F9F71238B2409E80
(1675525864.792545) vcan0 065#73E612F800EE5402
(1675525864.792623) vcan0 008#54801C8D0E800080
(1675525864.792701) vcan0 070#000005F854E20D00
(1675525864.792778) vcan0 075#0000000000005458
(1675525864.792857) vcan0 080#30508000C2002C00
(1675525864.792933) vcan0 0B0#528319A3E5C152E3
(1675525864.793011) vcan0 010#008000002FB031F8
(1675525864.793088) vcan0 145#F982D780FC4810A1
(1675525864.793238) vcan0 260#D0FF00AA497487B0
(1675525864.793324) vcan0 291#0000000000000000
(1675525864.793403) vcan0 2A9#8C260082C0000084
(1675525864.793913) vcan0 072#F000FF3F0078A038
(1675525864.795436) vcan0 210#0AE080A0D069D545
(1675525864.796959) vcan0 0F5#3BA93BA97F47E219
(1675525864.797038) vcan0 120#6BA96FA97FFB5589
(1675525864.797114) vcan0 130#8FFF1D5B295FFD11
(1675525864.797194) vcan0 150#3229F917FBF788C0
(1675525864.798425) vcan0 288#F5DFF00F00000080
(1675525864.799945) vcan0 0E0#E27333D800804800
(1675525864.800024) vcan0 008#54802C7D0E800080
(1675525864.801399) vcan0 010#008000002FB031F8
(1675525864.801549) vcan0 1D0#0000000000000061
(1675525864.804149) vcan0 125#E5F17FE4C1D0D735
(1675525864.805673) vcan0 1B0#00C0000006B000FC
(1675525864.805750) vcan0 1B5#FF78E4C6A0E0FFEF
(1675525864.807137) vcan0 1D8#363339343234E143
(1675525864.807286) vcan0 1E0#002C430300B917E0
(1675525864.808662) vcan0 055#F9F71238B2409E80
(1675525864.810183) vcan0 065#76E612F8FEED5402
(1675525864.810261) vcan0 008#56803C5623800080
(1675525864.810337) vcan0 010#008000002FB031F9
(1675525864.813226) vcan0 070#000005F854E20D00
(1675525864.813304) vcan0 072#F000FF3F00788038
(1675525864.813455) vcan0 075#0000000000005458
(1675525864.813531) vcan0 080#30508000C2002C00
(1675525864.813610) vcan0 0B0#528319A3E5C152E3
(1675525864.813689) vcan0 145#F972D880FC4810A1
(1675525864.813766) vcan0 28C#00000000002CFEA9
(1675525864.813843) vcan0 290#0000000000000000
(1675525864.813921) vcan0 2B5#4BCD166293A67A64
(1675525864.814071) vcan0 2C0#4F9E00000000A0F1
(1675525864.814159) vcan0 2C5#29DF8CC075E6D470
(1675525864.814236) vcan0 330#2800000000000000
(1675525864.814674) vcan0 340#9F00000000000000
(1675525864.814754) vcan0 3AF#0000000000000020
(1675525864.816204) vcan0 0F5#43A947A97F4BD21C
(1675525864.816282) vcan0 120#73A96BA97FFE5589
(1675525864.816360) vcan0 130#97FF1D5B294FFD11
(1675525864.816509) vcan0 150#4929FF27FBF761C0
(1675525864.817669) vcan0 3CA#00000000400000C8
(1675525864.819191) vcan0 0E0#E27338E000802300
(1675525864.820713) vcan0 008#56804C4623800080
(1675525864.820790) vcan0 260#D0FF00AA497487B0
(1675525864.820868) vcan0 010#008000002FB031F8
(1675525864.820945) vcan0 1D0#0000000000000A61
(1675525864.822177) vcan0 210#0AE080A0D069D54D
(1675525864.822254) vcan0 291#0000000000000000
(1675525864.823712) vcan0 288#E9DFF00F00000080
(1675525864.825160) vcan0 125#E5F17FE4C1D0D735
(1675525864.825311) vcan0 072#F000FF3F0078A038
(1675525864.826688) vcan0 1B0#00C0000002B000FC
(1675525864.826765) vcan0 1B5#FF93FED3AEE0FFEF
(1675525864.826844) vcan0 1D8#363339343234E143
(1675525864.826920) vcan0 1E0#0030334300B917E0
(1675525864.827074) vcan0 2C3#4F9E00FFFFE15450
(1675525864.829389) vcan0 055#F9F71238B2409E80
(1675525864.831126) vcan0 065#7CE612F804EE5402
(1675525864.831204) vcan0 008#56805C3623800080
(1675525864.831354) vcan0 010#008000002FB031F8
(1675525864.831432) vcan0 070#000005F854E20D00
(1675525864.831510) vcan0 075#0000000000005458
(1675525864.831588) vcan0 080#31508000C2002C00
(1675525864.831665) vcan0 0B0#528319A3E4C152E3
(1675525864.832551) vcan0 145#F962D980FC4810A1
(1675525864.832700) vcan0 2A9#8C26009BC0000084
(1675525864.832779) vcan0 370#0725C0009503CB1F
(1675525864.832856) vcan0 400#000101010002031B
(1675525864.832934) vcan0 405#0000000000000022
(1675525864.836693) vcan0 0F5#47A947A97F4FC21F
(1675525864.836773) vcan0 120#80A967A97FF85589
(1675525864.836850) vcan0 130#9FFF1D5B293FFF11
(1675525864.836929) vcan0 150#3D29FB37FBF75DC0
(1675525864.839461) vcan0 290#0000000000000000
(1675525864.840908) vcan0 0E0#E27337E800800400
(1675525864.841058) vcan0 008#56806C2623800080
(1675525864.841137) vcan0 010#008000002FB031F8
(1675525864.841214) vcan0 072#F000FF3F00788038
(1675525864.841291) vcan0 1D0#0000000000000061
(1675525864.843680) vcan0 125#E5F17FE4C1D0D735
(1675525864.845210) vcan0 210#0AE08020D069D54D
(1675525864.846671) vcan0 1B0#00C0000000B000FC
(1675525864.846821) vcan0 1B5#FFAE19E1BBE0FFEF
(1675525864.846901) vcan0 1D8#363339343234E143
(1675525864.846977) vcan0 1E0#0034234300B917E0
(1675525864.848209) vcan0 288#F1DFF00F00000080
(1675525864.849657) vcan0 055#F9F71238B2409E80
(1675525864.849808) vcan0 065#77E612F801EE5402
(1675525864.851330) vcan0 008#56807C1623800080
(1675525864.851409) vcan0 010#008000002FB031F8
(1675525864.851486) vcan0 070#000005F855E20D00
(1675525864.851563) vcan0 075#0000000000005458
(1675525864.851641) vcan0 080#31508000C2002C00
(1675525864.851792) vcan0 0B0#528319A3E4C152E3
(1675525864.851871) vcan0 145#F952DA80FC4810A1
(1675525864.852816) vcan0 260#D0FF00AA497487B0
(1675525864.852901) vcan0 28C#00000000002CFEA9
(1675525864.852979) vcan0 291#0000000000000000
(1675525864.853058) vcan0 2B5#4BCD166293A67964
(1675525864.855732) vcan0 072#F000FF3F0078A038
(1675525864.855809) vcan0 360#699E0028BB53A001
(1675525864.855887) vcan0 0F5#3BA943A97F53B223
(1675525864.855966) vcan0 120#67A96BA97FFD5589
(1675525864.857200) vcan0 130#A7FF1D5B292FFF11
(1675525864.857276) vcan0 150#3D29FD47FBF74DC0
(1675525864.858652) vcan0 0E0#E2732BF00080F000
(1675525864.860175) vcan0 008#56808C0623800080
(1675525864.860252) vcan0 010#008000002FB031F8
(1675525864.861698) vcan0 1D0#0000000000000061
(1675525864.861776) vcan0 390#80FF050002125B6F
(1675525864.863153) vcan0 350#A200000000000080
(1675525864.864671) vcan0 125#E5F17FE4C1D0D735
(1675525864.866202) vcan0 1B0#00C0000002B000FC
(1675525864.866280) vcan0 1B5#FFC934EEC8E0FFEF
(1675525864.866360) vcan0 1D8#363339343234E143
(1675525864.866510) vcan0 1E0#0034230300B917E0
(1675525864.867742) vcan0 2C3#4F9E00FFFFE25450
(1675525864.869190) vcan0 055#F9F71238B2409E80
(1675525864.870711) vcan0 065#73E612F8FCED5502
(1675525864.870788) vcan0 008#56809CF623800080
(1675525864.870867) vcan0 070#000005F854E20D00
(1675525864.870945) vcan0 010#008000002FB031F8
(1675525864.871021) vcan0 072#F000FF3F00788038
(1675525864.873698) vcan0 075#0000000000005458
(1675525864.873777) vcan0 080#30508000C2002C00
(1675525864.873926) vcan0 0B0#528319A3E5C152E3
(1675525864.874004) vcan0 145#F942DB80FC4810A1
(1675525864.874081) vcan0 210#0AE080A0D069D545
(1675525864.874167) vcan0 290#0000000000000000
(1675525864.874246) vcan0 2A9#8C260082C0000084
(1675525864.874324) vcan0 2C0#4F9E00000000A0F1
(1675525864.874402) vcan0 2C5#2ADF8CC078E6D470
(1675525864.875130) vcan0 288#F9DFF00F00000080
(1675525864.876691) vcan0 0F5#47A943A97F57A226
(1675525864.876769) vcan0 120#6FA96FA97FFD5589
(1675525864.876849) vcan0 130#AFFF1D5B291FFF11
(1675525864.876926) vcan0 150#4729FF57FBF733C0
(1675525864.879530) vcan0 0E0#E2732BF80080D000
(1675525864.880907) vcan0 008#5680ACF415800080
(1675525864.881058) vcan0 260#D0FF0055497487B0
(1675525864.881135) vcan0 010#008000002FB031F8
(1675525864.881213) vcan0 1D0#0000000000000061
(1675525864.881292) vcan0 291#0000000000000000
(1675525864.883679) vcan0 125#E5F17FE4C1D0D735
(1675525864.885210) vcan0 1B0#00C0000002B000FC
(1675525864.886740) vcan0 072#F000FF3F0078A038
(1675525864.886818) vcan0 1B5#FFE34FFBD6E0FFEF
(1675525864.886895) vcan0 1D8#363339343234E143
(1675525864.886974) vcan0 1E0#0038134300B917E0
(1675525864.887052) vcan0 3B0#00D8743C64B8C600
(1675525864.889439) vcan0 055#F9F71238B2409E80
(1675525864.892545) vcan0 065#79E612F8FFED5402
(1675525864.892623) vcan0 008#5680BCE415800080
(1675525864.892702) vcan0 070#000005F854E20D00
(1675525864.892780) vcan0 075#0000000000005458
(1675525864.892856) vcan0 080#31508000C2002C00
(1675525864.892934) vcan0 0B0#528319A3E5C152E3
(1675525864.893011) vcan0 145#F932DC80FC4810A1
(1675525864.893162) vcan0 010#008000002FB031F9
(1675525864.893241) vcan0 28C#00000000002CFEA9
(1675525864.893327) vcan0 2B5#4BCE166293A67A64
(1675525864.893405) vcan0 330#2800000000000000
(1675525864.893482) vcan0 340#9F00000000000000
(1675525864.895147) vcan0 0F5#3BA94BA97F5B9229
(1675525864.896677) vcan0 120#73A963A97FFF5589
(1675525864.896755) vcan0 130#B7FF1D5B290FFF11
(1675525864.896833) vcan0 150#4329FB67FBF727C0
(1675525864.896982) vcan0 210#06E080A0D069D54D
(1675525864.898145) vcan0 288#E5DF00FF00000080
(1675525864.899666) vcan0 0E0#E2732DC00080AE00
(1675525864.901194) vcan0 290#0000000000000000
(1675525864.901271) vcan0 008#5680CCD415800080
(1675525864.901349) vcan0 010#008000002FB031F8
(1675525864.901498) vcan0 072#F000FF3F00788038
(1675525864.901576) vcan0 1D0#0000000000000A61
(1675525864.903891) vcan0 3C8#4F9E008E882C008E
(1675525864.905421) vcan0 125#E5F17FE4C1D0D735
(1675525864.905499) vcan0 1B0#00C0000002B000FC
(1675525864.906956) vcan0 1B5#FFFE6A09E3E0FFEF
(1675525864.907033) vcan0 1D8#363339343234E143
(1675525864.907111) vcan0 1E0#003C034300B917E0
(1675525864.907190) vcan0 2C3#4F9E00FFFFE25450
(1675525864.908420) vcan0 055#F9F71238B2409E80
(1675525864.909943) vcan0 065#78E612F804EE5402
(1675525864.911609) vcan0 008#5680DCD900800080
(1675525864.911686) vcan0 010#008000002FB031F8
(1675525864.911764) vcan0 070#000005F855E20D00
(1675525864.911841) vcan0 075#0000000000005458
(1675525864.911922) vcan0 080#31508000C2002C00
(1675525864.911999) vcan0 0B0#528319A3E5C152E3
(1675525864.912077) vcan0 145#F922DD80FC4810A1
(1675525864.912226) vcan0 260#D0FF0055497487B0
(1675525864.913035) vcan0 291#0000000000000000
(1675525864.913185) vcan0 2A9#8C26009BC0000084
(1675525864.914561) vcan0 072#F000FF3F0078A038
(1675525864.917478) vcan0 0F5#32A93FA97F5F822D
(1675525864.917556) vcan0 120#77A977A97FFF5589
(1675525864.917633) vcan0 130#BFFF1D5B29FFFF11
(1675525864.917712) vcan0 150#4529F977FBF715C0
(1675525864.918944) vcan0 0E0#E2732AC800809100
(1675525864.920464) vcan0 008#5680ECC900800080
(1675525864.920542) vcan0 010#008000002FB031F8
(1675525864.920620) vcan0 1D0#0000000000000061
(1675525864.921924) vcan0 210#06E080A0D069D545
(1675525864.923442) vcan0 288#EDDF00FF00000080
(1675525864.924961) vcan0 125#E5F17FE4C1D0D735
(1675525864.926473) vcan0 1B0#00C0000002B000FC
(1675525864.926546) vcan0 1B5#FF198416F0E0FFEF
(1675525864.926641) vcan0 1D8#363339343234E143
(1675525864.926716) vcan0 1E0#003C030300B917E0
(1675525864.929123) vcan0 055#F9F71238B23E9E80
(1675525864.930706) vcan0 008#5680FCB900800080
(1675525864.930780) vcan0 010#008000002FB031F8
(1675525864.930854) vcan0 065#73E612F8FEED5502
(1675525864.930928) vcan0 070#000005F855E20D00
(1675525864.933747) vcan0 072#F000FF3F00788038
(1675525864.933820) vcan0 075#0000000000005458
(1675525864.933894) vcan0 080#31508000C2002C00
(1675525864.934036) vcan0 0B0#528319A3E5C152E3
(1675525864.934111) vcan0 145#F912DE80FC4810A1
(1675525864.934184) vcan0 28C#00000000002CFEA9
(1675525864.934259) vcan0 290#0000000000000000
(1675525864.934333) vcan0 2B5#4BCE166293A67A64
(1675525864.934476) vcan0 2C0#4F9E00000000A0F1
(1675525864.934560) vcan0 2C5#2ADF8CC075E6D470
(1675525864.934633) vcan0 370#0725C0009503CB1F
(1675525864.934707) vcan0 3AF#0000000000000020
(1675525864.935194) vcan0 3E0#000000D933808092
(1675525864.936722) vcan0 0F5#47A943A97F637230
(1675525864.936802) vcan0 120#5EA973A97F025689
(1675525864.936879) vcan0 130#C7FF1D5B29EFFF11
(1675525864.936959) vcan0 150#4729FC87FBF703C0
(1675525864.937034) vcan0 3CA#00000000510000C8
(1675525864.939423) vcan0 0E0#E2732AD000807100
(1675525864.940944) vcan0 008#56800CA900800080
(1675525864.941021) vcan0 260#D0FF0055497487B0
(1675525864.941100) vcan0 010#008000002FB031F8
(1675525864.941249) vcan0 1D0#0000000000000061
(1675525864.941328) vcan0 291#0000000000000000
(1675525864.943642) vcan0 072#F000FF3F0078A038
(1675525864.945176) vcan0 125#E5F17FE4C1D0D735
(1675525864.945254) vcan0 210#06E080A0D069D545
(1675525864.946707) vcan0 1B0#00C0000003B000FC
(1675525864.946786) vcan0 1B5#FF349F23FEE0FFEF
(1675525864.946865) vcan0 1D8#363339343234E143
(1675525864.946943) vcan0 1E0#0000F34300B917E0
(1675525864.947019) vcan0 2C3#4F9E00FFFFE35450
(1675525864.948179) vcan0 288#E1DF00FF00000080
(1675525864.949704) vcan0 055#F9F71238B2409E80
(1675525864.952740) vcan0 065#75E612F8FEED5502
(1675525864.952818) vcan0 008#56801C9900800080
(1675525864.952896) vcan0 010#008000002FB031F8
(1675525864.952974) vcan0 070#000005F855E20D00
(1675525864.953051) vcan0 075#0000000000005458
(1675525864.953135) vcan0 080#31508000C2002C00
(1675525864.953208) vcan0 0B0#528319A3E5C152E3
(1675525864.953295) vcan0 145#F902DF80FC4810A1
(1675525864.953444) vcan0 2A9#8C260082C0000084
(1675525864.954170) vcan0 350#A200000000000080
(1675525864.955694) vcan0 360#699E0028BB53A001
(1675525864.955771) vcan0 0F5#36A94BA97F676233
(1675525864.955850) vcan0 120#77A95BA97FFB5589
(1675525864.957211) vcan0 130#CFFF1D5B29DFFF11
(1675525864.957287) vcan0 150#4929FD97FBF7F1C0
(1675525864.958665) vcan0 0E0#E2732CD800804F00
(1675525864.960182) vcan0 290#0000000000000000
(1675525864.960254) vcan0 008#56802C8900800080
(1675525864.960396) vcan0 010#008000002FB031F8
(1675525864.961707) vcan0 072#F000FF3F00788038
(1675525864.961781) vcan0 1D0#0000000000000061
(1675525864.961856) vcan0 390#80FF0500020A5D4F
(1675525864.964467) vcan0 125#E5F17FE4C1D0D735
(1675525864.965925) vcan0 1B0#00C0000002B000FC
(1675525864.965999) vcan0 1B5#FF4FBA310BE0FFEF
(1675525864.966143) vcan0 1D8#363339343234E143
(1675525864.967399) vcan0 1E0#0004E34300B917E0
(1675525864.968922) vcan0 055#F9F71238B2409E80
(1675525864.970443) vcan0 065#7BE612F804EE5502
(1675525864.970521) vcan0 008#56803C7900800080
(1675525864.970599) vcan0 010#008000002FB031F9
(1675525864.970676) vcan0 070#000005F855E20D00
(1675525864.973499) vcan0 075#0000000000005458
(1675525864.973577) vcan0 080#31508000C2002C00
(1675525864.973655) vcan0 0B0#528319A3E5C152E3
(1675525864.973734) vcan0 145#F9F2D080FC4810A1
(1675525864.973810) vcan0 210#06E080A0D069D54D
(1675525864.973961) vcan0 260#D0FF00AA497487B0
(1675525864.974036) vcan0 28C#00000000002CFEA9
(1675525864.974125) vcan0 291#0000000000000000
(1675525864.974203) vcan0 2B5#4BCE166293A67A65
(1675525864.974282) vcan0 330#2800000000000000
(1675525864.974358) vcan0 340#9F00000000000000
(1675525864.974437) vcan0 3D0#9D0F6100641B80C3
(1675525864.974949) vcan0 288#EDDF00FF00000080
(1675525864.975028) vcan0 072#F000FF3F0078A038
(1675525864.976481) vcan0 0F5#3BA93FA97F6B5237
(1675525864.976559) vcan0 120#8CA973A97F015689
(1675525864.976637) vcan0 130#D7FF1D5B29CFFF11
(1675525864.976716) vcan0 150#4529F8A7FBF7E5C0
(1675525864.979176) vcan0 0E0#E2732AE000803100
(1675525864.980697) vcan0 008#56804C6900800080
(1675525864.980776) vcan0 010#008000002FB031F8
(1675525864.980854) vcan0 1D0#0000000000000A61
(1675525864.984691) vcan0 125#E5F17FE4C1D0D735
(1675525864.986239) vcan0 1B0#00C0000002B000FC
(1675525864.986319) vcan0 1B5#FF69D53E18E0FFEF
(1675525864.986395) vcan0 1D8#363339343234E143
(1675525864.986545) vcan0 1E0#0004E30300B917E0
(1675525864.987708) vcan0 2C3#4F9E00FFFFE35450
(1675525864.989159) vcan0 008#56805C5900800080
(1675525864.990681) vcan0 055#F9F71238B2409E80
(1675525864.990759) vcan0 065#76E612F801EE5502
(1675525864.990837) vcan0 070#000005F854E20D00
(1675525864.993732) vcan0 010#008000002FB031F8
(1675525864.993808) vcan0 072#F000FF3F00788038
(1675525864.993886) vcan0 075#0000000000005458
(1675525864.993963) vcan0 080#31508000C2002C00
(1675525864.994041) vcan0 0B0#528319A3E5C152E3
(1675525864.994192) vcan0 145#F9E2D180FC4810A1
(1675525864.994269) vcan0 290#0000000000000000
(1675525864.994357) vcan0 2A9#8C26008AC0000084
(1675525864.994434) vcan0 2C0#4F9E00000000A0F1
(1675525864.994513) vcan0 2C5#2ADF8CC07CE6D470
(1675525864.995167) vcan0 210#06E08020D069D545
(1675525864.996767) vcan0 0F5#43A94BA97F6F423A
(1675525864.996844) vcan0 120#5BA963A97F055689
(1675525864.996921) vcan0 130#DFFF1D5B29BFFF11
(1675525864.997000) vcan0 150#3E2901B8FBF7DCC0
(1675525864.998159) vcan0 288#EDDF10EF00000080
(1675525864.999681) vcan0 0E0#E27325E800801600
(1675525865.001204) vcan0 008#56806C4900800080
(1675525865.001280) vcan0 260#D0FF00AA497487B0
(1675525865.001358) vcan0 010#008000002FB031F8
(1675525865.001437) vcan0 1D0#0000000000000061
(1675525865.001587) vcan0 291#0000000000000000
(1675525865.003906) vcan0 125#E5F17FE4C1D0D735
(1675525865.005437) vcan0 072#F000FF3F0078A038
(1675525865.005515) vcan0 3B0#00D8743864B8C400
(1675525865.005593) vcan0 1B0#00C0000002B000FC
(1675525865.006901) vcan0 1B5#FF84EF4B26E0FFEF
(1675525865.007052) vcan0 1D8#363339343234E143
(1675525865.007129) vcan0 1E0#0008D34300B917E0
(1675525865.008438) vcan0 055#F9F71238B2409E80
(1675525865.009961) vcan0 065#75E612F8FFED5402
(1675525865.010040) vcan0 008#56807C3900800080
(1675525865.012932) vcan0 010#008000002FB031F8
(1675525865.013082) vcan0 070#000005F854E20D00
(1675525865.013160) vcan0 075#0000000000005458
(1675525865.013237) vcan0 080#31508000C2002C00
(1675525865.013316) vcan0 0B0#528319A3E5C152E3
(1675525865.013392) vcan0 145#F9D2D280FC4810A1
(1675525865.013470) vcan0 28C#00000000002CFEA9
(1675525865.013557) vcan0 2B5#4BCE166293A67964
(1675525865.014430) vcan0 0F5#3BA943A97F73323D
(1675525865.015879) vcan0 120#77A96BA97F015689
(1675525865.016029) vcan0 130#E7FF1D5B29AFFF11
(1675525865.017411) vcan0 150#4B29FCC7FBF7BFC0
(1675525865.018932) vcan0 0E0#E27328F00080F300
(1675525865.020454) vcan0 290#0000000000000000
(1675525865.020534) vcan0 008#56808C2900800080
(1675525865.020611) vcan0 010#008000002FB031F8
(1675525865.020689) vcan0 072#F000FF3F00788038
(1675525865.021924) vcan0 1D0#0000000000000061
(1675525865.022002) vcan0 210#06E080A0D069D54D
(1675525865.023454) vcan0 288#DDDF10EF00000080
(1675525865.024903) vcan0 3C8#4F9E008E882C008E
(1675525865.025053) vcan0 125#E5F17FE4C1D0D735
(1675525865.026472) vcan0 1B0#00C0000002B000FC
(1675525865.026560) vcan0 1B5#FF9F0A5933E0FFEF
(1675525865.026637) vcan0 1D8#363339343234E143
(1675525865.026714) vcan0 1E0#000CC34300B917E0
(1675525865.026793) vcan0 2C3#4F9E00FFFFE45450
(1675525865.029179) vcan0 055#F9F71238B2409E80
(1675525865.030701) vcan0 065#79E612F800EE5402
(1675525865.030777) vcan0 008#56809C1900800080
(1675525865.030857) vcan0 010#008000002FB031F8
(1675525865.030934) vcan0 070#000005F854E20D00
(1675525865.031085) vcan0 075#0000000000005458
(1675525865.032318) vcan0 080#31508000C2002C00
(1675525865.032468) vcan0 0B0#528319A3E5C152E3
(1675525865.032546) vcan0 145#F9C2D380FC4810A1
(1675525865.032625) vcan0 260#D0FF00AA497487B0
(1675525865.032700) vcan0 291#0000000000000000
(1675525865.032780) vcan0 2A9#8C260093C0000084
(1675525865.032866) vcan0 370#0725C0009503CB1F
(1675525865.033810) vcan0 072#F000FF3F0078A038
(1675525865.036705) vcan0 0F5#3FA93FA97F772241
(1675525865.036783) vcan0 120#8CA977A97FFF5589
(1675525865.036861) vcan0 130#EFFF1D5B299FFF11
(1675525865.036938) vcan0 150#4329F7D7FBF7B7C0
(1675525865.039398) vcan0 0E0#E27328F80080D300
(1675525865.040919) vcan0 008#5680AC0900800080
(1675525865.040996) vcan0 010#008000002FB031F8
(1675525865.041147) vcan0 1D0#0000000000000061
(1675525865.043678) vcan0 350#A200000000000080
(1675525865.045200) vcan0 125#E5F17FE4C1D0D735
(1675525865.045277) vcan0 210#06E080A0D069D54D
(1675525865.046674) vcan0 1B0#00C0000003B000FC
(1675525865.046753) vcan0 1B5#FFBA256640E0FFEF
(1675525865.046830) vcan0 1D8#363339343234E143
(1675525865.046917) vcan0 1E0#000CC30300B917E0
(1675525865.048149) vcan0 288#F1DF10EF00000080
(1675525865.049671) vcan0 055#F9F71238B2409E80
(1675525865.052778) vcan0 065#75E612F801EE5402
(1675525865.052856) vcan0 008#5680BCF900800080
(1675525865.052933) vcan0 010#008000002FB031F9
(1675525865.053011) vcan0 070#000005F855E20D00
(1675525865.053090) vcan0 072#F000FF3F00788038
(1675525865.053167) vcan0 075#0000000000005458
(1675525865.053245) vcan0 080#31508000C2002C00
(1675525865.053395) vcan0 0B0#528319A3E5C152E3
(1675525865.053473) vcan0 145#F9B2D480FC4810A1
(1675525865.053551) vcan0 28C#00000000002CFEA9
(1675525865.053628) vcan0 290#0000000000000000
(1675525865.053706) vcan0 2B5#4BCF166293A67964
(1675525865.053782) vcan0 2C0#4F9E00010000A0F1
(1675525865.054230) vcan0 2C5#2ADF8CC076E6D470
(1675525865.054309) vcan0 330#2800000000000000
(1675525865.054388) vcan0 340#9F00000000000000
(1675525865.054463) vcan0 3AF#0000000000000020
(1675525865.055697) vcan0 360#699E0028BB53A001
(1675525865.055775) vcan0 0F5#3BA94BA97F7B1244
(1675525865.055852) vcan0 120#4FA973A97F025689
(1675525865.057158) vcan0 130#F7FF1D5B298FFF11
(1675525865.057308) vcan0 150#3429FCE7FBF7B6C0
(1675525865.057385) vcan0 3CA#00000000520000C8
(1675525865.058691) vcan0 0E0#E27325C00080B600
(1675525865.060211) vcan0 008#5680CCE900800080
(1675525865.060289) vcan0 010#008000002FB031F8
(1675525865.061666) vcan0 1D0#0000000000000A61
(1675525865.061817) vcan0 260#D0FF00AA497487B0
(1675525865.061895) vcan0 291#0000000000000000
(1675525865.061994) vcan0 390#80FF0500020A5D4F
(1675525865.064382) vcan0 125#E5F17FE4C1D0D735
(1675525865.065975) vcan0 072#F000FF3F0078A038
(1675525865.066056) vcan0 1B0#00C0000004B000FC
(1675525865.066133) vcan0 1B5#FFD540734EE0FFEF
(1675525865.066212) vcan0 1D8#363339343234E143
(1675525865.067446) vcan0 1E0#0010B34300B917E0
(1675525865.067523) vcan0 2C3#4F9E00FFFFE55450
(1675525865.068899) vcan0 055#F9F71238B2409E80
(1675525865.070420) vcan0 065#75E612F8FEED5502
(1675525865.070569) vcan0 008#5680DCD900800080
(1675525865.070647) vcan0 010#008000002FB031F8
(1675525865.070725) vcan0 070#000005F854E20D00
(1675525865.072102) vcan0 075#0000000000005458
(1675525865.072180) vcan0 080#30508000C2002C00
(1675525865.072258) vcan0 0B0#528319A3E5C152E3
(1675525865.072355) vcan0 145#F9A2D580FC4810A1
(1675525865.072431) vcan0 210#06E080A0D069D545
(1675525865.072510) vcan0 2A9#8C26008AC0000084
(1675525865.073528) vcan0 288#E9DF10EF00000080
(1675525865.076420) vcan0 0F5#3FA947A97F7F0248
(1675525865.076570) vcan0 120#77A95EA97FFE5589
(1675525865.076650) vcan0 130#FFFF1D5B297FFF11
(1675525865.076730) vcan0 150#4B29FBF7FBF78FC0
(1675525865.079187) vcan0 0E0#E27325C800809600
(1675525865.080704) vcan0 290#0000000000000000
(1675525865.080784) vcan0 008#5680ECC900800080
(1675525865.082304) vcan0 581#FFFFFFFFFFFF0081
(1675525865.082381) vcan0 010#008000002FB031F8
(1675525865.082460) vcan0 072#F000FF3F00788038
(1675525865.082608) vcan0 1D0#0000000000000061
(1675525865.083696) vcan0 400#000300030301001C
(1675525865.083784) vcan0 405#0000000000000023
(1675525865.085162) vcan0 125#E5F17FE4C1D0D735
(1675525865.086683) vcan0 1B0#00C0000003B000FC
(1675525865.086761) vcan0 1B5#FFEF5B815BE0FFEF
(1675525865.086838) vcan0 1D8#363339343234E143
(1675525865.086990) vcan0 1E0#0014A34300B917E0
(1675525865.089446) vcan0 055#F9F71238B2409E80
(1675525865.090969) vcan0 008#5680FCB900800080
(1675525865.091047) vcan0 065#77E612F801EE5402
(1675525865.091125) vcan0 070#000005F854E20D00
(1675525865.091201) vcan0 075#0000000000005458
(1675525865.091280) vcan0 080#31508000C2002C00
(1675525865.092584) vcan0 0B0#528319A3E5C152E3
(1675525865.092662) vcan0 145#F992D680FC4810A1
(1675525865.092740) vcan0 260#D0FF0055497487B0
(1675525865.092891) vcan0 28C#00000000002CFEA9
(1675525865.092977) vcan0 2B5#4BCF166293A67964
(1675525865.093055) vcan0 010#008000002FB031F8
(1675525865.093133) vcan0 291#0000000000000000
(1675525865.096678) vcan0 0F5#3FA94BA97F43F24B
(1675525865.096758) vcan0 120#84A963A97FFE5589
(1675525865.096834) vcan0 130#87FF1D5B296FFF11
(1675525865.096985) vcan0 150#3E29FF07FBF78CC0
(1675525865.097063) vcan0 072#F000FF3F0078A038
(1675525865.097143) vcan0 210#06E080A0D069D54D
(1675525865.098156) vcan0 288#E9DF20DF00000080
(1675525865.099676) vcan0 0E0#E27326D000807500
(1675525865.101133) vcan0 008#56800CA900800080
(1675525865.102648) vcan0 010#008000002FB031F8
(1675525865.102798) vcan0 1D0#0000000000000061
(1675525865.104175) vcan0 125#E5F17FE4C1D0D735
(1675525865.105695) vcan0 1B0#00C0000002B000FC
(1675525865.105784) vcan0 1B5#FF0A758E68E0FFEF
(1675525865.107330) vcan0 1D8#363339343234E143
(1675525865.107408) vcan0 1E0#0014A30300B917E0
(1675525865.107486) vcan0 2C3#4F9E00FFFFE55450
(1675525865.108647) vcan0 055#F9F71238B2409E80
(1675525865.110168) vcan0 065#77E612F801EE5402
(1675525865.110247) vcan0 008#56801C9900800080
(1675525865.110398) vcan0 010#008000002FB031F8
(1675525865.113218) vcan0 070#000005F855E20D00
(1675525865.113297) vcan0 072#F000FF3F00788038
(1675525865.113374) vcan0 075#0000000000005458
(1675525865.113450) vcan0 080#31508000C2002C00
(1675525865.113603) vcan0 0B0#528319A3E5C152E3
(1675525865.113680) vcan0 145#F982D780FC4810A1
(1675525865.113758) vcan0 290#0000000000000000
(1675525865.113837) vcan0 2A9#8C260093C0000084
(1675525865.113923) vcan0 2C0#4F9E00010000A0F1
(1675525865.114000) vcan0 2C5#2ADF8CC077E6D470
(1675525865.114654) vcan0 0F5#32A947A97F47E24E
(1675525865.116252) vcan0 120#63A977A97FFF5589
(1675525865.116330) vcan0 130#8FFF1D5B295FFF11
(1675525865.116407) vcan0 150#3B29FB17FBF77FC0
(1675525865.118939) vcan0 0E0#E2731ED800805D00
(1675525865.120462) vcan0 008#56802C8900800080
(1675525865.120540) vcan0 260#D0FF0055497487B0
(1675525865.120619) vcan0 010#008000002FB031F8
(1675525865.121925) vcan0 1D0#0000000000000061
(1675525865.122001) vcan0 210#06E080A0D069D545
(1675525865.122152) vcan0 291#0000000000000000
(1675525865.123458) vcan0 288#EDDF20DF00000080
(1675525865.124907) vcan0 125#E5F17FE4C1D0D735
(1675525865.125057) vcan0 072#F000FF3F0078A038
(1675525865.126456) vcan0 3B0#00FC703864B8C400
(1675525865.126534) vcan0 1B0#00C0000002B000FC
(1675525865.126611) vcan0 1B5#FF25909B76E0FFEF
(1675525865.126689) vcan0 1D8#363339343234E143
(1675525865.126839) vcan0 1E0#0018934300B917E0
(1675525865.129154) vcan0 055#F9F71238B2409E80
(1675525865.130676) vcan0 065#75E612F8FFED5502
(1675525865.130753) vcan0 008#56803C7900800080
(1675525865.130903) vcan0 010#008000002FB031F9
(1675525865.130980) vcan0 070#000005F855E20D00
(1675525865.131056) vcan0 075#0000000000005458
(1675525865.132361) vcan0 080#31508000C2002C00
(1675525865.132439) vcan0 0B0#528319A3E5C152E3
(1675525865.132517) vcan0 145#F972D880FC4810A1
(1675525865.132596) vcan0 28C#00000000002CFEA9
(1675525865.132672) vcan0 2B5#4BCF166293A67965
(1675525865.132760) vcan0 330#2800000000000000
(1675525865.132911) vcan0 340#9F00000000000000
(1675525865.135153) vcan0 370#0725C0009503CB1F
(1675525865.135303) vcan0 350#A200000000000080
(1675525865.136679) vcan0 0F5#4BA94BA97F4BD252
(1675525865.136758) vcan0 120#67A967A97FFD5589
(1675525865.136838) vcan0 130#97FF1D5B294FFF11
(1675525865.136987) vcan0 150#4129FC27FBF769C0
(1675525865.139374) vcan0 0E0#E27321E000803A00
(1675525865.140967) vcan0 290#0000000000000000
(1675525865.141045) vcan0 008#56804C6900800080
(1675525865.141121) vcan0 010#008000002FB031F8
(1675525865.141200) vcan0 072#F000FF3F00788038
(1675525865.141277) vcan0 1D0#0000000000000A61
(1675525865.143664) vcan0 3C8#4F9E008E882C008E
(1675525865.145187) vcan0 125#E5F17FE4C1D0D735
(1675525865.145274) vcan0 210#06E08020D069D545
(1675525865.146679) vcan0 1B0#00C0000004B000FC
(1675525865.146757) vcan0 1B5#FF40ABA983E0FFEF
(1675525865.146906) vcan0 1D8#363339343234E143
(1675525865.146984) vcan0 1E0#001C834300B917E0
(1675525865.147064) vcan0 2C3#4F9E00FFFFE65450
(1675525865.148150) vcan0 288#F5DF20DF00000080
(1675525865.149671) vcan0 055#F9F71238B2409E80
(1675525865.152778) vcan0 065#79E612F801EE5502
(1675525865.152855) vcan0 008#56805C4B0E800080
(1675525865.152932) vcan0 010#008000002FB031F8
(1675525865.153012) vcan0 070#000005F856E20D00
(1675525865.153088) vcan0 075#0000000000005458
(1675525865.153166) vcan0 080#31508000C2002C00
(1675525865.153316) vcan0 0B0#528319A3E5C152E3
(1675525865.153395) vcan0 145#F962D980FC4810A1
(1675525865.153480) vcan0 260#D0FF0055497487B0
(1675525865.153559) vcan0 291#0000000000000000
(1675525865.153635) vcan0 2A9#8C26008AC0000084
(1675525865.154145) vcan0 072#F000FF3F0078A038
(1675525865.155666) vcan0 360#699E0028BB53A001
(1675525865.155743) vcan0 0F5#36A93FA97F4FC255
(1675525865.155893) vcan0 120#7BA95EA97FFD5589
(1675525865.157199) vcan0 130#9FFF1D5B293FFF11
(1675525865.157277) vcan0 150#4329FC37FBF757C0
(1675525865.158726) vcan0 0E0#E27325E800801600
(1675525865.160175) vcan0 008#56806C3B0E800080
(1675525865.160254) vcan0 010#008000002FB031F8
(1675525865.161702) vcan0 1D0#0000000000000061
(1675525865.161780) vcan0 390#80FF050002025F4F
(1675525865.164454) vcan0 125#E5F17FE4C1D0D735
(1675525865.165977) vcan0 1B0#00C0000003B000FC
(1675525865.166064) vcan0 1B5#FF5BC6B690E0FFEF
(1675525865.166142) vcan0 1D8#363339343234E143
(1675525865.167469) vcan0 1E0#001C830300B917E0
(1675525865.168917) vcan0 055#F9F71238B2409E80
(1675525865.170438) vcan0 065#77E612F801EE5602
(1675525865.170517) vcan0 008#56807C2B0E800080
(1675525865.170595) vcan0 010#008000002FB031F8
(1675525865.170744) vcan0 070#000005F856E20D00
(1675525865.172050) vcan0 072#F000FF3F00788038
(1675525865.172126) vcan0 075#0000000000005458
(1675525865.172278) vcan0 080#32508000C2002C00
(1675525865.172356) vcan0 0B0#528319A3E4C152E3
(1675525865.172433) vcan0 145#F952DA80FC4810A1
(1675525865.172510) vcan0 210#0AE080A0D069D54D
(1675525865.172588) vcan0 28C#00000000002CFEA9
(1675525865.174976) vcan0 290#0000000000000000
(1675525865.175063) vcan0 2B5#4BCF166293A67966
(1675525865.175142) vcan0 2C0#4F9E00000000A0F1
(1675525865.175220) vcan0 2C5#2ADF8CC079E6D470
(1675525865.175297) vcan0 3AF#0000000000000020
(1675525865.175375) vcan0 3D0#9D0F6100641B80C3
(1675525865.175525) vcan0 288#F5DF20DF00000080
(1675525865.176399) vcan0 0F5#3BA93BA97F53B258
(1675525865.176551) vcan0 120#73A97BA97FFD5589
(1675525865.176628) vcan0 130#A7FF1D5B292FFF11
(1675525865.176708) vcan0 150#43290148FBF747C0
(1675525865.176785) vcan0 3CA#00000000530000C8
(1675525865.179172) vcan0 0E0#E27320F00080FB00
(1675525865.180694) vcan0 008#56808C1B0E800080
(1675525865.180771) vcan0 260#D0FF00AA497487B0
(1675525865.180849) vcan0 010#008000002FB031F8
(1675525865.180927) vcan0 1D0#0000000000000061
(1675525865.182169) vcan0 291#0000000000000000
(1675525865.183689) vcan0 125#E5F17FE4C1D0D735
(1675525865.185210) vcan0 1B0#00C0000002B000FC
(1675525865.186669) vcan0 1B5#FF75E1C39EE0FFEF
(1675525865.186822) vcan0 072#F000FF3F0078A038
(1675525865.186901) vcan0 1D8#363339343234E143
(1675525865.186976) vcan0 1E0#0020734300B917E0
(1675525865.187053) vcan0 2C3#4F9E00FFFFE65450
(1675525865.189442) vcan0 008#56809C0B0E800080
(1675525865.190966) vcan0 055#F9F71238B2409E80
(1675525865.191043) vcan0 065#74E612F8FFED5602
(1675525865.191120) vcan0 070#000005F856E20D00
(1675525865.191200) vcan0 075#0000000000005458
(1675525865.191278) vcan0 010#008000002FB031F8
(1675525865.192440) vcan0 080#32508000C2002C00
(1675525865.192517) vcan0 0B0#528319A3E4C152E3
(1675525865.192604) vcan0 145#F942DB80FC4810A1
(1675525865.192683) vcan0 2A9#8C260082C0000084
(1675525865.193917) vcan0 210#0AE080A0D069D545
(1675525865.195437) vcan0 0F5#4BA94FA97F57A25C
(1675525865.196968) vcan0 120#5EA967A97FFD5589
(1675525865.197045) vcan0 130#AFFF1D5B291FFF11
(1675525865.197131) vcan0 150#3A29FD57FBF740C0
(1675525865.198427) vcan0 288#E9DF30CF00000080
(1675525865.199948) vcan0 0E0#E2731FF80080DC00
(1675525865.200026) vcan0 290#0000000000000000
(1675525865.200105) vcan0 008#5680ACFB0E800080
(1675525865.201410) vcan0 010#008000002FB031F8
(1675525865.201561) vcan0 072#F000FF3F00788038
(1675525865.201641) vcan0 1D0#0000000000000061
(1675525865.204244) vcan0 125#E5F17FE4C1D0D735
(1675525865.205691) vcan0 1B0#00C0000003B000FC
(1675525865.205792) vcan0 1B5#FF90FBD1ABE0FFEF
(1675525865.207193) vcan0 1D8#363339343234E143
(1675525865.207268) vcan0 1E0#0024634300B917E0
(1675525865.208643) vcan0 055#F9F71238B2409E80
(1675525865.210157) vcan0 065#77E612F8FEED5602
(1675525865.210300) vcan0 008#5680BCEB0E800080
(1675525865.210375) vcan0 010#008000002FB031F9
(1675525865.213260) vcan0 070#000005F856E20D00
(1675525865.213334) vcan0 075#0000000000005458
(1675525865.213407) vcan0 080#32508000C2002C00
(1675525865.213482) vcan0 0B0#528319A3E4C152E3
(1675525865.213557) vcan0 145#F932DC80FC4810A1
(1675525865.213699) vcan0 260#D0FF00AA497487B0
(1675525865.213773) vcan0 28C#00000000002CFEA9
(1675525865.213847) vcan0 291#0000000000000000
(1675525865.213922) vcan0 2B5#4BCF166293A67A66
(1675525865.214004) vcan0 330#2800000000000000
(1675525865.214079) vcan0 340#9F00000000000000
(1675525865.214704) vcan0 072#F000FF3F0078A038
(1675525865.216253) vcan0 0F5#36A94BA97F5B925F
(1675525865.216332) vcan0 120#73A963A97FFF5589
(1675525865.216410) vcan0 130#B7FF1D5B290FFF11
(1675525865.216488) vcan0 150#4729FB67FBF723C0
(1675525865.218949) vcan0 0E0#E27322C00080B900
(1675525865.220470) vcan0 008#5680CCDB0E800080
(1675525865.220548) vcan0 010#008000002FB031F8
(1675525865.220625) vcan0 1D0#0000000000000A61
(1675525865.221931) vcan0 210#0AE080A0D069D54D
(1675525865.223454) vcan0 350#A200000000000080
(1675525865.224905) vcan0 288#E9DF30CF00000080
(1675525865.225055) vcan0 125#E5F17FE4C1D0D735
(1675525865.226469) vcan0 1B0#00C0000003B000FC
(1675525865.226557) vcan0 1B5#FFAB16DEB9E0FFEF
(1675525865.226637) vcan0 1D8#363339343234E143
(1675525865.226715) vcan0 1E0#0024630300B917E0
(1675525865.226792) vcan0 2C3#4F9E00FFFFE75450
(1675525865.229180) vcan0 055#F9F71238B2409E80
(1675525865.230699) vcan0 065#77E612F802EE5602
(1675525865.230778) vcan0 008#5680DCCB0E800080
(1675525865.230858) vcan0 010#008000002FB031F8
(1675525865.230934) vcan0 070#000005F856E20D00
(1675525865.231012) vcan0 072#F000FF3F00788038
(1675525865.233761) vcan0 075#0000000000005458
(1675525865.233839) vcan0 080#32508000C2002C00
(1675525865.233918) vcan0 0B0#528319A3E5C152E3
(1675525865.233996) vcan0 145#F922DD80FC4810A1
(1675525865.234073) vcan0 290#0000000000000000
(1675525865.234151) vcan0 2A9#8C26009BC0000084
(1675525865.234238) vcan0 2C0#4F9E00000000A0F1
(1675525865.234316) vcan0 2C5#2BDF8CC076E6D470
(1675525865.234393) vcan0 370#0725C0009503CB1F
(1675525865.234542) vcan0 3E0#000000D933808092
(1675525865.235199) vcan0 0F5#3FA93FA97F5F8262
(1675525865.236759) vcan0 120#80A977A97FFE5589
(1675525865.236837) vcan0 130#BFFF1D5B29FFFF11
(1675525865.236914) vcan0 150#4329FB77FBF717C0
(1675525865.238147) vcan0 0E0#E27321C800809A00
(1675525865.239666) vcan0 008#5680ECBB0E800080
(1675525865.241186) vcan0 260#D0FF00AA497487B0
(1675525865.241265) vcan0 010#008000002FB031F8
(1675525865.241343) vcan0 1D0#0000000000000061
(1675525865.241493) vcan0 291#0000000000000000
(1675525865.244025) vcan0 125#E5F17FE4C1D0D735
(1675525865.245400) vcan0 072#F000FF3F0078A038
(1675525865.245559) vcan0 210#0AE080A0D069D54D
(1675525865.245638) vcan0 3B0#00D8703864B8C400
(1675525865.245715) vcan0 1B0#00C0000002B000FC
(1675525865.246956) vcan0 1B5#FFC631EBC6E0FFEF
(1675525865.247035) vcan0 1D8#363339343234E143
(1675525865.247114) vcan0 1E0#0028534300B917E0
(1675525865.248418) vcan0 288#FEDF30CF00000080
(1675525865.249938) vcan0 055#F9F71238B2409E80
(1675525865.250014) vcan0 008#5680FCB900800080
(1675525865.251610) vcan0 010#008000002FB031F8
(1675525865.251687) vcan0 065#76E612F800EE5602
(1675525865.251764) vcan0 070#000005F857E20D00
(1675525865.251842) vcan0 075#0000000000005458
(1675525865.251920) vcan0 080#32508000C2002C00
(1675525865.251998) vcan0 0B0#528319A3E5C152E3
(1675525865.252075) vcan0 145#F912DE80FC4810A1
(1675525865.252161) vcan0 28C#00000000002CFEA9
(1675525865.253033) vcan0 2B5#4BCF166293A67A66
(1675525865.255928) vcan0 360#699E0028BB53A001
(1675525865.256005) vcan0 0F5#3FA947A97F637266
(1675525865.256084) vcan0 120#57A977A97FFF5589
(1675525865.256239) vcan0 130#C7FF1D5B29EFFF11
(1675525865.257400) vcan0 150#3829FF87FBF712C0
(1675525865.258921) vcan0 0E0#E2731ED000807D00
(1675525865.260443) vcan0 290#0000000000000000
(1675525865.260522) vcan0 008#56800CA900800080
(1675525865.260599) vcan0 010#008000002FB031F8
(1675525865.260677) vcan0 072#F000FF3F00788038
(1675525865.260828) vcan0 1D0#0000000000000061
(1675525865.261917) vcan0 390#80FF050002025F4F
(1675525865.263436) vcan0 3C8#4F9E008E882C008E
(1675525865.264957) vcan0 125#E5F17FE4C1D0D735
(1675525865.266491) vcan0 1B0#00C0000003B000FC
(1675525865.266569) vcan0 1B5#FFE14CF9D3E0FFEF
(1675525865.266646) vcan0 1D8#363339343234E143
(1675525865.266725) vcan0 1E0#002C434300B917E0
(1675525865.266801) vcan0 2C3#4F9E00FFFFE85450
(1675525865.269191) vcan0 055#F9F71238B2409E80
(1675525865.270711) vcan0 065#74E612F800EE5702
(1675525865.270790) vcan0 008#56801C9900800080
(1675525865.270867) vcan0 070#000005F856E20D00
(1675525865.270946) vcan0 010#008000002FB031F8
(1675525865.271023) vcan0 075#0000000000005458
(1675525865.272329) vcan0 080#32508000C2002C00
(1675525865.272406) vcan0 0B0#528319A3E5C152E3
(1675525865.272483) vcan0 145#F902DF80FC4810A1
(1675525865.272561) vcan0 210#0AE080A0D069D545
(1675525865.272640) vcan0 260#D0FF0055497487B0
(1675525865.272725) vcan0 291#0000000000000000
(1675525865.272875) vcan0 2A9#8C260082C0000084
(1675525865.275191) vcan0 288#EDDF30CF00000080
(1675525865.275269) vcan0 072#F000FF3F0078A038
(1675525865.276692) vcan0 0F5#4BA94BA97F676269
(1675525865.276771) vcan0 120#73A967A97FFF5589
(1675525865.276848) vcan0 130#CFFF1D5B29DFFF11
(1675525865.276927) vcan0 150#4929FD97FBF7F1C0
(1675525865.278157) vcan0 0E0#E27321D800805A00
(1675525865.279679) vcan0 008#56802C8900800080
(1675525865.281200) vcan0 010#008000002FB031F8
(1675525865.281277) vcan0 1D0#0000000000000061
(1675525865.283880) vcan0 125#E5F17FE4C1D0D735
(1675525865.285405) vcan0 1B0#00C0000003B000FC
(1675525865.286929) vcan0 1B5#FFFB6706E1E0FFEF
(1675525865.287007) vcan0 1D8#363339343234E143
(1675525865.287095) vcan0 1E0#002C430300B917E0
(1675525865.288399) vcan0 055#F9F71238B23E9E80
(1675525865.289924) vcan0 008#56803C7900800080
(1675525865.293031) vcan0 065#79E612F800EE5602
(1675525865.293109) vcan0 070#000005F856E20D00
(1675525865.293187) vcan0 075#0000000000005458
(1675525865.293266) vcan0 080#32508000C2002C00
(1675525865.293342) vcan0 0B0#528319A3E5C152E3
(1675525865.293420) vcan0 010#008000002FB031F9
(1675525865.293499) vcan0 072#F000FF3F00788038
(1675525865.293650) vcan0 145#F9F2D080FC4810A1
(1675525865.293728) vcan0 28C#00000000002CFEA9
(1675525865.293806) vcan0 290#0000000000000000
(1675525865.293883) vcan0 2B5#4BD0166293A67A66
(1675525865.293961) vcan0 2C0#4F9E00000000A0F1
(1675525865.294039) vcan0 2C5#2BDF8CC079E6D470
(1675525865.294415) vcan0 330#2800000000000000
(1675525865.294565) vcan0 340#9F00000000000000
(1675525865.294641) vcan0 3AF#0000000000000020
(1675525865.295947) vcan0 210#0AE08020D069D54D
(1675525865.296026) vcan0 0F5#3FA94BA97F6B526C
(1675525865.296104) vcan0 120#7BA963A97FFE5589
(1675525865.297411) vcan0 130#D7FF1D5B29CFFF11
(1675525865.297489) vcan0 150#4029FFA7FBF7EAC0
(1675525865.297639) vcan0 3CA#00000000540000C8
(1675525865.298944) vcan0 288#F5DF40BF00000080
(1675525865.300465) vcan0 0E0#E27320E000803B00
(1675525865.300542) vcan0 008#56804C6900800080
(1675525865.300621) vcan0 260#D0FF0055497487B0
(1675525865.300698) vcan0 010#008000002FB031F8
(1675525865.301929) vcan0 1D0#0000000000000A61
(1675525865.302008) vcan0 291#0000000000000000
(1675525865.303396) vcan0 125#E5F17FE4C1D0D735
