(1675526143.337908) vcan0 1B0#00C0000002B000FC
(1675526143.337973) vcan0 1B5#FF8065350AE0FFEF
(1675526143.338048) vcan0 1D8#363339343234E043
(1675526143.338126) vcan0 1E0#0018930300B917E0
(1675526143.338276) vcan0 260#D0FF00AA497487B0
(1675526143.338859) vcan0 2C3#BB9C00FFFFA65450
(1675526143.339945) vcan0 290#0000000000000000
(1675526143.342763) vcan0 072#F000FF3F0078A038
(1675526143.343850) vcan0 008#4880241700800080
(1675526143.344948) vcan0 0E0#627306D800807500
(1675526143.345963) vcan0 010#008000002FB031F8
(1675526143.346040) vcan0 2A9#8C260082C0000084
(1675526143.346117) vcan0 400#000101010002031B
(1675526143.346267) vcan0 405#0000000000000022
(1675526143.347064) vcan0 0F5#4BA95EA97F6F42F0
(1675526143.347142) vcan0 120#7BA990A97F025689
(1675526143.348155) vcan0 130#DFFF1D6F29ABFF11
(1675526143.348233) vcan0 150#5529FFB700F8C5C0
(1675526143.348383) vcan0 288#F9DF10EF00000080
(1675526143.349182) vcan0 055#F9F71738B2769E80
(1675526143.350268) vcan0 065#7FE617F804EE6A02
(1675526143.353020) vcan0 070#000006F86AE20D00
(1675526143.353098) vcan0 075#0000000000005458
(1675526143.353176) vcan0 080#3D508000C2002C00
(1675526143.353323) vcan0 0B0#528318A3E2C152E3
(1675526143.353412) vcan0 125#E5FF7FE5C1D0D735
(1675526143.353488) vcan0 145#F9B2D480FC4810A1
(1675526143.354071) vcan0 008#4880340700800080
(1675526143.355229) vcan0 010#008000002FB031F8
(1675526143.355306) vcan0 072#F000FF3F00788038
(1675526143.356321) vcan0 1D0#0000000000000061
(1675526143.357697) vcan0 1B0#00C0000004B000FC
(1675526143.357775) vcan0 1B5#FF9B804217E0FFEF
(1675526143.357853) vcan0 1D8#363339343234E043
(1675526143.358003) vcan0 1E0#001C834300B917E0
(1675526143.358801) vcan0 210#0FE08020B969B945
(1675526143.361257) vcan0 008#488044F700800080
(1675526143.362346) vcan0 0E0#627307E000805400
(1675526143.363362) vcan0 010#008000002FB031F8
(1675526143.364448) vcan0 291#0000000000000000
(1675526143.365536) vcan0 330#2800000000000000
(1675526143.368361) vcan0 0F5#5BA95BA97F7332F3
(1675526143.368439) vcan0 120#93A973A97FFF5589
(1675526143.368589) vcan0 130#E7FF1D6F299BFF11
(1675526143.368666) vcan0 150#5B29FDC700F8AFC0
(1675526143.368743) vcan0 260#D0FF00AA497487B0
(1675526143.368820) vcan0 3CA#00000000D20000C8
(1675526143.369474) vcan0 055#F9F71738B2769E80
(1675526143.370561) vcan0 065#78E617F8FEED6A02
(1675526143.370639) vcan0 070#000006F86AE20D00
(1675526143.370789) vcan0 072#F000FF3F0078A038
(1675526143.370867) vcan0 075#0000000000005458
(1675526143.373399) vcan0 080#3D508000C2002C00
(1675526143.373476) vcan0 0B0#528318A3E2C152E3
(1675526143.373555) vcan0 125#E5FF7FE5C1D0D735
(1675526143.373631) vcan0 145#F9A2D580FC4810A1
(1675526143.373708) vcan0 28C#000000000032FEA9
(1675526143.373803) vcan0 290#0000000000000000
(1675526143.373953) vcan0 2B5#4B5E176293A67F7D
(1675526143.374031) vcan0 2C0#BB9C00000000A0F1
(1675526143.374109) vcan0 2C5#35DF8CBE7BE6D470
(1675526143.374186) vcan0 288#FEDF10EF00000080
(1675526143.374264) vcan0 360#C49C00A7B161A001
(1675526143.374341) vcan0 370#0729C0008103C71F
(1675526143.374563) vcan0 3AF#0000000000000020
(1675526143.374640) vcan0 3C8#BB9C008E882C008E
(1675526143.374717) vcan0 3E0#000000D935808092
(1675526143.377390) vcan0 008#488054E700800080
(1675526143.377469) vcan0 010#008000002FB031F9
(1675526143.377546) vcan0 1D0#0000000000000261
(1675526143.377623) vcan0 390#80FF05000226564F
(1675526143.377700) vcan0 1B0#00C0000002B000FC
(1675526143.377850) vcan0 1B5#FFB69B5025E0FFEF
(1675526143.377936) vcan0 1D8#363339343234E043
(1675526143.378518) vcan0 1E0#0020734300B917E0
(1675526143.378597) vcan0 2C3#BB9C00FFFFA75450
(1675526143.379611) vcan0 350#A200000000000080
(1675526143.380627) vcan0 008#488064D700800080
(1675526143.383091) vcan0 0E0#627307E800803400
(1675526143.384251) vcan0 010#008000002FB031F8
(1675526143.385191) vcan0 072#F000FF3F00788038
(1675526143.386351) vcan0 210#0BE080A0B969B94D
(1675526143.386429) vcan0 2A9#8C26008AC0000084
(1675526143.389173) vcan0 0F5#4FA95BA97F7722F6
(1675526143.389251) vcan0 120#73A97BA97F015689
(1675526143.389328) vcan0 130#EFFF1D6F298BFF11
(1675526143.389407) vcan0 150#5529FED700F8A5C0
(1675526143.390277) vcan0 055#F9F71738B2769E80
(1675526143.390355) vcan0 065#76E617F8FFED6A02
(1675526143.390445) vcan0 070#000006F86AE20D00
(1675526143.391316) vcan0 075#0000000000005458
(1675526143.391399) vcan0 080#3E508000C2002C00
(1675526143.391477) vcan0 0B0#528318A3E2C152E3
(1675526143.391554) vcan0 125#E5FF7FE5C1D0D735
(1675526143.391633) vcan0 145#F992D680FC4810A1
(1675526143.392432) vcan0 008#488074C700800080
(1675526143.393444) vcan0 010#008000002FB031F8
(1675526143.394532) vcan0 1D0#0000000000000861
(1675526143.396049) vcan0 291#0000000000000000
(1675526143.397142) vcan0 1B0#00C0000002B000FC
(1675526143.397213) vcan0 1B5#FFD1B65D32E0FFEF
(1675526143.398229) vcan0 1D8#363339343234E043
(1675526143.398309) vcan0 1E0#0020730300B917E0
(1675526143.398385) vcan0 260#D0FF0055497487B0
(1675526143.398464) vcan0 288#F1DF10EF00000080
(1675526143.400925) vcan0 290#0000000000000000
(1675526143.401002) vcan0 072#F000FF3F0078A038
(1675526143.402027) vcan0 3B0#00FC6E386EB0C400
(1675526143.403041) vcan0 008#488084B700800080
(1675526143.404128) vcan0 0E0#627304F000801700
(1675526143.405214) vcan0 010#008000002FB031F8
(1675526143.406302) vcan0 0F5#4BA957A97F7B12FA
(1675526143.407391) vcan0 120#80A984A97FFF5589
(1675526143.407540) vcan0 130#F7FF1D6F297BFF11
(1675526143.408773) vcan0 150#5129FDE700F899C0
(1675526143.409859) vcan0 055#F9F71738B2769E80
(1675526143.409936) vcan0 065#7BE617F802EE6A02
(1675526143.412758) vcan0 070#000006F86AE20D00
(1675526143.412837) vcan0 075#0000000000005458
(1675526143.412913) vcan0 080#3E508000C2002C00
(1675526143.412990) vcan0 0B0#528318A3E2C152E3
(1675526143.413077) vcan0 125#E5FF7FE5C1D0D735
(1675526143.413156) vcan0 145#F982D780FC4810A1
(1675526143.413233) vcan0 210#0BE080A0B969B84D
(1675526143.413382) vcan0 28C#000000000032FEA9
(1675526143.413459) vcan0 2B5#4B5E176293A67F7E
(1675526143.413538) vcan0 340#9F00000000000000
(1675526143.413832) vcan0 008#488094A700800080
(1675526143.414990) vcan0 010#008000002FB031F8
(1675526143.416078) vcan0 072#F000FF3F00788038
(1675526143.416154) vcan0 1D0#0000000000000061
(1675526143.417170) vcan0 1B0#00C0000005B000FC
(1675526143.418472) vcan0 1B5#FFECD16A3FE0FFEF
(1675526143.418622) vcan0 1D8#363339343234E043
(1675526143.418701) vcan0 1E0#0024634300B917E0
(1675526143.418778) vcan0 2C3#BB9C00FFFFA75450
(1675526143.422677) vcan0 288#F5DF10EF00000080
(1675526143.423701) vcan0 008#4880A49700800080
(1675526143.424788) vcan0 0E0#627307F80080F400
(1675526143.425802) vcan0 010#008000002FB031F8
(1675526143.425952) vcan0 291#0000000000000000
(1675526143.426031) vcan0 2A9#8C260093C0000084
(1675526143.426971) vcan0 0F5#53A957A97F7F02FD
(1675526143.427049) vcan0 120#8CA977A97FFE5589
(1675526143.428067) vcan0 130#FFFF1D6F296BFF11
(1675526143.428144) vcan0 150#5529FAF700F885C0
(1675526143.428221) vcan0 260#D0FF0055497487B0
(1675526143.430532) vcan0 055#F9F71738B2769E80
(1675526143.430610) vcan0 065#7CE617F801EE6A02
(1675526143.430688) vcan0 070#000006F86BE20D00
(1675526143.430765) vcan0 075#0000000000005458
(1675526143.433443) vcan0 072#F000FF3F0078A038
(1675526143.433520) vcan0 080#3E508000C2002C00
(1675526143.433608) vcan0 0B0#528318A3E2C152E3
(1675526143.433684) vcan0 125#E5FF7FE5C1D0D735
(1675526143.433762) vcan0 145#F972D880FC4810A1
(1675526143.433840) vcan0 290#0000000000000000
(1675526143.433917) vcan0 2C0#BB9C00000000A0F1
(1675526143.434068) vcan0 2C5#35DF8CBE7DE6D470
(1675526143.434506) vcan0 008#4880B48700800080
(1675526143.435521) vcan0 010#008000002FB031F8
(1675526143.435672) vcan0 1D0#0000000000000061
(1675526143.435750) vcan0 210#0BE080A0B969B945
(1675526143.436621) vcan0 1B0#00C0000005B000FC
(1675526143.437781) vcan0 1B5#FF07EC784DE0FFEF
(1675526143.437858) vcan0 1D8#363339343234E043
(1675526143.439161) vcan0 1E0#0028534300B917E0
(1675526143.443248) vcan0 008#4880C47700800080
(1675526143.444336) vcan0 0E0#627306C00080D500
(1675526143.445372) vcan0 010#008000002FB031F8
(1675526143.446459) vcan0 072#F000FF3F00788038
(1675526143.446538) vcan0 330#2800000000000000
(1675526143.447480) vcan0 0F5#4BA95EA97F43F200
(1675526143.447630) vcan0 120#80A973A97F005689
(1675526143.447708) vcan0 130#87FF1D6F295BFF11
(1675526143.447785) vcan0 150#5529FD0700F875C0
(1675526143.448586) vcan0 288#FEDF20DF00000080
(1675526143.449602) vcan0 055#F9F71738B2759E80
(1675526143.451121) vcan0 065#79E617F8FFED6A02
(1675526143.451199) vcan0 070#000006F86BE20D00
(1675526143.451276) vcan0 075#0000000000005458
(1675526143.451434) vcan0 080#3E508000C2002C00
(1675526143.451512) vcan0 0B0#528318A3E2C152E3
(1675526143.451589) vcan0 125#E5FF7FE5C1D0D735
(1675526143.451667) vcan0 145#F962D980FC4810A1
(1675526143.454204) vcan0 28C#000000000032FEA9
(1675526143.454282) vcan0 2B5#4B5E176293A67F7E
(1675526143.454361) vcan0 008#4880D46700800080
(1675526143.455305) vcan0 010#008000002FB031F9
(1675526143.456320) vcan0 1D0#0000000000000261
(1675526143.456397) vcan0 291#0000000000000000
(1675526143.457413) vcan0 1B0#00C0000002B000FC
(1675526143.457491) vcan0 1B5#FF2106855AE0FFEF
(1675526143.457567) vcan0 1D8#363339343234E043
(1675526143.458512) vcan0 1E0#0028530300B917E0
(1675526143.458591) vcan0 260#D0FF0055497487B0
(1675526143.458667) vcan0 2C3#BB9C00FFFFA85450
(1675526143.459537) vcan0 290#0000000000000000
(1675526143.460626) vcan0 072#F000FF3F0078A038
(1675526143.460703) vcan0 210#0BE080A0B969B945
(1675526143.464321) vcan0 008#4880E45700800080
(1675526143.465430) vcan0 0E0#627306C80080B500
(1675526143.465507) vcan0 010#008000002FB031F8
(1675526143.465585) vcan0 2A9#8C26008AC0000084
(1675526143.466527) vcan0 0F5#5BA957A97F47E204
(1675526143.467615) vcan0 120#80A984A97FFD5589
(1675526143.470432) vcan0 130#8FFF1D6F294BFF11
(1675526143.470509) vcan0 150#5929FE1700F861C0
(1675526143.470586) vcan0 055#F9F71738B2769E80
(1675526143.470664) vcan0 065#77E617F8FEED6B02
(1675526143.470741) vcan0 070#000006F86BE20D00
(1675526143.470892) vcan0 075#0000000000005458
(1675526143.470970) vcan0 080#3E508000C2002C00
(1675526143.471489) vcan0 0B0#528318A3E2C152E3
(1675526143.471568) vcan0 125#E5FF7FE5C1D0D735
(1675526143.471646) vcan0 145#F952DA80FC4810A1
(1675526143.471795) vcan0 360#C49C00A7B161A001
(1675526143.472605) vcan0 370#0729C0008103C71F
(1675526143.472683) vcan0 350#A200000000000080
(1675526143.473623) vcan0 288#0AE020DF00000080
(1675526143.474710) vcan0 008#4880F44700800080
(1675526143.477532) vcan0 010#008000002FB031F8
(1675526143.477682) vcan0 072#F000FF3F00788038
(1675526143.477760) vcan0 1D0#0000000000000861
(1675526143.477838) vcan0 390#80FF0500021E584F
(1675526143.477915) vcan0 1B0#00C0000002B000FC
(1675526143.477993) vcan0 1B5#FF3C219267E0FFEF
(1675526143.478070) vcan0 1D8#363339343234E043
(1675526143.478147) vcan0 1E0#002C434300B917E0
(1675526143.478585) vcan0 008#4880043700800080
(1675526143.481113) vcan0 0E0#627309D000809200
(1675526143.482172) vcan0 010#008000002FB031F8
(1675526143.483274) vcan0 210#0BE080A0B969B945
(1675526143.484250) vcan0 291#0000000000000000
(1675526143.485352) vcan0 3D0#9B0F6100250D80C3
(1675526143.488303) vcan0 0F5#53A957A97F4BD207
(1675526143.488377) vcan0 120#8CA973A97FFE5589
(1675526143.488519) vcan0 130#97FF1D6F293BFF11
(1675526143.488593) vcan0 150#5529012800F855C0
(1675526143.488668) vcan0 260#D0FF0055497487B0
(1675526143.488741) vcan0 3CA#00000000D30000C8
(1675526143.489364) vcan0 055#F9F71738B2769E80
(1675526143.490395) vcan0 065#7DE617F803EE6B02
(1675526143.490537) vcan0 070#000006F86BE20D00
(1675526143.490612) vcan0 075#0000000000005458
(1675526143.490686) vcan0 072#F000FF3F0078A038
(1675526143.493278) vcan0 080#3E508000C2002C00
(1675526143.493358) vcan0 0B0#528318A3E2C152E3
(1675526143.493507) vcan0 125#E50080E5C1D0D735
(1675526143.493597) vcan0 145#F942DB80FC4810A1
(1675526143.493674) vcan0 28C#000000000032FEA9
(1675526143.493752) vcan0 290#0000000000000000
(1675526143.493830) vcan0 2B5#4B5F176293A67F7F
(1675526143.493908) vcan0 2C0#BB9C00000000A0F1
(1675526143.493985) vcan0 2C5#35DF8CBE78E6D470
(1675526143.494136) vcan0 340#9F00000000000000
(1675526143.494213) vcan0 3AF#0000000000000020
(1675526143.494289) vcan0 3C8#BB9C008E882C008E
(1675526143.494367) vcan0 008#4880142700800080
(1675526143.495527) vcan0 010#008000002FB031F8
(1675526143.496614) vcan0 1D0#0000000000000061
(1675526143.497991) vcan0 1B0#00C0000002B000FC
(1675526143.498069) vcan0 1B5#FF573CA075E0FFEF
(1675526143.498147) vcan0 1D8#363339343234E043
(1675526143.498297) vcan0 1E0#0030334300B917E0
(1675526143.498382) vcan0 288#02E020DF00000080
(1675526143.498461) vcan0 2C3#BB9C00FFFFA95450
(1675526143.502007) vcan0 008#4880241700800080
(1675526143.503095) vcan0 0E0#62730ED800806D00
(1675526143.504108) vcan0 010#008000002FB031F8
(1675526143.505193) vcan0 072#F000FF3F00788038
(1675526143.506352) vcan0 2A9#8C260093C0000084
(1675526143.507435) vcan0 0F5#5BA967A97F4FC20A
(1675526143.507515) vcan0 120#88A973A97FFF5589
(1675526143.507591) vcan0 130#9FFF1D6F292BFF11
(1675526143.508534) vcan0 150#6029033800F83AC0
(1675526143.509981) vcan0 055#F9F71738B2769E80
(1675526143.512947) vcan0 065#79E617F800EE6B02
(1675526143.513025) vcan0 070#000006F86BE20D00
(1675526143.513104) vcan0 075#0000000000005458
(1675526143.513180) vcan0 080#3E508000C2002C00
(1675526143.513268) vcan0 0B0#528318A3E2C152E3
(1675526143.513346) vcan0 125#E50080E5C1D0D735
(1675526143.513495) vcan0 145#F932DC80FC4810A1
(1675526143.513573) vcan0 210#0BE08020B969B94D
(1675526143.514010) vcan0 008#4880340700800080
(1675526143.515170) vcan0 010#008000002FB031F8
(1675526143.516182) vcan0 1D0#0000000000000061
(1675526143.516261) vcan0 291#0000000000000000
(1675526143.517276) vcan0 1B0#00C0000003B000FC
(1675526143.517355) vcan0 1B5#FF7257AD82E0FFEF
(1675526143.517431) vcan0 1D8#363339343234E043
(1675526143.518661) vcan0 1E0#0030330300B917E0
(1675526143.518739) vcan0 260#D0FF00AA497487B0
(1675526143.519755) vcan0 290#0000000000000000
(1675526143.520841) vcan0 072#F000FF3F0078A038
(1675526143.520990) vcan0 3B0#00D86E386EB0C600
(1675526143.523672) vcan0 288#FEDF20DF00000080
(1675526143.524759) vcan0 008#488044F700800080
(1675526143.525847) vcan0 0E0#627313E000804800
(1675526143.525924) vcan0 010#008000002FB031F8
(1675526143.526072) vcan0 330#2800000000000000
(1675526143.526944) vcan0 0F5#5EA953A97F53B20E
(1675526143.528030) vcan0 120#67A980A97F025689
(1675526143.528179) vcan0 130#A7FF1D6F291BFF11
(1675526143.528257) vcan0 150#5929FF4700F831C0
(1675526143.529054) vcan0 055#F9F71738B2769E80
(1675526143.530142) vcan0 065#77E617F8FEED6B02
(1675526143.530290) vcan0 070#000006F86BE20D00
(1675526143.530369) vcan0 075#0000000000005458
(1675526143.531241) vcan0 080#3E508000C2002C00
(1675526143.532689) vcan0 0B0#528318A3E2C152E3
(1675526143.532768) vcan0 125#E50080E5C1D0D735
(1675526143.532854) vcan0 145#F922DD80FC4810A1
(1675526143.532933) vcan0 28C#000000000032FEA9
(1675526143.533009) vcan0 2B5#4B5F176293A67F7F
(1675526143.534242) vcan0 008#488054E700800080
(1675526143.535401) vcan0 010#008000002FB031F9
(1675526143.535479) vcan0 072#F000FF3F00788038
(1675526143.536492) vcan0 1D0#0000000000000261
(1675526143.536569) vcan0 210#0BE080A0B969B94D
(1675526143.537510) vcan0 1B0#00C0000003B000FC
(1675526143.537588) vcan0 1B5#FF8D72BB8FE0FFEF
(1675526143.537738) vcan0 1D8#363339343234E043
(1675526143.537815) vcan0 1E0#0034234300B917E0
(1675526143.538613) vcan0 2C3#BB9C00FFFFA95450
(1675526143.540994) vcan0 008#488064D700800080
(1675526143.545182) vcan0 0E0#62730FE800802C00
(1675526143.545260) vcan0 010#008000002FB031F8
(1675526143.546214) vcan0 291#0000000000000000
(1675526143.546293) vcan0 2A9#8C26008AC0000084
(1675526143.547306) vcan0 0F5#47A947A97F57A211
(1675526143.547384) vcan0 120#84A990A97FFE5589
(1675526143.547460) vcan0 130#AFFF1D6F290BFF11
(1675526143.547538) vcan0 150#4729FF5700F833C0
(1675526143.548409) vcan0 260#D0FF00AA497487B0
(1675526143.548485) vcan0 288#FEDF30CF00000080
(1675526143.549428) vcan0 055#F9F71738B2769E80
(1675526143.550515) vcan0 065#79E617F800EE6B02
(1675526143.550592) vcan0 070#000006F86AE20D00
(1675526143.550668) vcan0 072#F000FF3F0078A038
(1675526143.550745) vcan0 075#0000000000005458
(1675526143.551624) vcan0 080#3E508000C2002C00
(1675526143.551703) vcan0 0B0#528318A3E2C152E3
(1675526143.551779) vcan0 125#E50080E5C1D0D735
(1675526143.551865) vcan0 145#F912DE80FC4810A1
(1675526143.552591) vcan0 290#0000000000000000
(1675526143.554040) vcan0 2C0#BB9C00000000A0F1
(1675526143.554116) vcan0 2C5#35DF8CBE77E6D470
(1675526143.557077) vcan0 008#488074C700800080
(1675526143.557154) vcan0 010#008000002FB031F8
(1675526143.557230) vcan0 1D0#0000000000000861
(1675526143.557307) vcan0 1B0#00C0000004B000FC
(1675526143.557385) vcan0 1B5#FFA88DC89DE0FFEF
(1675526143.558112) vcan0 1D8#363339343234DF43
(1675526143.558190) vcan0 1E0#0038134300B917E0
(1675526143.559204) vcan0 210#0BE080A0B969B945
(1675526143.560290) vcan0 350#A200000000000080
(1675526143.561305) vcan0 008#488084B700800080
(1675526143.563691) vcan0 0E0#62730CF000800F00
(1675526143.564777) vcan0 010#008000002FB031F8
(1675526143.565801) vcan0 072#F000FF3F00788038
(1675526143.568618) vcan0 0F5#53A94FA97F5B9214
(1675526143.568695) vcan0 120#93A977A97FFB5589
(1675526143.568846) vcan0 130#B7FF1D6F29FBFF11
(1675526143.568924) vcan0 150#5129FE6700F819C0
(1675526143.569721) vcan0 055#F9F71738B2769E80
(1675526143.569799) vcan0 065#7CE617F802EE6A02
(1675526143.570742) vcan0 070#000006F86AE20D00
(1675526143.570820) vcan0 075#0000000000005458
(1675526143.570970) vcan0 080#3E508000C2002C00
(1675526143.571047) vcan0 0B0#528318A3E2C152E3
(1675526143.571806) vcan0 125#E50080E5C1D0D735
(1675526143.571883) vcan0 145#F902DF80FC4810A1
(1675526143.572033) vcan0 28C#000000000032FEA9
(1675526143.572111) vcan0 2B5#4B5F176293A67F7E
(1675526143.572189) vcan0 340#9F00000000000000
(1675526143.574799) vcan0 360#C49C00A7B161A001
(1675526143.574877) vcan0 370#0729C0008103C71F
(1675526143.574955) vcan0 288#02E030CF00000080
(1675526143.575032) vcan0 008#488094A700800080
(1675526143.575903) vcan0 010#008000002FB031F8
(1675526143.575980) vcan0 1D0#0000000000000061
(1675526143.576058) vcan0 291#0000000000000000
(1675526143.576929) vcan0 390#80FF0500021E584F
(1675526143.577008) vcan0 1B0#00C0000002B000FC
(1675526143.578022) vcan0 1B5#FFC3A7D5AAE0FFEF
(1675526143.578098) vcan0 1D8#363339343234E043
(1675526143.578176) vcan0 1E0#0038130300B917E0
(1675526143.578253) vcan0 260#D0FF00AA497487B0
(1675526143.578332) vcan0 2C3#BB9C00FFFFAA5450
(1675526143.579130) vcan0 290#0000000000000000
(1675526143.580362) vcan0 072#F000FF3F0078A038
(1675526143.584488) vcan0 008#4880A49700800080
(1675526143.585575) vcan0 0E0#627312F80080E900
(1675526143.585651) vcan0 010#008000002FB031F8
(1675526143.585729) vcan0 210#0BE080A0B969B94D
(1675526143.586600) vcan0 2A9#8C260082C0000084
(1675526143.587687) vcan0 0F5#4FA95BA97F5F8218
(1675526143.587764) vcan0 120#77A967A97F015689
(1675526143.587841) vcan0 130#BFFF1D6F29EBFF11
(1675526143.587919) vcan0 150#5529FF7700F805C0
(1675526143.588716) vcan0 055#F9F71738B2769E80
(1675526143.589875) vcan0 065#77E617F8FDED6A02
(1675526143.590964) vcan0 070#000006F86CE20D00
(1675526143.591043) vcan0 075#0000000000005458
(1675526143.591121) vcan0 080#3E508000C2002C00
(1675526143.591198) vcan0 0B0#528318A3E2C152E3
(1675526143.592288) vcan0 125#E50080E5C1D0D735
(1675526143.592378) vcan0 145#F9F2D080FC4810A1
(1675526143.595267) vcan0 008#4880B48700800080
(1675526143.596354) vcan0 581#FFFFFFFFFFFF0081
(1675526143.596432) vcan0 010#008000002FB031F8
(1675526143.597447) vcan0 072#F000FF3F00788038
(1675526143.597595) vcan0 1D0#0000000000000061
(1675526143.597674) vcan0 1B0#00C0000002B000FC
(1675526143.597751) vcan0 1B5#FFDDC2E3B8E0FFEF
(1675526143.597828) vcan0 1D8#363339343234DF43
(1675526143.598555) vcan0 1E0#003C034300B917E0
(1675526143.598633) vcan0 288#06E030CF00000080
(1675526143.598781) vcan0 400#000300030301001C
(1675526143.598858) vcan0 405#0000000000000023
(1675526143.601028) vcan0 008#4880C47700800080
(1675526143.605074) vcan0 0E0#627318C00080C300
(1675526143.606087) vcan0 0F5#47A95BA97F63721B
(1675526143.607124) vcan0 010#008000002FB031F8
(1675526143.608212) vcan0 120#84A988A97F085689
(1675526143.608288) vcan0 130#C7FF1D6F29DBFF11
(1675526143.608367) vcan0 150#5129018800F8F9C0
(1675526143.608446) vcan0 260#D0FF0055497487B0
(1675526143.608594) vcan0 291#0000000000000000
(1675526143.609250) vcan0 330#2800000000000000
(1675526143.609399) vcan0 3CA#00000000D40000C8
(1675526143.610414) vcan0 055#F9F71738B2769E80
(1675526143.610493) vcan0 065#78E617F800EE6B02
(1675526143.610569) vcan0 070#000006F86CE20D00
(1675526143.610719) vcan0 075#0000000000005458
(1675526143.610797) vcan0 080#3F508000C2002C00
(1675526143.611885) vcan0 0B0#528318A3E2C152E3
(1675526143.611965) vcan0 125#E50080E5C1D0D735
(1675526143.612114) vcan0 072#F000FF3F0078A038
(1675526143.612204) vcan0 145#F9E2D180FC4810A1
(1675526143.612282) vcan0 210#0BE080A0B969B94D
(1675526143.612359) vcan0 28C#000000000032FEA9
(1675526143.613013) vcan0 290#0000000000000000
(1675526143.613091) vcan0 2B5#4B5F176293A67F7F
(1675526143.613168) vcan0 2C0#BB9C00000000A0F1
(1675526143.613246) vcan0 2C5#35DF8CBE7AE6D470
(1675526143.617287) vcan0 3AF#0000000000000020
(1675526143.617365) vcan0 3C8#BB9C008E882C008E
(1675526143.617443) vcan0 008#4880D46700800080
(1675526143.617592) vcan0 010#008000002FB031F9
(1675526143.617671) vcan0 1D0#0000000000000261
(1675526143.617747) vcan0 1B0#00C0000002B000FC
(1675526143.617824) vcan0 1B5#FFF8DDF0C5E0FFEF
(1675526143.617902) vcan0 1D8#363339343234E043
(1675526143.618411) vcan0 1E0#0000F34300B917E0
(1675526143.618499) vcan0 2C3#BB9C00FFFFAA5450
(1675526143.619514) vcan0 288#F1DF30CF00000080
(1675526143.620527) vcan0 008#4880E45700800080
(1675526143.623057) vcan0 0E0#62731DC800809E00
(1675526143.624071) vcan0 010#008000002FB031F8
(1675526143.625157) vcan0 072#F000FF3F00788038
(1675526143.626315) vcan0 2A9#8C26009BC0000084
(1675526143.629201) vcan0 0F5#4BA957A97F67621F
(1675526143.629280) vcan0 120#8CA97BA97F055689
(1675526143.629357) vcan0 130#CFFF1D6F29CBFF11
(1675526143.629434) vcan0 150#5129FF9700F8E9C0
(1675526143.630232) vcan0 055#F9F71738B2759E80
(1675526143.630310) vcan0 065#7DE617F803EE6C02
(1675526143.630387) vcan0 070#000006F86CE20D00
(1675526143.630537) vcan0 075#0000000000005458
(1675526143.631358) vcan0 080#3F508000C2002C00
(1675526143.631372) vcan0 0B0#528318A3E2C152E3
(1675526143.631526) vcan0 125#E50080E5C1D0D735
(1675526143.631605) vcan0 145#F9D2D280FC4810A1
(1675526143.632404) vcan0 008#4880F44700800080
(1675526143.633421) vcan0 010#008000002FB031F8
(1675526143.634578) vcan0 1D0#0000000000000861
(1675526143.637397) vcan0 210#0BE080A0B969B945
(1675526143.637475) vcan0 291#0000000000000000
(1675526143.637551) vcan0 1B0#00C0000002B000FC
(1675526143.637630) vcan0 1B5#FF13F8FDD2E0FFEF
(1675526143.637778) vcan0 1D8#363339343234E043
(1675526143.638505) vcan0 1E0#0000F30300B917E0
(1675526143.638581) vcan0 260#D0FF0055497487B0
(1675526143.639596) vcan0 290#0000000000000000
(1675526143.640611) vcan0 072#F000FF3F0078A038
(1675526143.640689) vcan0 3B0#00D86E3C6EB0C400
(1675526143.641649) vcan0 008#4880043700800080
(1675526143.644105) vcan0 0E0#627312D000808900
(1675526143.645192) vcan0 010#008000002FB031F8
(1675526143.648080) vcan0 0F5#4FA963A97F6B5222
(1675526143.648156) vcan0 120#6BA96FA97FFB5589
(1675526143.648235) vcan0 130#D7FF1D6F29BBFF11
(1675526143.648385) vcan0 150#5929F6A700F8D1C0
(1675526143.648461) vcan0 288#E9DF40BF00000080
(1675526143.649117) vcan0 055#F9F71738B2769E80
(1675526143.650203) vcan0 065#7AE617F800EE6C02
(1675526143.650280) vcan0 070#000006F86CE20D00
(1675526143.650357) vcan0 075#0000000000005458
(1675526143.651299) vcan0 080#3F508000C2002C00
(1675526143.651383) vcan0 0B0#528318A3E2C152E3
(1675526143.651462) vcan0 125#E50380E5C1D0D735
(1675526143.651539) vcan0 145#F9C2D380FC4810A1
(1675526143.652276) vcan0 28C#000000000032FEA9
(1675526143.652354) vcan0 2B5#4B60176293A67F80
(1675526143.655171) vcan0 340#9F00000000000000
(1675526143.655248) vcan0 350#A200000000000080
(1675526143.655326) vcan0 008#4880142700800080
(1675526143.656269) vcan0 010#008000002FB031F8
(1675526143.656347) vcan0 072#F000FF3F00788038
(1675526143.656423) vcan0 1D0#0000000000000061
(1675526143.657367) vcan0 1B0#00C0000002B000FC
(1675526143.657443) vcan0 1B5#FF2E130BE0E0FFEF
(1675526143.657522) vcan0 1D8#363339343234E043
(1675526143.658391) vcan0 1E0#0004E34300B917E0
(1675526143.658469) vcan0 2C3#BB9C00FFFFAB5450
(1675526143.659483) vcan0 210#0CE08020B969B945
(1675526143.661874) vcan0 008#4880241700800080
(1675526143.665846) vcan0 0E0#627306D800807500
(1675526143.665931) vcan0 010#008000002FB031F8
(1675526143.666009) vcan0 291#0000000000000000
(1675526143.666088) vcan0 2A9#8C260082C0000084
(1675526143.666886) vcan0 0F5#5EA95BA97F6F4225
(1675526143.667971) vcan0 120#80A988A97FFA5589
(1675526143.668050) vcan0 130#DFFF1D6F29ABFF11
(1675526143.668127) vcan0 150#5C29F7B700F8BEC0
(1675526143.668205) vcan0 260#D0FF0055497487B0
(1675526143.669004) vcan0 055#F9F71738B2769E80
(1675526143.670090) vcan0 065#78E617F8FEED6C02
(1675526143.670167) vcan0 070#000006F86DE20D00
(1675526143.671254) vcan0 072#F000FF3F0078A038
(1675526143.671332) vcan0 075#0000000000005458
(1675526143.671433) vcan0 080#3F508000C2002C00
(1675526143.674035) vcan0 0B0#528318A3E2C152E3
(1675526143.674113) vcan0 125#E50380E5C1D0D735
(1675526143.674199) vcan0 145#F9B2D480FC4810A1
(1675526143.674278) vcan0 290#0000000000000000
(1675526143.674355) vcan0 2C0#BB9C00000000A0F1
(1675526143.674433) vcan0 2C5#36DF8CBE79E6D470
(1675526143.674509) vcan0 360#C49C00A7B161A001
(1675526143.674658) vcan0 370#0729C0008103C71F
(1675526143.674737) vcan0 288#F5DF40BF00000080
(1675526143.674814) vcan0 3E0#000000D935808092
(1675526143.674893) vcan0 008#4880340700800080
(1675526143.675115) vcan0 010#008000002FB031F8
(1675526143.676128) vcan0 1D0#0000000000000061
(1675526143.676206) vcan0 390#80FF0500021A596F
(1675526143.677221) vcan0 1B0#00C0000002B000FC
(1675526143.678669) vcan0 1B5#FF492E18EDE0FFEF
(1675526143.678748) vcan0 1D8#363339343234E043
(1675526143.678824) vcan0 1E0#0008D34300B917E0
(1675526143.682734) vcan0 008#488044F700800080
(1675526143.683893) vcan0 0E0#627307E000805400
(1675526143.684906) vcan0 010#008000002FB031F8
(1675526143.685993) vcan0 072#F000FF3F00788038
(1675526143.686071) vcan0 210#0CE080A0B969B945
(1675526143.686148) vcan0 330#2800000000000000
(1675526143.687019) vcan0 3D0#9B0F6100250D80C3
(1675526143.687096) vcan0 0F5#53A963A97F733229
(1675526143.687247) vcan0 120#90A96FA97F025689
(1675526143.688117) vcan0 130#E7FF1D6F299BFF11
(1675526143.688193) vcan0 150#5B29FBC700F8AFC0
(1675526143.690506) vcan0 055#F9F71738B2759E80
(1675526143.690583) vcan0 065#79E617F800EE6D02
(1675526143.690661) vcan0 070#000006F86DE20D00
(1675526143.690739) vcan0 075#0000000000005458
(1675526143.690816) vcan0 080#3F508000C2002C00
(1675526143.693358) vcan0 0B0#528318A3E2C152E3
(1675526143.693509) vcan0 125#E50380E5C1D0D735
(1675526143.693586) vcan0 145#F9A2D580FC4810A1
(1675526143.693663) vcan0 28C#000000000032FEA9
(1675526143.693740) vcan0 2B5#4B60176293A68080
(1675526143.694468) vcan0 008#488054E700800080
(1675526143.695555) vcan0 010#008000002FB031F9
(1675526143.696713) vcan0 1D0#0000000000000261
(1675526143.696790) vcan0 291#0000000000000000
(1675526143.697661) vcan0 1B0#00C0000004B000FC
(1675526143.697811) vcan0 1B5#FF644825FAE0FFEF
(1675526143.697890) vcan0 1D8#363339343234E043
(1675526143.697966) vcan0 1E0#0008D30300B917E0
(1675526143.698044) vcan0 260#D0FF00AA497487B0
(1675526143.698771) vcan0 288#F9DF40BF00000080
(1675526143.700147) vcan0 2C3#BB9C00FFFFAC5450
(1675526143.700234) vcan0 290#0000000000000000
(1675526143.701249) vcan0 072#F000FF3F0078A038
(1675526143.704140) vcan0 008#488064D700800080
(1675526143.705228) vcan0 0E0#62730EE800802D00
(1675526143.706315) vcan0 010#008000002FB031F8
(1675526143.707403) vcan0 2A9#8C26009BC0000084
(1675526143.707479) vcan0 0F5#53A967A97F77222C
(1675526143.707630) vcan0 120#7BA97BA97FFE5589
(1675526143.707708) vcan0 130#EFFF1D6F298BFF11
(1675526143.708506) vcan0 150#5C29FFD700F89EC0
(1675526143.709522) vcan0 055#F9F71738B2769E80
(1675526143.710607) vcan0 065#7DE617F803EE6D02
(1675526143.710687) vcan0 070#000006F86CE20D00
(1675526143.710764) vcan0 075#0000000000005458
(1675526143.710841) vcan0 080#3F508000C2002C00
(1675526143.712009) vcan0 0B0#528318A3E2C152E3
(1675526143.712097) vcan0 125#E50380E5C1D0D735
(1675526143.712175) vcan0 145#F992D680FC4810A1
(1675526143.712254) vcan0 210#0CE080A0B969B94D
(1675526143.714785) vcan0 008#488074C700800080
(1675526143.715873) vcan0 010#008000002FB031F8
(1675526143.715952) vcan0 072#F000FF3F00788038
(1675526143.716028) vcan0 1D0#0000000000000861
(1675526143.716900) vcan0 1B0#00C0000002B000FC
(1675526143.717988) vcan0 1B5#FF7E633308E0FFEF
(1675526143.718066) vcan0 1D8#363339343234E043
(1675526143.718143) vcan0 1E0#000CC34300B917E0
(1675526143.720530) vcan0 288#02E040BF00000080
(1675526143.724790) vcan0 008#488084B700800080
(1675526143.725877) vcan0 0E0#62730FF000800C00
(1675526143.725954) vcan0 010#008000002FB031F8
(1675526143.726033) vcan0 291#0000000000000000
(1675526143.726911) vcan0 0F5#63A95BA97F7B122F
(1675526143.726988) vcan0 120#77A980A97FFB5589
(1675526143.728075) vcan0 130#F7FF1D6F297BFF11
(1675526143.728153) vcan0 150#5E29FEE700F88CC0
(1675526143.728231) vcan0 260#D0FF00AA497487B0
(1675526143.728309) vcan0 3CA#00000000D50000C8
(1675526143.729105) vcan0 055#F9F71738B2769E80
(1675526143.730192) vcan0 065#79E617F8FFED6C02
(1675526143.731206) vcan0 070#000006F86CE20D00
(1675526143.731364) vcan0 072#F000FF3F0078A038
(1675526143.731438) vcan0 075#0000000000005458
(1675526143.731511) vcan0 080#3F508000C2002C00
(1675526143.732340) vcan0 0B0#528318A3E2C152E3
(1675526143.732414) vcan0 125#E50380E5C1D0D735
(1675526143.732487) vcan0 145#F982D780FC4810A1
(1675526143.735094) vcan0 28C#000000000032FEA9
(1675526143.735245) vcan0 290#0000000000000000
(1675526143.735320) vcan0 2B5#4B61176293A6807F
(1675526143.735394) vcan0 2C0#BB9C00010000A0F1
(1675526143.735466) vcan0 2C5#36DF8CBE7AE6D470
(1675526143.735539) vcan0 340#9F00000000000000
(1675526143.735614) vcan0 3AF#0000000000000020
(1675526143.735755) vcan0 3C8#BB9C008E882C008E
(1675526143.735829) vcan0 008#488094A700800080
(1675526143.735904) vcan0 010#008000002FB031F8
(1675526143.736251) vcan0 1D0#0000000000000061
(1675526143.736325) vcan0 210#0CE080A0B969B94D
(1675526143.737358) vcan0 1B0#00C0000002B000FC
(1675526143.738662) vcan0 1B5#FF997E4015E0FFEF
(1675526143.738805) vcan0 1D8#363339343234E043
(1675526143.738880) vcan0 1E0#0010B34300B917E0
(1675526143.738953) vcan0 2C3#BB9C00FFFFAC5450
(1675526143.739733) vcan0 350#A200000000000080
(1675526143.743614) vcan0 008#4880A49700800080
(1675526143.744701) vcan0 0E0#627307F80080F400
(1675526143.745716) vcan0 010#008000002FB031F8
(1675526143.745794) vcan0 072#F000FF3F00788038
(1675526143.745944) vcan0 2A9#8C260082C0000084
(1675526143.746815) vcan0 0F5#53A957A97F7F0233
(1675526143.747830) vcan0 120#80A97BA97FFB5589
(1675526143.747909) vcan0 130#FFFF1D6F296BFF11
(1675526143.748057) vcan0 150#5529FDF700F885C0
(1675526143.748135) vcan0 288#02E050AF00000080
(1675526143.749077) vcan0 055#F9F71738B2769E80
(1675526143.750166) vcan0 065#79E617F8FFED6C02
(1675526143.750243) vcan0 070#000006F86BE20D00
(1675526143.750393) vcan0 075#0000000000005458
(1675526143.750544) vcan0 080#3E508000C2002C00
(1675526143.751518) vcan0 0B0#528318A3E2C152E3
(1675526143.751595) vcan0 125#E50380E5C1D0D735
(1675526143.751672) vcan0 145#F972D880FC4810A1
(1675526143.752543) vcan0 008#4880B48700800080
(1675526143.753631) vcan0 010#008000002FB031F8
(1675526143.754646) vcan0 1D0#0000000000000061
(1675526143.755735) vcan0 291#0000000000000000
(1675526143.756751) vcan0 1B0#00C0000003B000FC
(1675526143.758128) vcan0 1B5#FFB4994E23E0FFEF
(1675526143.758278) vcan0 1D8#363339343234E043
(1675526143.758355) vcan0 1E0#0010B30300B917E0
(1675526143.758432) vcan0 260#D0FF00AA497487B0
(1675526143.761181) vcan0 290#0000000000000000
(1675526143.761259) vcan0 072#F000FF3F0078A038
(1675526143.761388) vcan0 210#0CE080A0B969B945
(1675526143.761393) vcan0 3B0#00D86E386EB0C400
(1675526143.762238) vcan0 008#4880C47700800080
(1675526143.763272) vcan0 0E0#627303C00080D800
(1675526143.764305) vcan0 010#008000002FB031F8
(1675526143.765406) vcan0 330#2800000000000000
(1675526143.766439) vcan0 0F5#53A957A97F43F236
(1675526143.767473) vcan0 120#88A967A97FF95589
(1675526143.767614) vcan0 130#87FF1D6F295BFF11
(1675526143.767689) vcan0 150#5529FF0700F875C0
(1675526143.769955) vcan0 055#F9F71738B2769E80
(1675526143.770028) vcan0 065#7CE617F801EE6C02
(1675526143.772780) vcan0 070#000006F86BE20D00
(1675526143.772930) vcan0 075#0000000000005458
(1675526143.773008) vcan0 080#3E508000C2002C00
(1675526143.773085) vcan0 0B0#528318A3E2C152E3
(1675526143.773163) vcan0 125#E50380E5C1D0D735
(1675526143.773240) vcan0 145#F962D980FC4810A1
(1675526143.773328) vcan0 28C#000000000032FEA9
(1675526143.773478) vcan0 2B5#4B61176293A6807F
(1675526143.773555) vcan0 360#C49C00A7B161A001
(1675526143.773632) vcan0 370#0729C0008103C71F
(1675526143.773711) vcan0 288#12E050AF00000080
(1675526143.773861) vcan0 008#4880D46700800080
(1675526143.774949) vcan0 010#008000002FB031F9
(1675526143.776037) vcan0 072#F000FF3F00788038
(1675526143.776116) vcan0 1D0#0000000000000261
(1675526143.778789) vcan0 390#80FF050002125B4F
(1675526143.778939) vcan0 1B0#00C0000002B000FC
(1675526143.779017) vcan0 1B5#FFCFB45B30E0FFEF
(1675526143.779095) vcan0 1D8#363339343234E043
(1675526143.779172) vcan0 1E0#0014A34300B917E0
(1675526143.779250) vcan0 2C3#BB9C00FFFFAD5450
(1675526143.779906) vcan0 008#4880E45700800080
(1675526143.780929) vcan0 0E0#627304C80080B700
(1675526143.781974) vcan0 010#008000002FB031F8
(1675526143.782990) vcan0 210#0CE080A0B969B94D
(1675526143.784077) vcan0 291#0000000000000000
(1675526143.786536) vcan0 2A9#8C26008AC0000084
(1675526143.787550) vcan0 0F5#5EA957A97F47E239
(1675526143.787629) vcan0 120#67A967A97FFC5589
(1675526143.787777) vcan0 130#8FFF1D672953FA11
(1675526143.787856) vcan0 150#5B29041800F85FC0
(1675526143.790384) vcan0 260#D0FF00AA497487B0
(1675526143.790462) vcan0 055#F9F71738B2769E80
(1675526143.790538) vcan0 065#7CE617F800EE6B02
(1675526143.790688) vcan0 070#000006F86CE20D00
(1675526143.790767) vcan0 072#F000FF3F0078A038
(1675526143.790845) vcan0 075#0000000000005458
(1675526143.791568) vcan0 080#3E508000C2002C00
(1675526143.791651) vcan0 0B0#528318A3E2C152E3
(1675526143.791726) vcan0 125#E50380E5C1D0D735
(1675526143.791801) vcan0 145#F952DA80FC4810A1
(1675526143.792628) vcan0 290#0000000000000000
(1675526143.792701) vcan0 2C0#BB9C00000000A0F1
(1675526143.792774) vcan0 2C5#36DF8CBE7EE6D470
(1675526143.793670) vcan0 008#4880F44700800080
(1675526143.794703) vcan0 010#008000002FB031F8
(1675526143.797722) vcan0 1D0#0000000000000861
(1675526143.797796) vcan0 1B0#00C0000002B000FC
(1675526143.797871) vcan0 1B5#FFEACF683DE0FFEF
(1675526143.797944) vcan0 1D8#363339343234E043
(1675526143.798086) vcan0 1E0#0018934300B917E0
(1675526143.798778) vcan0 288#12E050AF00000080
(1675526143.799809) vcan0 008#4880043700800080
(1675526143.800912) vcan0 0E0#627303D000809800
(1675526143.803333) vcan0 010#008000002FB031F8
(1675526143.804421) vcan0 072#F000FF3F00788038
(1675526143.807311) vcan0 0F5#4BA957A97F4BD23D
(1675526143.807388) vcan0 120#90A98CA97FF75589
(1675526143.807466) vcan0 130#97FF1D672943FA11
(1675526143.808334) vcan0 150#5129072800F859C0
(1675526143.809420) vcan0 055#F9F71738B2769E80
(1675526143.810581) vcan0 065#79E617F8FEED6B02
(1675526143.810658) vcan0 070#000006F86CE20D00
(1675526143.810735) vcan0 075#0000000000005458
(1675526143.810813) vcan0 080#3E508000C2002C00
(1675526143.811608) vcan0 0B0#528318A3E2C152E3
(1675526143.811751) vcan0 125#E50380E5C1D0D735
(1675526143.811826) vcan0 145#F942DB80FC4810A1
(1675526143.811900) vcan0 210#0CE08020B969B94D
(1675526143.811973) vcan0 28C#000000000032FEA9
(1675526143.812671) vcan0 2B5#4B61176293A6807F
(1675526143.814187) vcan0 340#9F00000000000000
(1675526143.814262) vcan0 008#4880142700800080
(1675526143.815226) vcan0 010#008000002FB031F8
(1675526143.816328) vcan0 1D0#0000000000000061
(1675526143.816401) vcan0 291#0000000000000000
(1675526143.817775) vcan0 1B0#00C0000003B000FC
(1675526143.817919) vcan0 1B5#FF05E9764BE0FFEF
(1675526143.817992) vcan0 1D8#363339343234E043
(1675526143.818067) vcan0 1E0#0018930300B917E0
(1675526143.818140) vcan0 260#D0FF0055497487B0
(1675526143.818899) vcan0 2C3#BB9C00FFFFAD5450
(1675526143.820003) vcan0 290#0000000000000000
(1675526143.821102) vcan0 072#F000FF3F0078A038
(1675526143.822124) vcan0 288#12E050AF00000080
(1675526143.824935) vcan0 008#4880241700800080
(1675526143.825017) vcan0 0E0#627301D800807A00
(1675526143.825983) vcan0 010#008000002FB031F8
(1675526143.826058) vcan0 2A9#8C260093C0000084
(1675526143.827090) vcan0 0F5#53A953A97F4FC240
(1675526143.827165) vcan0 120#9CA977A97FF65589
(1675526143.828199) vcan0 130#9FFF1D672933FA11
(1675526143.828273) vcan0 150#5329043800F847C0
(1675526143.829238) vcan0 055#F9F71738B2769E80
(1675526143.832184) vcan0 065#77E617F8FEED6C02
(1675526143.832261) vcan0 070#000006F86BE20D00
(1675526143.832338) vcan0 075#0000000000005458
(1675526143.832488) vcan0 080#3E508000C2002C00
(1675526143.832567) vcan0 0B0#528318A3E2C152E3
(1675526143.832645) vcan0 125#E50380E5C1D0D735
(1675526143.832721) vcan0 145#F932DC80FC4810A1
(1675526143.832798) vcan0 350#A200000000000080
(1675526143.833247) vcan0 008#4880340700800080
(1675526143.834334) vcan0 010#008000002FB031F8
(1675526143.835494) vcan0 072#F000FF3F00788038
(1675526143.836510) vcan0 1D0#0000000000000061
(1675526143.836588) vcan0 210#0CE080A0B969B945
(1675526143.837891) vcan0 1B0#00C0000003B000FC
(1675526143.838042) vcan0 1B5#FF1F048358E0FFEF
(1675526143.838119) vcan0 1D8#363339343234E043
(1675526143.838197) vcan0 1E0#001C834300B917E0
(1675526143.840656) vcan0 008#488044F700800080
(1675526143.841734) vcan0 0E0#627300E000805B00
(1675526143.842767) vcan0 010#008000002FB031F8
(1675526143.843803) vcan0 291#0000000000000000
(1675526143.844902) vcan0 330#2800000000000000
(1675526143.845937) vcan0 400#010300010100011D
(1675526143.847039) vcan0 405#2AF83972271B6701
(1675526143.847192) vcan0 425#0000000000000000
(1675526143.847266) vcan0 0F5#53A95BA97F53B243
(1675526143.847340) vcan0 120#6FA980A97FFE5589
(1675526143.848372) vcan0 130#A7FF1D672923FA11
(1675526143.848515) vcan0 150#5729054800F833C0
(1675526143.848588) vcan0 260#D0FF0055497487B0
(1675526143.848663) vcan0 288#16E0609F00000080
(1675526143.848736) vcan0 3CA#00000000D60000C8
(1675526143.851374) vcan0 055#F9F71738B2769E80
(1675526143.851526) vcan0 065#7BE617F801EE6B02
(1675526143.851605) vcan0 070#000006F86CE20D00
(1675526143.851682) vcan0 075#0000000000005458
(1675526143.851759) vcan0 072#F000FF3F0078A038
(1675526143.851837) vcan0 080#3E508000C2002C00
(1675526143.851915) vcan0 0B0#528318A3E2C152E3
(1675526143.852067) vcan0 125#E50380E5C1D0D735
(1675526143.852154) vcan0 145#F922DD80FC4810A1
(1675526143.852448) vcan0 28C#000000000032FEA9
(1675526143.852597) vcan0 290#0000000000000000
(1675526143.852676) vcan0 2B5#4B61176293A67F7F
(1675526143.852753) vcan0 2C0#BB9C00000000A0F1
(1675526143.852830) vcan0 2C5#36DF8CBE79E6D470
(1675526143.853556) vcan0 3AF#0000000000000020
(1675526143.856305) vcan0 3C8#BB9C008E882C008E
(1675526143.856383) vcan0 008#488054E700800080
(1675526143.856461) vcan0 010#008000002FB031F9
(1675526143.856538) vcan0 1D0#0000000000000261
(1675526143.857336) vcan0 1B0#00C0000001B000FC
(1675526143.857414) vcan0 1B5#FF3A1F9065E0FFEF
(1675526143.857492) vcan0 1D8#363339343234E043
(1675526143.858364) vcan0 1E0#0020734300B917E0
(1675526143.858512) vcan0 2C3#BB9C00FFFFAE5450
(1675526143.859464) vcan0 210#0CE080A0B969B945
(1675526143.861833) vcan0 008#488064D700800080
(1675526143.862934) vcan0 0E0#627300E800803B00
(1675526143.865473) vcan0 010#008000002FB031F8
(1675526143.865547) vcan0 072#F000FF3F00788038
(1675526143.866511) vcan0 2A9#8C26008AC0000084
(1675526143.867545) vcan0 0F5#5BA95EA97F57A247
(1675526143.867617) vcan0 120#90A988A97FFE5589
(1675526143.867762) vcan0 130#AFFF1D672913FA11
(1675526143.867836) vcan0 150#5C29055800F81EC0
(1675526143.868594) vcan0 055#F9F71738B2769E80
(1675526143.869698) vcan0 065#79E617F8FFED6C02
(1675526143.872610) vcan0 070#000006F86CE20D00
(1675526143.872688) vcan0 075#0000000000005458
(1675526143.872765) vcan0 080#3F508000C2002C00
(1675526143.872843) vcan0 0B0#528318A3E2C152E3
(1675526143.872929) vcan0 125#E50380E5C1D0D735
(1675526143.873007) vcan0 145#F912DE80FC4810A1
(1675526143.873084) vcan0 360#C49C00A7B161A001
(1675526143.873234) vcan0 370#0729C0008103C71F
(1675526143.873529) vcan0 288#1EE0609F00000080
(1675526143.874617) vcan0 008#488074C700800080
(1675526143.875705) vcan0 010#008000002FB031F8
(1675526143.875782) vcan0 1D0#0000000000000861
(1675526143.876726) vcan0 291#0000000000000000
(1675526143.876805) vcan0 390#80FF050002125B4F
(1675526143.876883) vcan0 1B0#00C0000003B000FC
(1675526143.881071) vcan0 1B5#FF553A9E73E0FFEF
(1675526143.881150) vcan0 1D8#363339343234E043
(1675526143.881228) vcan0 1E0#0020730300B917E0
(1675526143.881306) vcan0 260#D0FF0055497487B0
(1675526143.881385) vcan0 290#0000000000000000
(1675526143.881481) vcan0 072#F000FF3F0078A038
(1675526143.881555) vcan0 3B0#00D86E386EB0C402
(1675526143.882111) vcan0 008#488084B700800080
(1675526143.883144) vcan0 0E0#627303F000801800
(1675526143.884246) vcan0 010#008000002FB031F8
(1675526143.885279) vcan0 210#0CE080A0B969B945
(1675526143.886312) vcan0 3D0#9B0F6100250D80C3
(1675526143.887414) vcan0 0F5#53A953A97F5B924A
(1675526143.887487) vcan0 120#A0A977A97F015689
(1675526143.887561) vcan0 130#B7FF1D672903FF11
(1675526143.888527) vcan0 150#5329086800F817C0
(1675526143.889833) vcan0 055#F9F71738B2769E80
(1675526143.892969) vcan0 065#78E617F800EE6C02
(1675526143.893046) vcan0 070#000006F86CE20D00
(1675526143.893139) vcan0 075#0000000000005458
(1675526143.893203) vcan0 080#3F508000C2002C00
(1675526143.893291) vcan0 0B0#528318A3E2C152E3
(1675526143.893368) vcan0 125#E50380E5C1D0D735
(1675526143.893519) vcan0 145#F902DF80FC4810A1
(1675526143.893596) vcan0 28C#000000000032FEA9
(1675526143.893673) vcan0 2B5#4B62176293A67F7F
(1675526143.893750) vcan0 340#9F00000000000000
(1675526143.893827) vcan0 430#C809C401000031C6
(1675526143.894050) vcan0 008#488094A700800080
(1675526143.895066) vcan0 010#008000002FB031F8
(1675526143.896154) vcan0 072#F000FF3F00788038
(1675526143.896233) vcan0 1D0#0000000000000061
(1675526143.897610) vcan0 1B0#00C0000004B000FC
(1675526143.897687) vcan0 1B5#FF7055AB80E0FFEF
(1675526143.897837) vcan0 1D8#363339343234E043
(1675526143.897914) vcan0 1E0#0024634300B917E0
(1675526143.898786) vcan0 2C3#BB9C00FFFFAF5450
(1675526143.898873) vcan0 288#12E0609F00000080
(1675526143.901259) vcan0 008#4880A49700800080
(1675526143.902318) vcan0 0E0#627302F80080F900
(1675526143.903421) vcan0 010#008000002FB031F8
(1675526143.904523) vcan0 291#0000000000000000
(1675526143.907406) vcan0 2A9#8C260093C0000084
(1675526143.907480) vcan0 0F5#4FA957A97F5F824E
(1675526143.907553) vcan0 120#7BA980A97FFE5589
(1675526143.907695) vcan0 130#BFFF1D6729F3FF11
(1675526143.908456) vcan0 150#5329057800F807C0
(1675526143.908528) vcan0 260#D0FF00AA497487B0
(1675526143.909630) vcan0 055#F9F71738B2769E80
(1675526143.910664) vcan0 065#7AE617F800EE6C02
(1675526143.910739) vcan0 070#000006F86CE20D00
(1675526143.910881) vcan0 075#0000000000005458
(1675526143.910956) vcan0 072#F000FF3F0078A038
(1675526143.911038) vcan0 080#3E508000C2002C00
(1675526143.911782) vcan0 0B0#528318A3E2C152E3
(1675526143.911856) vcan0 125#E50380E5C1D0D735
(1675526143.911929) vcan0 145#F9F2D080FC4810A1
(1675526143.916045) vcan0 210#0CE080A0B969B84D
(1675526143.916188) vcan0 290#0000000000000000
(1675526143.916260) vcan0 2C0#BB9C00000000A0F1
(1675526143.916336) vcan0 2C5#36DF8CBE79E6D470
(1675526143.916410) vcan0 008#4880B48700800080
(1675526143.916552) vcan0 010#008000002FB031F8
(1675526143.916625) vcan0 1D0#0000000000000061
(1675526143.917179) vcan0 1B0#00C0000000B000FC
(1675526143.917254) vcan0 1B5#FF8B70B88EE0FFEF
(1675526143.918216) vcan0 1D8#363339343234E043
(1675526143.918290) vcan0 1E0#0028534300B917E0
(1675526143.919255) vcan0 350#A200000000000080
(1675526143.920295) vcan0 288#12E0609F00000080
(1675526143.922692) vcan0 008#4880C47700800080
(1675526143.923781) vcan0 0E0#627300C00080DB00
(1675526143.926671) vcan0 010#008000002FB031F8
(1675526143.926748) vcan0 072#F000FF3F00788038
(1675526143.926826) vcan0 330#2800000000000000
(1675526143.927696) vcan0 0F5#5EA95BA97F637251
(1675526143.927775) vcan0 120#84A97BA97FFF5589
(1675526143.927926) vcan0 130#C7FF1D6729E3FF11
(1675526143.928003) vcan0 150#5C29078800F8EEC0
(1675526143.928800) vcan0 055#F9F71738B2769E80
(1675526143.929817) vcan0 065#7EE617F802EE6C02
(1675526143.930979) vcan0 070#000006F86CE20D00
(1675526143.931057) vcan0 075#0000000000005458
(1675526143.931134) vcan0 080#3E508000C2002C00
(1675526143.931283) vcan0 0B0#528318A3E2C152E3
(1675526143.931377) vcan0 125#E50380E5C1D0D735
(1675526143.932069) vcan0 145#F9E2D180FC4810A1
(1675526143.933377) vcan0 28C#000000000032FEA9
(1675526143.933452) vcan0 2B5#4B62176293A67F7F
(1675526143.934483) vcan0 008#4880D46700800080
(1675526143.935585) vcan0 010#008000002FB031F9
(1675526143.935660) vcan0 1D0#0000000000000261
(1675526143.938404) vcan0 210#0CE080A0B969B94D
(1675526143.938478) vcan0 291#0000000000000000
(1675526143.938551) vcan0 1B0#00C0000002B000FC
(1675526143.938625) vcan0 1B5#FFA68AC69BE0FFEF
(1675526143.938768) vcan0 1D8#363339343234E043
(1675526143.938842) vcan0 1E0#0028530300B917E0
(1675526143.938917) vcan0 260#D0FF00AA497487B0
(1675526143.938989) vcan0 2C3#BB9C00FFFFAF5450
(1675526143.939475) vcan0 290#0000000000000000
(1675526143.940517) vcan0 072#F000FF3F0078A038
(1675526143.941569) vcan0 008#4880E45700800080
(1675526143.942670) vcan0 0E0#627300C80080BB00
(1675526143.943704) vcan0 010#008000002FB031F8
(1675526143.944736) vcan0 2A9#8C26008AC0000084
(1675526143.947208) vcan0 0F5#4FA957A97F676254
(1675526143.947283) vcan0 120#98A97BA97F035689
(1675526143.950029) vcan0 130#CFFF1D6729D3FF11
(1675526143.950103) vcan0 150#5329049800F8E7C0
(1675526143.950246) vcan0 288#0EE0708F00000080
(1675526143.950321) vcan0 055#F9F71738B2769E80
(1675526143.951078) vcan0 065#79E617F8FEED6C02
(1675526143.951152) vcan0 070#000006F86CE20D00
(1675526143.951294) vcan0 075#0000000000005458
(1675526143.951385) vcan0 080#3F508000C2002C00
(1675526143.951388) vcan0 0B0#528318A3E2C152E3
(1675526143.952166) vcan0 125#E50380E5C1D0D735
(1675526143.952308) vcan0 145#F9D2D280FC4810A1
(1675526143.953204) vcan0 008#4880F44700800080
(1675526143.954307) vcan0 010#008000002FB031F8
(1675526143.955340) vcan0 072#F000FF3F00788038
(1675526143.956442) vcan0 1D0#0000000000000861
(1675526143.957750) vcan0 1B0#00C0000002B000FC
(1675526143.957825) vcan0 1B5#FFC1A5D3A8E0FFEF
(1675526143.957968) vcan0 1D8#363339343234E043
(1675526143.958040) vcan0 1E0#002C434300B917E0
(1675526143.960376) vcan0 210#0DE08020B969B945
(1675526143.961426) vcan0 008#4880043700800080
(1675526143.962529) vcan0 0E0#627300D000809B00
(1675526143.963495) vcan0 010#008000002FB031F8
