(1675525949.475575) vcan0 055#EAF7F827B2389C80
(1675525949.478450) vcan0 065#B1E7F2F7FF8DE901
(1675525949.478672) vcan0 010#008800002FB031F8
(1675525949.478821) vcan0 070#000014F8F4E12000
(1675525949.479043) vcan0 075#0000000000005458
(1675525949.479265) vcan0 080#F14F8000C2002C00
(1675525949.479369) vcan0 0B0#398311A3D9C139A3
(1675525949.479593) vcan0 145#F972D880FCC810A1
(1675525949.479814) vcan0 28C#000020000016FEAB
(1675525949.480038) vcan0 0E0#627392E80080A900
(1675525949.480115) vcan0 2B5#4B242C6293A6510E
(1675525949.480338) vcan0 370#071FC0005C1BC71F
(1675525949.480416) vcan0 1B0#00C0000002B000FC
(1675525949.480711) vcan0 1B5#FFB1FEBD07E0FFEF
(1675525949.480931) vcan0 1D8#363339343234DA43
(1675525949.481010) vcan0 1E0#0020730300B917E0
(1675525949.481232) vcan0 210#2EE080A0A869C545
(1675525949.482104) vcan0 260#D0FF00AA497487B0
(1675525949.483479) vcan0 125#E5ED84E5C1D0D735
(1675525949.484640) vcan0 008#8A84582081800080
(1675525949.485946) vcan0 010#008800002FB031F8
(1675525949.486169) vcan0 072#F000FF3F0078A038
(1675525949.487051) vcan0 1D0#0000000000000061
(1675525949.489582) vcan0 0F5#10947D937F7B12E1
(1675525949.489732) vcan0 120#41949E937F7B5689
(1675525949.490601) vcan0 130#F7EF1D4114BEF711
(1675525949.490823) vcan0 150#C613B9E999F93AC0
(1675525949.492992) vcan0 008#888468048F800080
(1675525949.495450) vcan0 010#008800002FB031F8
(1675525949.496465) vcan0 291#0000000000000000
(1675525949.496688) vcan0 288#28E5C03F00000080
(1675525949.496909) vcan0 055#EAF7F927B23C9C81
(1675525949.499292) vcan0 065#B5E7F3F7008EEB01
(1675525949.499514) vcan0 070#000014F8F5E12000
(1675525949.499736) vcan0 075#0000000000005458
(1675525949.499887) vcan0 080#F44F8000C2002C00
(1675525949.500108) vcan0 0B0#398311A3D9C139A3
(1675525949.500334) vcan0 145#F962D980FCC810A1
(1675525949.500496) vcan0 290#0000000000000000
(1675525949.500719) vcan0 2A9#8C260082C0000084
(1675525949.500869) vcan0 0E0#627388F000809300
(1675525949.501023) vcan0 2C0#468700B00100A0F1
(1675525949.501241) vcan0 2C5#00D7A4B1B2E70070
(1675525949.501316) vcan0 1B0#00C0000004B000FC
(1675525949.501539) vcan0 1B5#FFBE0BC40DE0FFEF
(1675525949.501618) vcan0 1D8#363339343234DB43
(1675525949.501838) vcan0 072#F000FF3F00788038
(1675525949.501988) vcan0 1E0#0024634300B917E0
(1675525949.502211) vcan0 2C3#468700FFFF855450
(1675525949.502864) vcan0 350#A200000000000080
(1675525949.503953) vcan0 125#E5E884E5C1D0D735
(1675525949.505336) vcan0 008#868478E0A5800080
(1675525949.506423) vcan0 010#008800002FB031F8
(1675525949.506646) vcan0 1D0#0000000000000861
(1675525949.506732) vcan0 210#2EE08020A869C54D
(1675525949.508756) vcan0 0F5#0F9474937F7F02E3
(1675525949.509922) vcan0 120#2C9488937F7B5689
(1675525949.511299) vcan0 130#FFEC1D2C14C3F111
(1675525949.511520) vcan0 150#C113B2F998F92FC0
(1675525949.512750) vcan0 260#D0FF0055497487B0
(1675525949.513982) vcan0 008#818488C7B3800080
(1675525949.515071) vcan0 010#008800002FB031F8
(1675525949.517888) vcan0 072#F000FF3F0078A038
(1675525949.518038) vcan0 330#7600000000000000
(1675525949.518260) vcan0 055#E9F7FA27B2459C81
(1675525949.518482) vcan0 065#BCE7F4F7048EEC01
(1675525949.518633) vcan0 070#000015F8F7E12000
(1675525949.518855) vcan0 075#0000000000005458
(1675525949.519078) vcan0 080#FB4F8000C2002C00
(1675525949.519229) vcan0 0B0#398311A3D9C139A3
(1675525949.519459) vcan0 145#F952DA80FCC810A1
(1675525949.519536) vcan0 28C#000020000016FEAB
(1675525949.519758) vcan0 2B5#4B242C6293A65911
(1675525949.519837) vcan0 0E0#62737AF800808100
(1675525949.520131) vcan0 340#9400000000000000
(1675525949.520353) vcan0 1B0#00C0000005B000FC
(1675525949.520431) vcan0 1B5#FFCB18CA13E0FFEF
(1675525949.520653) vcan0 1D8#363339343234DB43
(1675525949.520730) vcan0 1E0#0028534300B917E0
(1675525949.521458) vcan0 288#1CE5C03F00000080
(1675525949.523912) vcan0 125#E5E584E5C1D0D735
(1675525949.524062) vcan0 008#7F8498AAC2800080
(1675525949.526304) vcan0 010#008800002FB031F8
(1675525949.526525) vcan0 1D0#0000000000000061
(1675525949.526676) vcan0 290#0000000000000000
(1675525949.526898) vcan0 291#0000000000000000
(1675525949.528642) vcan0 0F5#289447937F43F2E4
(1675525949.529946) vcan0 120#249472937F665689
(1675525949.530167) vcan0 130#87EF1D2814B7EC11
(1675525949.530317) vcan0 150#B713AE0997F929C0
(1675525949.531043) vcan0 072#F000FF3F00788038
(1675525949.531266) vcan0 210#2EE080A0A869C54D
(1675525949.533504) vcan0 008#7A84A898C9800080
(1675525949.535963) vcan0 010#008800002FB031F9
(1675525949.536186) vcan0 2A9#8C26009BC0000084
(1675525949.537056) vcan0 055#E9F7FB27B24C9C81
(1675525949.539867) vcan0 065#BCE7F5F7058EEE01
(1675525949.540018) vcan0 070#000015F8F8E12000
(1675525949.540240) vcan0 075#0000000000005458
(1675525949.540463) vcan0 080#FD4F8000C2002C00
(1675525949.540614) vcan0 0B0#398311A3D8C139A3
(1675525949.540835) vcan0 145#F942DB80FCC810A1
(1675525949.541004) vcan0 0E0#627373C000806800
(1675525949.541225) vcan0 1B0#00C000000CB000FC
(1675525949.541447) vcan0 1B5#FFD824D11AE0FFEF
(1675525949.541525) vcan0 1D8#363339343234DB43
(1675525949.541746) vcan0 1E0#0028530300B917E0
(1675525949.541824) vcan0 2C3#468700FFFF855450
(1675525949.542338) vcan0 360#488700A6BD64A041
(1675525949.542419) vcan0 260#D0FF0055497487B0
(1675525949.543434) vcan0 125#E5DD84E5C1D0D735
(1675525949.544595) vcan0 008#7884B87CD7800080
(1675525949.545930) vcan0 010#008800002FB031F8
(1675525949.546079) vcan0 072#F000FF3F0078A038
(1675525949.546301) vcan0 1D0#0000000000000261
(1675525949.546380) vcan0 288#FFE4D02F00000080
(1675525949.547107) vcan0 390#80FF0500023E504F
(1675525949.549634) vcan0 0F5#129468937F47E2E6
(1675525949.549721) vcan0 120#249496937F695689
(1675525949.550015) vcan0 130#8FEF1D2414ABE611
(1675525949.550672) vcan0 150#BC13A61996F914C0
(1675525949.553202) vcan0 008#7684C875D0800080
(1675525949.555654) vcan0 010#008800002FB031F8
(1675525949.555877) vcan0 210#2EE080A0A869C545
(1675525949.556027) vcan0 291#0000000000000000
(1675525949.556754) vcan0 055#E9F7FB27B24E9C80
(1675525949.556975) vcan0 065#B8E7F6F7008EF001
(1675525949.559644) vcan0 070#000015F8F9E12000
(1675525949.559867) vcan0 075#0000000000005458
(1675525949.560017) vcan0 080#FE4F8000C2002C00
(1675525949.560238) vcan0 0B0#398311A3D8C139A3
(1675525949.560461) vcan0 145#F932DC80FCC810A1
(1675525949.560610) vcan0 28C#000020000016FEAB
(1675525949.560834) vcan0 290#0000000000000000
(1675525949.560992) vcan0 0E0#627383C800803800
(1675525949.561213) vcan0 2B5#4B242C6293A66715
(1675525949.561292) vcan0 2C0#468700A40100A0F1
(1675525949.561514) vcan0 2C5#00D7A3B1B9E70070
(1675525949.561591) vcan0 3AF#0000000000000020
(1675525949.561813) vcan0 1B0#00C000000EB000FC
(1675525949.561890) vcan0 1B5#FFE531D720E0FFEF
(1675525949.562186) vcan0 1D8#363339343234DB43
(1675525949.562262) vcan0 1E0#002C434300B917E0
(1675525949.562484) vcan0 3D0#880F6100661780C3
(1675525949.562562) vcan0 072#F000FF3F00788038
(1675525949.562784) vcan0 125#E5D784E5C1D0D735
(1675525949.564738) vcan0 008#7184D854E6800080
(1675525949.566137) vcan0 010#008800002FB031F8
(1675525949.566215) vcan0 1D0#0000000000000061
(1675525949.568813) vcan0 0F5#029474937F4BD2E7
(1675525949.569923) vcan0 120#539481937F5A5689
(1675525949.570145) vcan0 130#97EF1D24149BE111
(1675525949.570295) vcan0 150#BB13A72994F905C0
(1675525949.571022) vcan0 3CA#00000000D60000C8
(1675525949.572325) vcan0 288#03E5D02F00000080
(1675525949.572475) vcan0 3C8#4687008E882C008E
(1675525949.575292) vcan0 260#D0FF0055497487B0
(1675525949.575515) vcan0 008#6F84E846E6800080
(1675525949.576460) vcan0 055#E9F7FC27B2519C80
(1675525949.576681) vcan0 065#AFE7F6F7FB8DF101
(1675525949.576832) vcan0 010#008800002FB031F8
(1675525949.577054) vcan0 070#000015F8FAE12000
(1675525949.577565) vcan0 072#F000FF3F0078A038
(1675525949.577714) vcan0 075#0000000000005458
(1675525949.577865) vcan0 080#00508000C2002C00
(1675525949.578088) vcan0 0B0#398311A3D8C139A3
(1675525949.578175) vcan0 145#F922DD80FCC810A1
(1675525949.578686) vcan0 2A9#8C260082C0000084
(1675525949.580132) vcan0 0E0#627387D000801400
(1675525949.580210) vcan0 370#071FC0005C1BC71F
(1675525949.580505) vcan0 1B0#00C0000006B000FC
(1675525949.583033) vcan0 1B5#FFF23EDD26E0FFEF
(1675525949.583257) vcan0 1D8#363339343234DB43
(1675525949.583407) vcan0 1E0#0030334300B917E0
(1675525949.583629) vcan0 2C3#468700FFFF855450
(1675525949.583852) vcan0 210#2DE080A0A869C545
(1675525949.583929) vcan0 125#E5CD84E5C1D0D735
(1675525949.584225) vcan0 008#6A84F826FB800080
(1675525949.585316) vcan0 010#008800002FB031F8
(1675525949.586478) vcan0 1D0#0000000000000861
(1675525949.587852) vcan0 290#0000000000000000
(1675525949.588002) vcan0 291#0000000000000000
(1675525949.589456) vcan0 0F5#26949E937F4FC2E9
(1675525949.589679) vcan0 120#489485937F635689
(1675525949.590550) vcan0 130#9FEF1D24148BE111
(1675525949.590773) vcan0 150#E213A63992F9CEC0
(1675525949.590922) vcan0 072#F000FF3F00788038
(1675525949.590999) vcan0 3B0#00D84B3C41BCC402
(1675525949.593310) vcan0 350#A200000000000080
(1675525949.594398) vcan0 008#66840821F4800080
(1675525949.595490) vcan0 010#008800002FB031F8
(1675525949.596651) vcan0 330#7600000000000000
(1675525949.596872) vcan0 055#E9F7FC27B2559C80
(1675525949.598103) vcan0 065#AAE7F7F7F98DF301
(1675525949.598324) vcan0 070#000015F8FBE12000
(1675525949.598547) vcan0 075#0000000000005458
(1675525949.598697) vcan0 080#02508000C2002C00
(1675525949.598918) vcan0 0B0#398311A3D8C139A3
(1675525949.599005) vcan0 145#F912DE80FCC810A1
(1675525949.599228) vcan0 288#03E5D02F00000080
(1675525949.600890) vcan0 28C#000020000016FEAB
(1675525949.601113) vcan0 0E0#62737BD800800000
(1675525949.601334) vcan0 2B5#4B242B6293A67718
(1675525949.601411) vcan0 340#9500000000000000
(1675525949.601634) vcan0 1B0#00C0000007B000FC
(1675525949.601712) vcan0 1B5#FF004AE42CE0FFEF
(1675525949.601935) vcan0 1D8#363339343234DB43
(1675525949.602084) vcan0 1E0#0030330300B917E0
(1675525949.602306) vcan0 260#D0FF0055497487B0
(1675525949.603106) vcan0 125#E5C784E5C1D0D735
(1675525949.604553) vcan0 008#61841816F4800080
(1675525949.606073) vcan0 010#008800002FB031F9
(1675525949.606296) vcan0 072#F000FF3F0078A038
(1675525949.606518) vcan0 1D0#0000000000000261
(1675525949.606604) vcan0 210#2DE080A0A869C54D
(1675525949.608702) vcan0 0F5#24945F937F53B2EA
(1675525949.609792) vcan0 120#4A949E937F5E5689
(1675525949.610014) vcan0 130#A7F21D24147BE611
(1675525949.610164) vcan0 150#C113A64991F9DFC0
(1675525949.612261) vcan0 008#5D8428E518810080
(1675525949.614787) vcan0 010#008800002FB031F8
(1675525949.617747) vcan0 291#0000000000000000
(1675525949.617896) vcan0 2A9#8C26009BC0000084
(1675525949.618119) vcan0 055#E9F7FD27B2599C81
(1675525949.618341) vcan0 065#A8E7F8F7FC8DF401
(1675525949.618490) vcan0 070#000015F8FCE12000
(1675525949.618713) vcan0 075#0000000000005458
(1675525949.618936) vcan0 080#07508000C2002C00
(1675525949.619085) vcan0 0B0#398311A3D9C139A3
(1675525949.619308) vcan0 145#F902DF80FCC810A1
(1675525949.619479) vcan0 290#0000000000000000
(1675525949.619629) vcan0 2C0#468700860100A0F1
(1675525949.619852) vcan0 0E0#627374E00080E700
(1675525949.619929) vcan0 2C5#00D7A3B2ABE70070
(1675525949.620151) vcan0 400#0201020001010023
(1675525949.620230) vcan0 405#0000000000000026
(1675525949.621674) vcan0 1B0#00C000000BB000FC
(1675525949.621753) vcan0 1B5#FF0D57EA33E0FFEF
(1675525949.621830) vcan0 1D8#363339343234DB43
(1675525949.622124) vcan0 072#F000FF3F00788038
(1675525949.622276) vcan0 1E0#0034234300B917E0
(1675525949.622499) vcan0 2C3#468700FFFF865450
(1675525949.622575) vcan0 288#CAE4D02F00000080
(1675525949.622798) vcan0 125#E5B984E5C1D0D735
(1675525949.623959) vcan0 008#568438DC18810080
(1675525949.625266) vcan0 010#008800002FB031F8
(1675525949.626433) vcan0 1D0#0000000000000061
(1675525949.628963) vcan0 0F5#04946D937F57A2EC
(1675525949.630338) vcan0 120#379484937F565689
(1675525949.630489) vcan0 130#AFF41D24146BEC11
(1675525949.630710) vcan0 150#B91393598FF9D7C0
(1675525949.630931) vcan0 210#2DE080A0A869C545
(1675525949.632956) vcan0 260#D0FF00AA497487B0
(1675525949.634121) vcan0 008#548448D511810080
(1675525949.635418) vcan0 010#008800002FB031F8
(1675525949.636579) vcan0 072#F000FF3F0078A038
(1675525949.636800) vcan0 055#E9F7FE27B25C9C80
(1675525949.639396) vcan0 065#A9E7F9F7FF8DF501
(1675525949.639617) vcan0 070#000015F8FDE12000
(1675525949.639840) vcan0 075#0000000000005458
(1675525949.639989) vcan0 080#0B508000C2002C00
(1675525949.640211) vcan0 0B0#398311A3D9C139A3
(1675525949.640373) vcan0 145#F9F2D080FCC810A1
(1675525949.640598) vcan0 28C#000020000016FEAB
(1675525949.640819) vcan0 2B5#4B242B6293A68219
(1675525949.640971) vcan0 0E0#627392E80080A900
(1675525949.641120) vcan0 1B0#00C000000BB000FC
(1675525949.641341) vcan0 1B5#FF1A64F139E0FFEF
(1675525949.641420) vcan0 1D8#363339343234DB43
(1675525949.641641) vcan0 1E0#0038134300B917E0
(1675525949.641719) vcan0 360#488700A6BD64A041
(1675525949.643101) vcan0 125#E5AE84E5C1D0D735
(1675525949.644402) vcan0 008#4F8458B427810080
(1675525949.645567) vcan0 010#008800002FB031F8
(1675525949.645791) vcan0 1D0#0000000000000061
(1675525949.646662) vcan0 288#DAE4E01F00000080
(1675525949.648106) vcan0 290#0000000000000000
(1675525949.648329) vcan0 291#0000000000000000
(1675525949.648488) vcan0 390#80FF0500023A516F
(1675525949.649576) vcan0 0F5#0D94BE937F5B92EE
(1675525949.649798) vcan0 120#0B9493937F985689
(1675525949.649947) vcan0 130#B7F21D0D1472EF11
(1675525949.650758) vcan0 150#E61398698DF99AC0
(1675525949.650966) vcan0 072#F000FF3F00788038
(1675525949.653206) vcan0 008#4B84689A35810080
(1675525949.655662) vcan0 010#008800002FB031F8
(1675525949.655812) vcan0 210#2DE08020A869C54D
(1675525949.656033) vcan0 2A9#8C260082C0000084
(1675525949.656761) vcan0 055#E9F7FE27B26E9C83
(1675525949.656838) vcan0 065#B4E7F9F7028EF601
(1675525949.658215) vcan0 070#000015F8FEE12000
(1675525949.658365) vcan0 075#0000000000005458
(1675525949.658585) vcan0 080#28508000C2002C00
(1675525949.658807) vcan0 0B0#398311A3D9C139A3
(1675525949.658894) vcan0 145#F9E2D180FCC810A1
(1675525949.659191) vcan0 0E0#6273A2F000807900
(1675525949.661142) vcan0 1B0#00C0000018B000FC
(1675525949.661292) vcan0 1B5#FF2770F73FE0FFEF
(1675525949.661514) vcan0 1D8#363339343234DB43
(1675525949.661592) vcan0 1E0#0038130300B917E0
(1675525949.661814) vcan0 2C3#468700FFFF865450
(1675525949.662180) vcan0 260#D0FF00AA497487B0
(1675525949.663194) vcan0 125#E5A384E5C1D0D735
(1675525949.664570) vcan0 008#4884789B27810080
(1675525949.666091) vcan0 010#008800002FB031F8
(1675525949.666313) vcan0 072#F000FF3F0078A038
(1675525949.666464) vcan0 1D0#0000000000000861
(1675525949.668633) vcan0 0F5#289457937F5F82EF
(1675525949.669792) vcan0 120#0F948D937F835689
(1675525949.670014) vcan0 130#BFF21D0D1462EF11
(1675525949.670896) vcan0 150#BF1398798BF9B1C0
(1675525949.672272) vcan0 288#BAE4E01F00000080
(1675525949.674802) vcan0 008#4484888135810080
(1675525949.675966) vcan0 010#008800002FB031F8
(1675525949.677054) vcan0 055#E9F7FF27B29A9C86
(1675525949.679942) vcan0 065#BFE7F9F7088EF401
(1675525949.680164) vcan0 070#000015F800E22000
(1675525949.680315) vcan0 075#0000000000005458
(1675525949.680538) vcan0 080#55508000C2002C00
(1675525949.680758) vcan0 0B0#398311A3D9C139A3
(1675525949.680909) vcan0 145#F9D2D280FCC810A1
(1675525949.681136) vcan0 0E0#627389F800807200
(1675525949.681353) vcan0 28C#000020000016FEAB
(1675525949.681576) vcan0 290#0000000000000000
(1675525949.681724) vcan0 291#0000000000000000
(1675525949.681945) vcan0 2B5#4B242B6293A68D18
(1675525949.682105) vcan0 2C0#4687006E0100A0F1
(1675525949.682977) vcan0 2C5#03D7A3B1BEE70070
(1675525949.683199) vcan0 1B0#00C0000012B000FC
(1675525949.683278) vcan0 1B5#FF347DFE46E0FFEF
(1675525949.683501) vcan0 1D8#363339343234DB43
(1675525949.683579) vcan0 072#F000FF3F00788038
(1675525949.683873) vcan0 1E0#003C034300B917E0
(1675525949.684034) vcan0 210#2DE080A0A869C545
(1675525949.684174) vcan0 330#7800000000000000
(1675525949.684252) vcan0 340#9500000000000000
(1675525949.684473) vcan0 370#071FC0005C1BC71F
(1675525949.684623) vcan0 3AF#0000000000000020
(1675525949.684844) vcan0 3E0#000000D92E808090
(1675525949.685358) vcan0 350#A200000000000080
(1675525949.685580) vcan0 125#E5A184E5C1D0D735
(1675525949.685658) vcan0 008#3D84986A43810080
(1675525949.686538) vcan0 010#008800002FB031F9
(1675525949.686617) vcan0 1D0#0000000000000261
(1675525949.689001) vcan0 0F5#049485937F6372F1
(1675525949.690090) vcan0 120#1C948B937F685689
(1675525949.691463) vcan0 130#C7F21D0D1452EF11
(1675525949.691684) vcan0 150#C413878989F99CC0
(1675525949.691834) vcan0 3CA#00000000C00000C8
(1675525949.692056) vcan0 3C8#4687008E882C008E
(1675525949.692927) vcan0 260#D0FF00AA497487B0
(1675525949.694016) vcan0 008#3884A8574B810080
(1675525949.695061) vcan0 010#008800002FB031F8
(1675525949.696149) vcan0 072#F000FF3F0078A038
(1675525949.698963) vcan0 288#BEE4E01F00000080
(1675525949.699186) vcan0 055#E9F7FF27B2C69C85
(1675525949.699408) vcan0 065#BDE7F7F7078EF101
(1675525949.699558) vcan0 070#000015F801E22000
(1675525949.699791) vcan0 075#0000000000005458
(1675525949.699942) vcan0 080#79508000C2002C00
(1675525949.700165) vcan0 0B0#398311A3D8C139A3
(1675525949.700241) vcan0 145#F9C2D380FCC810A1
(1675525949.700463) vcan0 2A9#8C26008AC0000084
(1675525949.700672) vcan0 0E0#62737FC000805C00
(1675525949.700834) vcan0 1B0#00C000000AB000FC
(1675525949.700913) vcan0 1B5#FF418A044CE0FFEF
(1675525949.701279) vcan0 1D8#363339343234DB43
(1675525949.701357) vcan0 1E0#0000F34300B917E0
(1675525949.701579) vcan0 2C3#468700FFFF865450
(1675525949.702378) vcan0 125#E59584E5C1D0D735
(1675525949.704763) vcan0 008#3484B85343810080
(1675525949.705856) vcan0 010#008800002FB031F8
(1675525949.707232) vcan0 1D0#0000000000000061
(1675525949.707381) vcan0 210#2DE080A0A869C54D
(1675525949.707613) vcan0 291#0000000000000000
(1675525949.707763) vcan0 290#0000000000000000
(1675525949.709935) vcan0 0F5#FD939A937F6762F2
(1675525949.710157) vcan0 120#1C94C0937F6A5689
(1675525949.710306) vcan0 130#CFF21D0D1442EF11
(1675525949.710529) vcan0 150#CB138F9986F985C0
(1675525949.710968) vcan0 072#F000FF3F00788038
(1675525949.711118) vcan0 3B0#00D84B3841BCC400
(1675525949.714728) vcan0 008#2F84C85635810080
(1675525949.715817) vcan0 010#008800002FB031F8
(1675525949.716040) vcan0 055#E9F70128B2E19C83
(1675525949.717058) vcan0 065#B4E7F5F7008EEE01
(1675525949.719806) vcan0 070#000015F804E22000
(1675525949.720021) vcan0 075#0000000000005458
(1675525949.720244) vcan0 080#86508000C2002C00
(1675525949.720395) vcan0 0B0#398311A3D8C139A3
(1675525949.720627) vcan0 145#F9B2D480FCC810A1
(1675525949.720850) vcan0 28C#000020000016FEAB
(1675525949.720998) vcan0 2B5#4B242B6293A6B713
(1675525949.721223) vcan0 0E0#627380C800803B00
(1675525949.721445) vcan0 1B0#00C000000CB000FC
(1675525949.721522) vcan0 1B5#FF4E960B52E0FFEF
(1675525949.721743) vcan0 1D8#363339343234DB43
(1675525949.721821) vcan0 1E0#0000F30300B917E0
(1675525949.722043) vcan0 288#B1E4E01F00000080
(1675525949.722264) vcan0 260#D0FF0055497487B0
(1675525949.723423) vcan0 125#E58D84E5C1D0D735
(1675525949.724512) vcan0 008#2B84D84A35810080
(1675525949.725817) vcan0 010#008800002FB031F8
(1675525949.725966) vcan0 072#F000FF3F0078A038
(1675525949.726115) vcan0 1D0#0000000000000061
(1675525949.728430) vcan0 0F5#169477937F6B52F4
(1675525949.729527) vcan0 120#2C9491937F515689
(1675525949.730613) vcan0 130#D7F41D0D1432EF11
(1675525949.730691) vcan0 150#C6138BA984F97AC0
(1675525949.731922) vcan0 210#2DE080A0A869C54D
(1675525949.734665) vcan0 008#2684E8294B810080
(1675525949.735825) vcan0 010#008800002FB031F8
(1675525949.735976) vcan0 291#0000000000000000
(1675525949.736197) vcan0 2A9#8C260093C0000084
(1675525949.736925) vcan0 055#E9F70328B2E89C80
(1675525949.737003) vcan0 065#A8E7F7F7F98DF501
(1675525949.741041) vcan0 070#000015F807E22000
(1675525949.741266) vcan0 075#0000000000005458
(1675525949.741415) vcan0 080#88508000C2002C00
(1675525949.741638) vcan0 0B0#398311A3D8C139A3
(1675525949.741859) vcan0 145#F9A2D580FCC810A1
(1675525949.742083) vcan0 290#0000000000000000
(1675525949.742180) vcan0 2C0#468700630100A0F1
(1675525949.742475) vcan0 0E0#627374D000802700
(1675525949.742623) vcan0 2C5#0AD7A3B0B8E70070
(1675525949.742846) vcan0 1B0#00C0000009B000FC
(1675525949.743068) vcan0 1B5#FF5BA31159E0FFEF
(1675525949.743145) vcan0 1D8#363339343234DB43
(1675525949.743367) vcan0 1E0#0004E34300B917E0
(1675525949.743445) vcan0 2C3#468700FFFF875450
(1675525949.743667) vcan0 072#F000FF3F00788038
(1675525949.743745) vcan0 360#488700A6BD64A041
(1675525949.744037) vcan0 125#E58584E5C1D0D735
(1675525949.744693) vcan0 008#2484F83135810080
(1675525949.746070) vcan0 010#008800002FB031F8
(1675525949.746146) vcan0 1D0#0000000000000861
(1675525949.746368) vcan0 288#FBE4F00F00000080
(1675525949.746446) vcan0 390#80FF05000236524F
(1675525949.748697) vcan0 0F5#09947B937F6F42F6
(1675525949.749785) vcan0 120#1C94A6937F5C5689
(1675525949.750009) vcan0 130#DFF41D0D1422F111
(1675525949.750085) vcan0 150#C113A1B981F96FC0
(1675525949.752325) vcan0 260#D0FF0055497487B0
(1675525949.754780) vcan0 008#2284083127810080
(1675525949.757670) vcan0 010#008800002FB031F8
(1675525949.757820) vcan0 072#F000FF3F0078A038
(1675525949.758043) vcan0 055#E9F70428B2EA9C80
(1675525949.758264) vcan0 065#A6E7FBF7F98DFA01
(1675525949.758415) vcan0 070#000015F809E22000
(1675525949.758637) vcan0 075#0000000000005458
(1675525949.758860) vcan0 080#89508000C2002C00
(1675525949.759009) vcan0 0B0#398311A3D9C139A3
(1675525949.759230) vcan0 145#F992D680FCC810A1
(1675525949.759452) vcan0 210#2DE080A0A869C545
(1675525949.759552) vcan0 28C#000020000016FEAB
(1675525949.759774) vcan0 0E0#62737FD80080FC00
(1675525949.759853) vcan0 2B5#4B242B6293A6C61E
(1675525949.760146) vcan0 330#7800000000000000
(1675525949.760224) vcan0 340#9600000000000000
(1675525949.760444) vcan0 3D0#880F6100661780C3
(1675525949.760522) vcan0 1B0#00C0000003B000FC
(1675525949.760744) vcan0 1B5#FF68B0185FE0FFEF
(1675525949.760822) vcan0 1D8#363339343234DB43
(1675525949.761115) vcan0 1E0#0008D34300B917E0
(1675525949.762779) vcan0 125#E57F84E5C1D0D735
(1675525949.763868) vcan0 008#1D84182627810080
(1675525949.766364) vcan0 010#008800002FB031F8
(1675525949.766514) vcan0 1D0#0000000000000061
(1675525949.767674) vcan0 290#0000000000000000
(1675525949.767897) vcan0 291#0000000000000000
(1675525949.768789) vcan0 0F5#FB9359937F7332F7
(1675525949.770237) vcan0 120#D0937B937F4B5689
(1675525949.770460) vcan0 130#E7F41DF5132BEF11
(1675525949.770682) vcan0 150#AA13A3C97FF976C0
(1675525949.771266) vcan0 072#F000FF3F00788038
(1675525949.771488) vcan0 288#FFE4F00F00000080
(1675525949.773798) vcan0 350#A200000000000080
(1675525949.774020) vcan0 008#1B84281827810080
(1675525949.776365) vcan0 055#EAF70628B2E89C80
(1675525949.776588) vcan0 065#B3E700F8FE8D0602
(1675525949.776739) vcan0 010#008800002FB031F9
(1675525949.777536) vcan0 070#000015F80CE22000
(1675525949.777614) vcan0 075#0000000000005458
(1675525949.778919) vcan0 080#89508000C2002C00
(1675525949.779143) vcan0 0B0#398311A3D9C139A3
(1675525949.779364) vcan0 145#F982D780FCC810A1
(1675525949.779461) vcan0 2A9#8C26008AC0000084
(1675525949.779683) vcan0 0E0#62737FE00080DC00
(1675525949.779761) vcan0 370#071FC0005C1BC71F
(1675525949.780056) vcan0 1B0#00C0000006B000FC
(1675525949.780135) vcan0 1B5#FF75BC1E65E0FFEF
(1675525949.780212) vcan0 1D8#363339343234DB43
(1675525949.781443) vcan0 1E0#0008D30300B917E0
(1675525949.781521) vcan0 2C3#468700FFFF875450
(1675525949.781743) vcan0 210#2DE080A0A869C545
(1675525949.782543) vcan0 260#D0FF0055497487B0
(1675525949.783631) vcan0 125#E57984E5C1D0D735
(1675525949.786452) vcan0 008#188438280A810080
(1675525949.786675) vcan0 010#008800002FB031F8
(1675525949.786896) vcan0 072#F000FF3F0078A038
(1675525949.787047) vcan0 1D0#0000000000000261
(1675525949.789000) vcan0 0F5#099476937F7722F9
(1675525949.790169) vcan0 120#F293C0937F585689
(1675525949.790393) vcan0 130#EFF41DF5131BEF11
(1675525949.790615) vcan0 150#BF139ED97CF951C0
(1675525949.792492) vcan0 008#16844831F4800080
(1675525949.795100) vcan0 010#008800002FB031F8
(1675525949.797992) vcan0 291#0000000000000000
(1675525949.798214) vcan0 055#E9F70728B2E89C80
(1675525949.798364) vcan0 065#C2E705F8098E0E02
(1675525949.798587) vcan0 070#000016F80FE22000
(1675525949.798809) vcan0 075#0000000000005458
(1675525949.798959) vcan0 080#8A508000C2002C00
(1675525949.799182) vcan0 0B0#398311A3D9C139A3
(1675525949.799404) vcan0 145#F972D880FCC810A1
(1675525949.799554) vcan0 288#A5E4F00F00000080
(1675525949.799775) vcan0 28C#000020000016FEAB
(1675525949.799997) vcan0 0E0#62737FE80080BC00
(1675525949.800096) vcan0 290#0000000000000000
(1675525949.800317) vcan0 2B5#4B242B6293A6C732
(1675525949.800395) vcan0 2C0#468700410100A0F1
(1675525949.800618) vcan0 2C5#15D7A3AFBEE70070
(1675525949.801919) vcan0 3AF#0000000000000020
(1675525949.802069) vcan0 1B0#00C0000005B000FC
(1675525949.802074) vcan0 1B5#FF81C9256BE0FFEF
(1675525949.802440) vcan0 1D8#363339343234DB43
(1675525949.802517) vcan0 072#F000FF3F00788038
(1675525949.802740) vcan0 1E0#000CC34300B917E0
(1675525949.803033) vcan0 125#E57484E5C1D0D735
(1675525949.804122) vcan0 008#14845831E6800080
(1675525949.805500) vcan0 010#008800002FB031F8
(1675525949.806589) vcan0 1D0#0000000000000061
(1675525949.806810) vcan0 210#2DE08020A869C54D
(1675525949.809053) vcan0 0F5#09946A937F7B12FA
(1675525949.810227) vcan0 120#069468937F585689
(1675525949.811603) vcan0 130#F7F21DF5130BEF11
(1675525949.811827) vcan0 150#BA1387E979F946C0
(1675525949.812048) vcan0 3CA#00000000D10000C8
(1675525949.812198) vcan0 3C8#4687008E882C008E
(1675525949.813070) vcan0 260#D0FF00AA497487B0
(1675525949.814162) vcan0 008#0F846826E6800080
(1675525949.815213) vcan0 010#008800002FB031F8
(1675525949.816443) vcan0 072#F000FF3F0078A038
(1675525949.819261) vcan0 055#E9F70928B2EC9C80
(1675525949.819410) vcan0 065#D0E705F80F8E0A02
(1675525949.819632) vcan0 070#000017F813E22000
(1675525949.819855) vcan0 075#0000000000005458
(1675525949.820006) vcan0 080#8C508000C2002C00
(1675525949.820228) vcan0 0B0#398311A3D9C139A3
(1675525949.820450) vcan0 145#F962D980FCC810A1
(1675525949.820537) vcan0 2A9#8C260093C0000084
(1675525949.820759) vcan0 0E0#627377F00080A400
(1675525949.820838) vcan0 1B0#00C0000005B000FC
(1675525949.821060) vcan0 1B5#FF8ED52B72E0FFEF
(1675525949.821150) vcan0 1D8#363339343234DB43
(1675525949.821720) vcan0 1E0#0010B34300B917E0
(1675525949.821799) vcan0 2C3#468700FFFF875450
(1675525949.822021) vcan0 288#B6E4F00F00000080
(1675525949.822750) vcan0 125#E56F84E5C1D0D735
(1675525949.824197) vcan0 008#0D847818E6800080
(1675525949.825359) vcan0 010#008800002FB031F8
(1675525949.826376) vcan0 1D0#0000000000000861
(1675525949.827681) vcan0 290#0000000000000000
(1675525949.827904) vcan0 291#0000000000000000
(1675525949.829352) vcan0 0F5#EF9369937F7F02FC
(1675525949.829573) vcan0 120#D693A8927F5A5689
(1675525949.830457) vcan0 130#FFF41DEF1301EC11
(1675525949.830606) vcan0 150#AC138CF976F944C0
(1675525949.830828) vcan0 072#F000FF3F00788038
(1675525949.830907) vcan0 210#2DE080A0A869C545
(1675525949.831489) vcan0 3B0#00D84B3841BCC400
(1675525949.834163) vcan0 008#09848822D0800080
(1675525949.835275) vcan0 010#008800002FB031F8
(1675525949.836363) vcan0 330#7800000000000000
(1675525949.836585) vcan0 055#E8F70B28B2F09C80
(1675525949.836662) vcan0 065#D8E703F80B8E0702
(1675525949.836956) vcan0 070#000017F816E22000
(1675525949.839199) vcan0 075#0000000000005458
(1675525949.839349) vcan0 080#8F508000C2002C00
(1675525949.839570) vcan0 0B0#398311A3D8C139A3
(1675525949.839794) vcan0 145#F952DA80FCC810A1
(1675525949.839943) vcan0 28C#000020000016FEAB
(1675525949.840032) vcan0 2B5#4B242B6293A6C72D
(1675525949.840329) vcan0 0E0#62737DF800807E00
(1675525949.840406) vcan0 340#9600000000000000
(1675525949.840628) vcan0 1B0#00C0000004B000FC
(1675525949.840706) vcan0 1B5#FF9BE23278E0FFEF
(1675525949.840928) vcan0 1D8#363339343234DB43
(1675525949.841005) vcan0 1E0#0010B30300B917E0
(1675525949.841300) vcan0 360#488700A6BD64A041
(1675525949.842824) vcan0 260#D0FF00AA497487B0
(1675525949.843911) vcan0 125#E56684E5C1D0D735
(1675525949.845290) vcan0 008#0984980BD7800080
(1675525949.846451) vcan0 010#008800002FB031F9
(1675525949.846673) vcan0 072#F000FF3F0078A038
(1675525949.847758) vcan0 1D0#0000000000000261
(1675525949.847980) vcan0 288#ADE400FF00000080
(1675525949.848202) vcan0 390#80FF05000232534F
(1675525949.848866) vcan0 0F5#D29363937F43F2FD
(1675525949.850027) vcan0 120#F79355937F735689
(1675525949.851473) vcan0 130#87F21DEE13F2E611
(1675525949.851694) vcan0 150#9A138C0973F946C0
(1675525949.854009) vcan0 008#0484A800D7800080
(1675525949.855099) vcan0 010#008800002FB031F8
(1675525949.856258) vcan0 210#2EE080A0A869C54D
(1675525949.859075) vcan0 291#0000000000000000
(1675525949.859225) vcan0 055#E8F70E28B2F99C81
(1675525949.859449) vcan0 065#D8E701F8068E0302
(1675525949.859670) vcan0 070#000017F81AE22000
(1675525949.859820) vcan0 075#0000000000005458
(1675525949.860042) vcan0 080#9A508000C2002C00
(1675525949.860264) vcan0 0B0#398311A3D7C139A3
(1675525949.860413) vcan0 145#F942DB80FC4810A1
(1675525949.860636) vcan0 290#0000000000000000
(1675525949.860723) vcan0 0E0#62737DC000805E00
(1675525949.860945) vcan0 2A9#8C26008AC0000084
(1675525949.861023) vcan0 2C0#4687002C0100A0F1
(1675525949.861316) vcan0 2C5#1AD7A3AED8E70070
(1675525949.861394) vcan0 1B0#00C0000005B000FC
(1675525949.861689) vcan0 1B5#FFA8EE387EE0FFEF
(1675525949.861768) vcan0 1D8#363339343234DB43
(1675525949.861989) vcan0 1E0#0014A34300B917E0
(1675525949.862066) vcan0 2C3#468700FFFF875450
(1675525949.862288) vcan0 072#F000FF3F00788038
(1675525949.862871) vcan0 125#E56384E5C1D0D735
(1675525949.863957) vcan0 350#A200000000000080
(1675525949.865269) vcan0 008#0284B8F9D0800080
(1675525949.868232) vcan0 581#FFFFFFFFFFFF0081
(1675525949.868381) vcan0 010#008800002FB031F8
(1675525949.868605) vcan0 1D0#0000000000000061
(1675525949.868839) vcan0 400#0101010101010224
(1675525949.868988) vcan0 405#0000000000000027
(1675525949.869357) vcan0 0F5#DC9357937F47E2FF
(1675525949.870444) vcan0 120#3094D2937F5A5689
(1675525949.870595) vcan0 130#8FF21DEE13E2EC11
(1675525949.870744) vcan0 150#9913841970F937C0
(1675525949.871470) vcan0 288#78E400FF00000080
(1675525949.872845) vcan0 260#D0FF00AA497487B0
(1675525949.875880) vcan0 008#FF83C80AB3800080
(1675525949.876102) vcan0 055#E9F71028B2049D81
(1675525949.876977) vcan0 065#DBE702F8038E0702
(1675525949.877198) vcan0 070#000017F81FE22000
(1675525949.877348) vcan0 075#0000000000005458
(1675525949.877569) vcan0 080#A3508000C2002C00
(1675525949.877792) vcan0 0B0#398311A3D8C139A3
(1675525949.878089) vcan0 010#008800002FB031F8
(1675525949.878175) vcan0 072#F000FF3F0078A038
(1675525949.878253) vcan0 145#F932DC80FC4810A1
(1675525949.878548) vcan0 0E0#627375C800804600
(1675525949.878625) vcan0 28C#000020000016FEAB
(1675525949.879208) vcan0 2B5#4B252B6293A6C72D
(1675525949.880583) vcan0 370#071FC0005C1BC71F
(1675525949.880658) vcan0 1B0#00C0000006B000FC
(1675525949.880881) vcan0 1B5#FFB5FB3F85E0FFEF
(1675525949.880959) vcan0 1D8#363339343234DB43
(1675525949.882047) vcan0 1E0#0018934300B917E0
(1675525949.882123) vcan0 210#2EE080A0A869C545
(1675525949.883215) vcan0 125#E56184E5C1D0D735
(1675525949.884375) vcan0 008#FD83D8EDC2800080
(1675525949.885681) vcan0 290#0000000000000000
(1675525949.886842) vcan0 010#008800002FB031F8
(1675525949.888288) vcan0 1D0#0000000000000061
(1675525949.888448) vcan0 291#0000000000000000
(1675525949.889467) vcan0 0F5#F1936A937F4BD200
(1675525949.889688) vcan0 120#0D9481937F475689
(1675525949.890561) vcan0 130#97F41DEE13D2F111
(1675525949.890710) vcan0 150#AD137A296EF913C0
(1675525949.890934) vcan0 072#F000FF3F00788038
(1675525949.892885) vcan0 008#FB83E8DFC2800080
(1675525949.895563) vcan0 010#008800002FB031F8
(1675525949.895787) vcan0 2A9#8C260082C0000084
(1675525949.896656) vcan0 288#6CE400FF00000080
(1675525949.896806) vcan0 055#E9F71328B2059D80
(1675525949.897028) vcan0 065#C7E704F8018E0B02
(1675525949.897250) vcan0 070#000017F824E22000
(1675525949.897474) vcan0 075#0000000000005458
(1675525949.897696) vcan0 080#A5508000C2002C00
(1675525949.900586) vcan0 0B0#398311A3D9C139A3
(1675525949.900760) vcan0 145#F922DD80FC4810A1
(1675525949.900983) vcan0 0E0#627375D000802600
(1675525949.901205) vcan0 1B0#00C0000007B000FC
(1675525949.901355) vcan0 1B5#FFC207458BE0FFEF
(1675525949.901504) vcan0 1D8#363339343234DB43
(1675525949.901728) vcan0 1E0#0018930300B917E0
(1675525949.901807) vcan0 2C3#468700FFFF885450
(1675525949.902028) vcan0 260#D0FF00AA497487B0
(1675525949.902756) vcan0 125#E55884E5C1D0D735
(1675525949.904203) vcan0 008#F983F8D1C2800080
(1675525949.905654) vcan0 010#008800002FB031F8
(1675525949.905877) vcan0 072#F000FF3F0078A038
(1675525949.906748) vcan0 1D0#0000000000000061
(1675525949.906971) vcan0 210#2EE080A0A869C54D
(1675525949.909284) vcan0 0F5#E39362937F4FC202
(1675525949.909512) vcan0 120#1B9483937F665689
(1675525949.910470) vcan0 130#9FF71DEE13C2F711
(1675525949.911845) vcan0 150#A21374396CF90EC0
(1675525949.914448) vcan0 008#F68308C4C2800080
(1675525949.915537) vcan0 010#008800002FB031F8
(1675525949.915832) vcan0 291#0000000000000000
(1675525949.916705) vcan0 055#EAF71628B2059D80
(1675525949.919592) vcan0 065#ADE70AF8E7BD1A02
(1675525949.919813) vcan0 070#000016F829E22000
(1675525949.919964) vcan0 075#0000000000005458
(1675525949.920186) vcan0 080#A7508000C2002C00
(1675525949.920407) vcan0 0B0#398311A3DAC139A3
(1675525949.920556) vcan0 145#F912DE80FC4810A1
(1675525949.920778) vcan0 28C#000020000016FEAB
(1675525949.921000) vcan0 290#0000000000000000
(1675525949.921151) vcan0 0E0#62737BD800800000
(1675525949.921373) vcan0 2B5#4B252A6293A6C73D
(1675525949.921458) vcan0 2C0#4687001B0100A0F1
(1675525949.921684) vcan0 2C5#25D7A3ACAEE70070
(1675525949.921761) vcan0 330#7800000000000000
(1675525949.921983) vcan0 340#9700000000000000
(1675525949.922133) vcan0 1B0#00C0000003B000FC
(1675525949.922357) vcan0 1B5#FFCF144B91E0FFEF
(1675525949.922433) vcan0 1D8#363339343234DB43
(1675525949.922655) vcan0 072#F000FF3F00788038
(1675525949.922733) vcan0 1E0#001C834300B917E0
(1675525949.923027) vcan0 3AF#0000000000000020
(1675525949.923103) vcan0 288#68E400FF00000080
(1675525949.923327) vcan0 425#0000000000000000
(1675525949.923404) vcan0 125#E55384E5C1D0D735
(1675525949.924779) vcan0 008#F48318C5B3800080
(1675525949.927383) vcan0 010#008800002FB031F9
(1675525949.927604) vcan0 1D0#0000000000000A61
(1675525949.928555) vcan0 0F5#E19361937F53B204
(1675525949.929571) vcan0 120#0D9471937F645689
(1675525949.929790) vcan0 130#A7F71DEE13B2FD11
(1675525949.930735) vcan0 150#A11372496AF9FFC0
(1675525949.930957) vcan0 210#2EE080A0A869C54D
(1675525949.932117) vcan0 3CA#00000000D20000C8
(1675525949.932339) vcan0 3C8#4687008E882C008E
(1675525949.933714) vcan0 260#D0FF0055497487B0
(1675525949.934801) vcan0 008#EF8328B2BB800080
(1675525949.935890) vcan0 010#008800002FB031F8
(1675525949.936112) vcan0 072#F000FF3F0078A038
(1675525949.936333) vcan0 2A9#8C26009BC0000084
(1675525949.936412) vcan0 055#EBF71A28B2059D80
(1675525949.936995) vcan0 065#9CE714F8F2BD3202
(1675525949.937000) vcan0 070#000016F82FE22000
(1675525949.939745) vcan0 075#0000000000005458
(1675525949.939833) vcan0 080#A7508000C2002C00
(1675525949.940131) vcan0 0B0#398311A3DBC139A3
(1675525949.940281) vcan0 145#F902DF80FC4810A1
(1675525949.940502) vcan0 0E0#62737AE00080E100
(1675525949.940580) vcan0 1B0#00C0000001B000FC
(1675525949.940805) vcan0 1B5#FFDC215297E0FFEF
(1675525949.940954) vcan0 1D8#363339343234DB43
(1675525949.941176) vcan0 1E0#0020734300B917E0
(1675525949.941254) vcan0 2C3#468700FFFF885450
(1675525949.942123) vcan0 360#488700A6BD64A041
(1675525949.943354) vcan0 125#E54A84E5C1D0D735
(1675525949.944799) vcan0 008#ED8338ACB3800080
(1675525949.945965) vcan0 010#008800002FB031F8
(1675525949.946189) vcan0 1D0#0000000000000061
(1675525949.946265) vcan0 288#64E410EF00000080
(1675525949.946995) vcan0 291#0000000000000000
(1675525949.947083) vcan0 390#80FF0500022E544F
(1675525949.947376) vcan0 290#0000000000000000
(1675525949.949827) vcan0 0F5#DD9354937F57A205
(1675525949.950051) vcan0 120#099481937F4F5689
(1675525949.950275) vcan0 130#AFFD1DEE13A2FF11
(1675525949.950425) vcan0 072#F000FF3F00788038
(1675525949.950937) vcan0 150#98136E5968F9F8C0
(1675525949.951015) vcan0 3B0#00D84B3841BCC400
(1675525949.953398) vcan0 350#A200000000000080
(1675525949.954487) vcan0 008#E9834891C2800080
(1675525949.955863) vcan0 010#008800002FB031F8
(1675525949.956087) vcan0 210#2EE08020A869C545
(1675525949.956235) vcan0 3D0#880F6100661780C3
(1675525949.956964) vcan0 055#EBF71D28B2059D80
(1675525949.957113) vcan0 065#9FE71DF8F3BD3B02
(1675525949.959785) vcan0 070#000017F836E22000
(1675525949.960017) vcan0 075#0000000000005458
(1675525949.960166) vcan0 080#A7508000C2002C00
(1675525949.960388) vcan0 0B0#398311A3DBC139A3
(1675525949.960611) vcan0 145#F9F2D080FC4810A1
(1675525949.960762) vcan0 28C#000020000016FEAB
(1675525949.960911) vcan0 0E0#627375E80080C600
(1675525949.961136) vcan0 2B5#4B252A6293A6C75B
(1675525949.961213) vcan0 1B0#00C0000002B000FC
(1675525949.961433) vcan0 1B5#FFE92D589EE0FFEF
(1675525949.961583) vcan0 1D8#363339343234DB43
(1675525949.961807) vcan0 1E0#0020730300B917E0
(1675525949.961884) vcan0 430#4A084A00000017A6
(1675525949.962106) vcan0 260#D0FF0055497487B0
(1675525949.963267) vcan0 125#E54584E5C1D0D735
(1675525949.964352) vcan0 008#E4835871D7800080
(1675525949.965877) vcan0 010#008800002FB031F8
(1675525949.966037) vcan0 072#F000FF3F0078A038
(1675525949.966982) vcan0 1D0#0000000000000061
(1675525949.969442) vcan0 0F5#D6935B937F5B9207
(1675525949.969665) vcan0 120#0D946A937F515689
(1675525949.970537) vcan0 130#B7FF1DEE1392FF11
(1675525949.970686) vcan0 150#98136D6966F9E8C0
(1675525949.971773) vcan0 288#53E410EF00000080
(1675525949.974378) vcan0 008#E0836848F4800080
(1675525949.975571) vcan0 055#EBF72128B2059D80
(1675525949.978386) vcan0 065#AAE728F8FEBD5102
(1675525949.978608) vcan0 010#008800002FB031F8
(1675525949.978830) vcan0 070#000018F83CE22000
(1675525949.979054) vcan0 075#0000000000005458
(1675525949.979204) vcan0 080#A7508000C2002C00
(1675525949.979427) vcan0 0B0#398311A3DBC139A3
(1675525949.979648) vcan0 145#F9E2D180FC4810A1
(1675525949.979735) vcan0 290#0000000000000000
(1675525949.980028) vcan0 0E0#627369F00080B200
(1675525949.980179) vcan0 291#0000000000000000
(1675525949.980400) vcan0 2A9#8C260082C0000084
(1675525949.980479) vcan0 2C0#468700FF0000A0F1
(1675525949.980700) vcan0 2C5#2AD7A3AC9EE70070
(1675525949.982507) vcan0 370#071FC0005C1BC71F
(1675525949.982659) vcan0 1B0#00C0000001B000FC
(1675525949.982880) vcan0 1B5#FFF63A5FA4E0FFEF
(1675525949.982958) vcan0 1D8#363339343234DB43
(1675525949.983180) vcan0 1E0#0024634300B917E0
(1675525949.983259) vcan0 072#F000FF3F00788038
(1675525949.983556) vcan0 210#2EE080A0A869C545
(1675525949.983634) vcan0 2C3#468700FFFF885450
(1675525949.983855) vcan0 3E0#000000D92E808090
(1675525949.983934) vcan0 125#E53D84E5C1D0D735
(1675525949.984743) vcan0 008#DB83782D03810080
(1675525949.986069) vcan0 010#008800002FB031F8
(1675525949.986147) vcan0 1D0#0000000000000861
(1675525949.988680) vcan0 0F5#D7936A937F5F8208
(1675525949.989769) vcan0 120#09946A937F4B5689
(1675525949.989845) vcan0 130#BFFF1DEE1382FF11
(1675525949.990139) vcan0 150#A013707964F9D0C0
(1675525949.992162) vcan0 260#D0FF0055497487B0
(1675525949.994547) vcan0 008#D483880027810080
(1675525949.997367) vcan0 010#008800002FB031F8
(1675525949.997518) vcan0 072#F000FF3F0078A038
(1675525949.997740) vcan0 055#EAF72528B2099D80
(1675525949.997962) vcan0 065#BCE72DF80ABE5502
(1675525949.998185) vcan0 070#000019F844E22000
(1675525949.998263) vcan0 075#0000000000005458
(1675525949.998557) vcan0 080#A8508000C2002C00
(1675525949.998718) vcan0 0B0#398311A3DBC139A3
(1675525949.998939) vcan0 145#F9D2D280FC4810A1
(1675525949.999162) vcan0 288#5BE410EF00000080
(1675525949.999238) vcan0 28C#000020000016FEAB
(1675525949.999462) vcan0 0E0#62736DF800808E00
(1675525949.999540) vcan0 2B5#4B252A6293A6C776
(1675525949.999761) vcan0 330#7900000000000000
(1675525949.999839) vcan0 340#9700000000000000
(1675525950.000854) vcan0 1B0#00C0000002B000FC
(1675525950.000932) vcan0 1B5#FF034665AAE0FFEF
(1675525950.001155) vcan0 1D8#363339343234DB43
(1675525950.001232) vcan0 1E0#0028534300B917E0
(1675525950.003400) vcan0 125#E52F84E5C1D0D735
(1675525950.004559) vcan0 008#CD8398E23C810080
(1675525950.005866) vcan0 010#008800002FB031F8
(1675525950.006088) vcan0 1D0#0000000000000061
(1675525950.006249) vcan0 210#2EE080A0A869C54D
(1675525950.006979) vcan0 290#0000000000000000
(1675525950.007128) vcan0 291#0000000000000000
(1675525950.009450) vcan0 0F5#E49372937F63720A
(1675525950.009674) vcan0 120#049474937F5F5689
(1675525950.010547) vcan0 130#C7FF1DEE1372FF11
(1675525950.010770) vcan0 150#AB136E8962F9B5C0
(1675525950.012000) vcan0 072#F000FF3F00788038
(1675525950.014531) vcan0 008#C783A8BB59810080
(1675525950.015698) vcan0 010#008800002FB031F9
(1675525950.015849) vcan0 2A9#8C26009BC0000084
(1675525950.016779) vcan0 055#EAF72A28B20D9D80
(1675525950.016942) vcan0 065#C7E72EF80CBE5302
(1675525950.018101) vcan0 070#000019F84BE22000
(1675525950.018323) vcan0 075#0000000000005458
(1675525950.018473) vcan0 080#AA508000C2002C00
(1675525950.018705) vcan0 0B0#398311A3DBC139A3
(1675525950.018926) vcan0 145#F9C2D380FC4810A1
(1675525950.019653) vcan0 0E0#627370C000806B00
(1675525950.019875) vcan0 1B0#00C0000004B000FC
(1675525950.019953) vcan0 1B5#FF10536CB0E0FFEF
(1675525950.020175) vcan0 1D8#363339343234DB43
(1675525950.020759) vcan0 1E0#0028530300B917E0
(1675525950.020908) vcan0 2C3#468700FFFF895450
(1675525950.021058) vcan0 288#60E410EF00000080
(1675525950.023585) vcan0 260#D0FF00AA497487B0
(1675525950.023808) vcan0 125#E51E84E5C1D0D735
(1675525950.024680) vcan0 008#BD83B8917D810080
(1675525950.025772) vcan0 010#008800002FB031F8
(1675525950.025921) vcan0 072#F000FF3F0078A038
(1675525950.026792) vcan0 1D0#0000000000000261
(1675525950.029250) vcan0 0F5#EC9374937F67620C
(1675525950.030633) vcan0 120#0D9486937F4F5689
(1675525950.030784) vcan0 130#CF011EEE1362FF11
(1675525950.031007) vcan0 150#B013709960F9A0C0
(1675525950.031227) vcan0 210#2EE080A0A869C545
(1675525950.033110) vcan0 008#B483C85FA8810080
(1675525950.035642) vcan0 010#008800002FB031F8
(1675525950.035865) vcan0 291#0000000000000000
(1675525950.036735) vcan0 055#EAF72E28B2129D81
(1675525950.036957) vcan0 065#C4E72CF809BE4E02
(1675525950.037179) vcan0 070#000019F854E22000
(1675525950.039565) vcan0 075#0000000000005458
(1675525950.039788) vcan0 080#AF508000C2002C00
(1675525950.039938) vcan0 0B0#398311A3DBC139A3
(1675525950.040161) vcan0 145#F9B2D480FC4810A1
(1675525950.040381) vcan0 28C#000020000016FEAB
(1675525950.040605) vcan0 290#0000000000000000
(1675525950.040712) vcan0 0E0#62736EC800804D00
(1675525950.040934) vcan0 2B5#4B262A6293A6C771
(1675525950.041083) vcan0 2C0#468700F10000A0F1
(1675525950.041306) vcan0 2C5#32D7A3ABC6E70070
(1675525950.041384) vcan0 3AF#0000000000000020
(1675525950.041607) vcan0 1B0#00C0000003B000FC
(1675525950.041731) vcan0 1B5#FF1D6072B7E0FFEF
(1675525950.041907) vcan0 1D8#363339343234DB43
(1675525950.042058) vcan0 1E0#002C434300B917E0
(1675525950.042279) vcan0 072#F000FF3F00788038
(1675525950.042358) vcan0 360#488700A6BD64A041
(1675525950.043228) vcan0 125#E50B84E5C1D0D735
(1675525950.043306) vcan0 350#A200000000000080
(1675525950.044611) vcan0 008#AB83D825DB810080
(1675525950.045635) vcan0 010#008800002FB031F8
(1675525950.045713) vcan0 1D0#0000000000000061
(1675525950.046742) vcan0 288#3BE420DF00000080
(1675525950.046820) vcan0 390#80FF0500022E544F
(1675525950.049204) vcan0 0F5#E3937C937F6B520D
(1675525950.050579) vcan0 120#02948B937F585689
(1675525950.050801) vcan0 130#D7011EEE1352FF11
(1675525950.050951) vcan0 150#AF136AA95EF991C0
(1675525950.051173) vcan0 3CA#00000000D30000C8
(1675525950.051612) vcan0 3C8#4687008E882C008E
(1675525950.053062) vcan0 260#D0FF00AA497487B0
(1675525950.054147) vcan0 008#A283E8EB0D820080
(1675525950.057108) vcan0 010#008800002FB031F8
(1675525950.057258) vcan0 072#F000FF3F0078A038
(1675525950.057480) vcan0 055#EAF73328B2169D80
(1675525950.057702) vcan0 065#BDE72CF8FFBD5102
(1675525950.057851) vcan0 070#000019F85CE22000
(1675525950.058074) vcan0 075#0000000000005458
(1675525950.058234) vcan0 080#B2508000C2002C00
(1675525950.058385) vcan0 0B0#398311A3DBC139A3
(1675525950.058606) vcan0 145#F9A2D580FC4810A1
(1675525950.058685) vcan0 210#2EE080A0A869C54D
(1675525950.058906) vcan0 2A9#8C260082C0000084
(1675525950.058984) vcan0 0E0#62736CD000802F00
(1675525950.059205) vcan0 1B0#00C0000002B000FC
(1675525950.060292) vcan0 1B5#FF2A6C78BDE0FFEF
(1675525950.060368) vcan0 1D8#363339343234DB43
(1675525950.061744) vcan0 1E0#0030334300B917E0
(1675525950.061749) vcan0 2C3#468700FFFF895450
(1675525950.063193) vcan0 125#E5F783E5C1D0D735
(1675525950.064352) vcan0 008#9783F8C92A820080
(1675525950.065445) vcan0 010#008800002FB031F8
(1675525950.066533) vcan0 1D0#0000000000000861
(1675525950.067838) vcan0 290#0000000000000000
(1675525950.068072) vcan0 291#0000000000000000
(1675525950.069449) vcan0 0F5#F19372937F6F420F
(1675525950.069599) vcan0 120#0D9489937F4F5689
(1675525950.070614) vcan0 130#DF071EEE1342FF11
(1675525950.070763) vcan0 150#B11367B95CF97FC0
(1675525950.071634) vcan0 288#47E420DF00000080
(1675525950.071856) vcan0 072#F000FF3F00788038
(1675525950.072079) vcan0 3B0#00D84B3841BCC400
(1675525950.074318) vcan0 008#8B83088C63820080
(1675525950.075409) vcan0 055#EAF73828B2169D80
(1675525950.076575) vcan0 065#B5E72FF8F9BD5502
(1675525950.076797) vcan0 010#008800002FB031F8
(1675525950.077019) vcan0 070#000019F865E22000
(1675525950.077676) vcan0 075#0000000000005458
(1675525950.080564) vcan0 080#B4508000C2002C00
(1675525950.080784) vcan0 0B0#398312A3DBC139A3
(1675525950.080954) vcan0 145#F992D680FC4810A1
(1675525950.081177) vcan0 28C#000020000016FEAB
(1675525950.081398) vcan0 0E0#62736FD800800C00
(1675525950.081549) vcan0 2B5#4B262A6293A6C676
(1675525950.081771) vcan0 330#7900000000000000
(1675525950.081848) vcan0 340#9800000000000000
(1675525950.082070) vcan0 370#071FC0005C1BC71F
(1675525950.082220) vcan0 1B0#00C0000002B000FC
(1675525950.082444) vcan0 1B5#FF37797FC3E0FFEF
(1675525950.082521) vcan0 1D8#363339343234DB43
(1675525950.082744) vcan0 1E0#0030330300B917E0
(1675525950.082821) vcan0 210#2EE080A0A869C545
(1675525950.083328) vcan0 260#D0FF00AA497487B0
(1675525950.083342) vcan0 125#E5DE83E5C1D0D735
(1675525950.084359) vcan0 008#8283187672820080
(1675525950.085666) vcan0 010#008800002FB031F8
(1675525950.085751) vcan0 072#F000FF3F0078A038
(1675525950.086769) vcan0 1D0#0000000000000061
(1675525950.089300) vcan0 0F5#EF9372937F733210
(1675525950.089378) vcan0 120#2A948B937F5F5689
(1675525950.090466) vcan0 130#E70A1EEE1332FF11
(1675525950.090616) vcan0 150#B01366C959F970C0
(1675525950.092786) vcan0 008#778328548F820080
(1675525950.095286) vcan0 010#008800002FB031F9
(1675525950.096375) vcan0 291#0000000000000000
(1675525950.096598) vcan0 2A9#8C26008AC0000084
(1675525950.099198) vcan0 055#EAF73D28B2189D80
(1675525950.099418) vcan0 065#BBE736F8FEBD6702
(1675525950.099570) vcan0 070#000019F86EE22000
(1675525950.099793) vcan0 075#0000000000005458
(1675525950.100015) vcan0 080#B5508000C2002C00
(1675525950.100166) vcan0 0B0#398312A3DBC139A3
(1675525950.100404) vcan0 145#F982D780FC4810A1
(1675525950.100555) vcan0 288#47E420DF00000080
(1675525950.100778) vcan0 0E0#627374E00080E700
(1675525950.100999) vcan0 290#0000000000000000
(1675525950.101077) vcan0 2C0#468700E50000A0F1
(1675525950.101298) vcan0 2C5#35D7A3AAB5E70070
(1675525950.101376) vcan0 1B0#00C0000000B000FC
(1675525950.101599) vcan0 1B5#FF448585CAE0FFEF
(1675525950.101749) vcan0 1D8#363339343234DB43
(1675525950.101971) vcan0 1E0#0034234300B917E0
(1675525950.102050) vcan0 072#F000FF3F00788038
(1675525950.102270) vcan0 2C3#468700FFFF895450
(1675525950.102781) vcan0 125#E5C883E5C1D0D735
(1675525950.104231) vcan0 008#6C833824BA820080
(1675525950.105271) vcan0 010#008800002FB031F8
(1675525950.106360) vcan0 1D0#0000000000000261
(1675525950.107743) vcan0 210#2EE08020A869C54D
(1675525950.109192) vcan0 0F5#E39385937F772212
(1675525950.110359) vcan0 120#379474937F575689
(1675525950.110581) vcan0 130#EF0A1EEE1322FF11
(1675525950.110730) vcan0 150#B41367D955F95CC0
(1675525950.112757) vcan0 260#D0FF0055497487B0
(1675525950.114131) vcan0 008#6083480BCF820080
(1675525950.115292) vcan0 010#008800002FB031F8
(1675525950.116382) vcan0 072#F000FF3F0078A038
(1675525950.116602) vcan0 055#EAF74328B2199D80
(1675525950.119203) vcan0 065#C9E73CF806BE7202
(1675525950.119354) vcan0 070#000019F877E22000
(1675525950.119576) vcan0 075#0000000000005458
(1675525950.119799) vcan0 080#B6508000C2002C00
(1675525950.119950) vcan0 0B0#398312A3DBC139A3
(1675525950.120172) vcan0 145#F972D880FC4810A1
(1675525950.120407) vcan0 28C#000020000016FEAB
(1675525950.120556) vcan0 2B5#4B262A6293A6C690
(1675525950.120635) vcan0 0E0#627372E80080C900
(1675525950.120930) vcan0 400#0102A20101026101
(1675525950.121007) vcan0 405#D507DA9645186701
(1675525950.121229) vcan0 1B0#00C0000003B000FC
(1675525950.121306) vcan0 1B5#FF51928CD0E0FFEF
(1675525950.121528) vcan0 1D8#363339343234DB43
(1675525950.121605) vcan0 1E0#0038134300B917E0
(1675525950.121900) vcan0 288#2AE420DF00000080
(1675525950.122769) vcan0 125#E5AF83E5C1D0D735
(1675525950.124217) vcan0 008#578358E7EC820080
(1675525950.125380) vcan0 010#008800002FB031F8
(1675525950.126394) vcan0 1D0#0000000000000061
(1675525950.127698) vcan0 290#0000000000000000
(1675525950.127848) vcan0 291#0000000000000000
(1675525950.129378) vcan0 0F5#F9939E937F7B1213
(1675525950.129529) vcan0 120#229484937F555689
(1675525950.130472) vcan0 130#F70C1EEE1312FF11
(1675525950.130550) vcan0 150#CB135EE952F935C0
(1675525950.130843) vcan0 072#F000FF3F00788038
(1675525950.130922) vcan0 210#2EE080A0A869C54D
(1675525950.132947) vcan0 350#A200000000000080
(1675525950.135699) vcan0 008#498368CE02830080
(1675525950.135856) vcan0 010#008800002FB031F8
(1675525950.136006) vcan0 2A9#8C260093C0000084
(1675525950.136083) vcan0 055#EAF74628B21B9D80
(1675525950.136811) vcan0 065#D6E740F80BBE7402
(1675525950.136890) vcan0 070#00001AF87CE22000
(1675525950.136968) vcan0 075#0000000000005458
(1675525950.137118) vcan0 080#B7508000C2002C00
(1675525950.137918) vcan0 0B0#398312A3DBC139A3
(1675525950.139306) vcan0 145#F962D980FC4810A1
(1675525950.139529) vcan0 0E0#62736AF00080B100
(1675525950.139680) vcan0 1B0#00C0000004B000FC
(1675525950.140481) vcan0 1B5#FF5E9F92D6E0FFEF
(1675525950.140703) vcan0 1D8#363339343234DB43
(1675525950.141861) vcan0 1E0#0038130300B917E0
(1675525950.142082) vcan0 2C3#468700FFFF895450
(1675525950.142233) vcan0 360#488700A6BD64A041
(1675525950.142959) vcan0 260#D0FF0055497487B0
(1675525950.143110) vcan0 125#E59C83E5C1D0D735
(1675525950.144339) vcan0 008#408378C702830080
(1675525950.145435) vcan0 010#008800002FB031F8
(1675525950.145656) vcan0 072#F000FF3F0078A038
(1675525950.146528) vcan0 1D0#0000000000000861
(1675525950.146750) vcan0 288#16E430CF00000080
(1675525950.147980) vcan0 390#80FF05000226564F
(1675525950.149446) vcan0 0F5#0B94AB937F7F0215
(1675525950.149669) vcan0 120#24948B937F4F5689
(1675525950.150616) vcan0 130#FF0C1EEE1302FF11
(1675525950.150838) vcan0 150#DB1359F94DF915C0
(1675525950.153080) vcan0 008#358388C202830080
(1675525950.155538) vcan0 010#008800002FB031F8
(1675525950.155762) vcan0 210#2EE080A0A869C545
(1675525950.156634) vcan0 055#EAF74628B21D9D80
(1675525950.156855) vcan0 065#DDE743F80ABE7802
(1675525950.159529) vcan0 070#00001BF87DE22000
(1675525950.159752) vcan0 075#0000000000005458
(1675525950.159975) vcan0 080#B9508000C2002C00
(1675525950.160125) vcan0 0B0#398311A3DBC139A3
(1675525950.160346) vcan0 145#F952DA80FC4810A1
(1675525950.160569) vcan0 28C#000020000016FEAB
(1675525950.160719) vcan0 290#0000000000000000
(1675525950.160954) vcan0 0E0#62736CF800808F00
(1675525950.161177) vcan0 291#0000000000000000
(1675525950.161254) vcan0 2B5#4B262A6293A6C698
(1675525950.161477) vcan0 2C0#468700DA0000A0F1
(1675525950.161556) vcan0 2C5#3CD7A4A9DCE70070
(1675525950.161778) vcan0 330#7900000000000000
(1675525950.161855) vcan0 1B0#00C0000003B000FC
(1675525950.162078) vcan0 1B5#FF6BAB99DDE0FFEF
(1675525950.162227) vcan0 1D8#363339343234DB43
(1675525950.162449) vcan0 072#F000FF3F00788038
(1675525950.162599) vcan0 1E0#003C034300B917E0
(1675525950.162822) vcan0 340#9800000000000000
(1675525950.162899) vcan0 3AF#0000000000000020
(1675525950.163120) vcan0 3D0#880F6100661780C3
(1675525950.163197) vcan0 125#E58683E5C1D0D735
(1675525950.163422) vcan0 008#2C8398BB02830080
(1675525950.166181) vcan0 010#008800002FB031F8
(1675525950.166258) vcan0 1D0#0000000000000061
(1675525950.168790) vcan0 0F5#0F94A5937F43F217
(1675525950.169951) vcan0 120#26949A937F515689
(1675525950.170101) vcan0 130#870C1EEE13F2FF11
(1675525950.170323) vcan0 150#DA13510949F906C0
(1675525950.171053) vcan0 3CA#00000000D40000C8
(1675525950.172357) vcan0 288#F9E330CF00000080
(1675525950.172507) vcan0 3C8#4687008E882C008E
(1675525950.175286) vcan0 260#D0FF0055497487B0
(1675525950.175508) vcan0 008#2383A8B402830080
(1675525950.176534) vcan0 055#EAF74828B2219D80
(1675525950.176612) vcan0 065#DAE743F806BE7602
(1675525950.176905) vcan0 070#00001BF880E22000
(1675525950.177055) vcan0 010#008800002FB031F9
(1675525950.177637) vcan0 072#F000FF3F0078A038
(1675525950.177745) vcan0 075#0000000000005458
(1675525950.178042) vcan0 080#BD508000C2002C00
(1675525950.178119) vcan0 0B0#398311A3DAC139A3
(1675525950.178342) vcan0 145#F942DB80FC4810A1
(1675525950.178708) vcan0 0E0#62736AC000807100
(1675525950.180013) vcan0 2A9#8C26008AC0000084
(1675525950.180237) vcan0 370#071FC0005C1BC71F
(1675525950.180313) vcan0 1B0#00C0000002B000FC
(1675525950.183152) vcan0 1B5#FF78B89FE3E0FFEF
(1675525950.183282) vcan0 1D8#363339343234DB43
(1675525950.183503) vcan0 1E0#0000F34300B917E0
(1675525950.183726) vcan0 2C3#468700FFFF8A5450
(1675525950.183877) vcan0 210#2EE080A0A869C545
(1675525950.184027) vcan0 125#E57383E5C1D0D735
(1675525950.184251) vcan0 008#1783B8B002830080
(1675525950.185342) vcan0 010#008800002FB031F8
(1675525950.186439) vcan0 1D0#0000000000000261
(1675525950.187814) vcan0 290#0000000000000000
(1675525950.188037) vcan0 291#0000000000000000
(1675525950.189484) vcan0 0F5#1994B6937F47E218
(1675525950.189635) vcan0 120#16948E937F505689
(1675525950.190506) vcan0 130#8F0F1EEE13E2FF11
(1675525950.190729) vcan0 150#E7134A1943F9E9C0
(1675525950.190951) vcan0 072#F000FF3F00788038
(1675525950.191029) vcan0 3B0#00FC4B3C41BCC600
(1675525950.194422) vcan0 008#1183C8CBDE820080
(1675525950.195511) vcan0 010#008800002FB031F8
(1675525950.196601) vcan0 055#EAF74828B2229D80
(1675525950.199419) vcan0 065#CDE743F8FBBD7702
(1675525950.199570) vcan0 070#00001BF881E22000
(1675525950.199793) vcan0 075#0000000000005458
(1675525950.200014) vcan0 080#BF508000C2002C00
(1675525950.200178) vcan0 0B0#398311A3DBC139A3
(1675525950.200399) vcan0 145#F932DC80FC4810A1
(1675525950.200622) vcan0 288#D4E330CF00000080
(1675525950.200772) vcan0 28C#000020000016FEAB
(1675525950.200993) vcan0 0E0#627375C800804600
(1675525950.201217) vcan0 2B5#4B272A6293A6C697
(1675525950.201294) vcan0 1B0#00C0000003B000FC
(1675525950.201517) vcan0 1B5#FF85C5A6E9E0FFEF
(1675525950.201594) vcan0 1D8#363339343234DB43
(1675525950.201961) vcan0 1E0#0000F30300B917E0
(1675525950.203048) vcan0 260#D0FF0055497487B0
(1675525950.203124) vcan0 125#E55F83E5C1D0D735
(1675525950.204501) vcan0 008#0783D8E2C1820080
(1675525950.205522) vcan0 010#008800002FB031F8
(1675525950.205672) vcan0 072#F000FF3F0078A038
(1675525950.206687) vcan0 1D0#0000000000000061
(1675525950.206849) vcan0 210#2EE080A0A869C54D
(1675525950.209164) vcan0 0F5#1C94B4937F4BD21A
(1675525950.210613) vcan0 120#1694BE937F575689
(1675525950.210836) vcan0 130#97121EEE13D2FF11
(1675525950.210986) vcan0 150#E81341293DF9D8C0
(1675525950.213156) vcan0 008#0183E8EEAB820080
(1675525950.215642) vcan0 010#008800002FB031F8
(1675525950.215865) vcan0 291#0000000000000000
(1675525950.216810) vcan0 055#EAF74928B2229D80
(1675525950.217102) vcan0 065#C4E745F8F8BD7E02
(1675525950.219704) vcan0 070#00001BF882E22000
(1675525950.219853) vcan0 075#0000000000005458
(1675525950.220075) vcan0 080#C0508000C2002C00
(1675525950.220297) vcan0 0B0#398311A3DBC139A3
(1675525950.220447) vcan0 145#F922DD80FC4810A1
(1675525950.220671) vcan0 290#0000000000000000
(1675525950.220906) vcan0 0E0#627373D000802800
(1675525950.221054) vcan0 2A9#8C260093C0000084
(1675525950.221278) vcan0 2C0#468700CE0000A0F1
(1675525950.221354) vcan0 2C5#40D7A4A9D0E70070
(1675525950.221577) vcan0 1B0#00C0000000B000FC
(1675525950.221655) vcan0 1B5#FF92D1ACF0E0FFEF
(1675525950.221877) vcan0 1D8#363339343234DB43
(1675525950.222027) vcan0 1E0#0004E34300B917E0
(1675525950.222250) vcan0 072#F000FF3F00788038
(1675525950.222328) vcan0 2C3#468700FFFF8A5450
(1675525950.222549) vcan0 288#C4E330CF00000080
(1675525950.223275) vcan0 125#E55283E5C1D0D735
(1675525950.223280) vcan0 350#A200000000000080
(1675525950.224367) vcan0 008#FA82F81180820080
(1675525950.225673) vcan0 010#008800002FB031F8
(1675525950.225751) vcan0 1D0#0000000000000861
(1675525950.228289) vcan0 0F5#1994B3937F4FC21B
(1675525950.229377) vcan0 120#2694B8937F4F5689
(1675525950.230466) vcan0 130#9F121EEE13C2FF11
(1675525950.230689) vcan0 150#E6133C3937F9CAC0
(1675525950.231847) vcan0 210#2EE080A0A869C545
(1675525950.234811) vcan0 260#D0FF00AA497487B0
(1675525950.235057) vcan0 008#F582082A5C820080
(1675525950.235929) vcan0 010#008800002FB031F8
(1675525950.236151) vcan0 072#F000FF3F0078A038
(1675525950.236300) vcan0 330#7900000000000000
(1675525950.237028) vcan0 055#EAF74928B2249D80
(1675525950.237179) vcan0 065#BCE748F8F9BD8402
(1675525950.237400) vcan0 070#00001AF883E22000
(1675525950.237622) vcan0 075#0000000000005458
(1675525950.237701) vcan0 080#C1508000C2002C00
(1675525950.238068) vcan0 0B0#398312A3DBC139A3
(1675525950.239454) vcan0 145#F912DE80FC4810A1
(1675525950.239677) vcan0 28C#000020000016FEAB
(1675525950.239755) vcan0 0E0#62736CD800800F00
(1675525950.239977) vcan0 2B5#4B272A6293A6C7A2
(1675525950.240055) vcan0 340#9900000000000000
(1675525950.241070) vcan0 1B0#00C0000000B000FC
(1675525950.241075) vcan0 1B5#FF9FDEB3F6E0FFEF
(1675525950.241224) vcan0 1D8#363339343234DB43
(1675525950.241228) vcan0 1E0#0008D34300B917E0
(1675525950.241665) vcan0 360#488700A6BD64A041
(1675525950.242177) vcan0 125#E54683E5C1D0D735
(1675525950.243267) vcan0 008#EE82182F4E820080
(1675525950.246085) vcan0 010#008800002FB031F8
(1675525950.246308) vcan0 1D0#0000000000000061
(1675525950.246458) vcan0 288#8BE340BF00000080
(1675525950.246681) vcan0 290#0000000000000000
(1675525950.247135) vcan0 291#0000000000000000
(1675525950.247213) vcan0 390#80FF05000222576F
(1675525950.249696) vcan0 0F5#0D94C7937F53B21D
(1675525950.249822) vcan0 120#3394A0937F495689
(1675525950.250045) vcan0 130#A7151EEE13B2FF11
(1675525950.250775) vcan0 072#F000FF3F00788038
(1675525950.250997) vcan0 150#EA132D4932F9B6C0
(1675525950.253312) vcan0 008#EA8228561B820080
(1675525950.255773) vcan0 010#008800002FB031F9
(1675525950.255997) vcan0 210#2EE08020A869C54D
(1675525950.256219) vcan0 055#EAF74A28B2249D80
(1675525950.256874) vcan0 065#BEE74AF8FBBD8602
(1675525950.257097) vcan0 070#00001AF883E22000
(1675525950.258329) vcan0 075#0000000000005458
(1675525950.258551) vcan0 080#C2508000C2002C00
(1675525950.258772) vcan0 0B0#398311A3DBC139A3
(1675525950.258859) vcan0 145#F902DF80FC4810A1
(1675525950.259153) vcan0 2A9#8C26008AC0000084
(1675525950.259301) vcan0 0E0#62736CE00080EF00
(1675525950.261183) vcan0 1B0#00C0000003B000FC
(1675525950.261332) vcan0 1B5#FFACEBB9FCE0FFEF
(1675525950.261554) vcan0 1D8#363339343234DB43
(1675525950.261631) vcan0 1E0#0008D30300B917E0
(1675525950.261854) vcan0 2C3#468700FFFF8A5450
(1675525950.262293) vcan0 260#D0FF00AA497487B0
(1675525950.263380) vcan0 125#E53E83E5C1D0D735
(1675525950.264397) vcan0 008#E582387EE9810080
(1675525950.265780) vcan0 010#008800002FB031F8
(1675525950.267445) vcan0 072#F000FF3F0078A038
(1675525950.267668) vcan0 1D0#0000000000000261
(1675525950.268539) vcan0 0F5#1B94C7937F57A21F
(1675525950.269628) vcan0 120#5394B3937F495689
(1675525950.269790) vcan0 130#AF151EEE13A2FF11
(1675525950.270663) vcan0 150#F11325592CF99FC0
(1675525950.273410) vcan0 288#7EE340BF00000080
(1675525950.274571) vcan0 008#E38248A2B7810080
(1675525950.275660) vcan0 055#EAF74A28B2249D80
(1675525950.276753) vcan0 065#C7E74DF801BE8B02
(1675525950.278272) vcan0 010#008800002FB031F8
(1675525950.278494) vcan0 070#00001BF884E22000
(1675525950.278717) vcan0 075#0000000000005458
(1675525950.278867) vcan0 080#C2508000C2002C00
(1675525950.279088) vcan0 0B0#398311A3DBC139A3
(1675525950.279311) vcan0 145#F9F2D080FC4810A1
(1675525950.279460) vcan0 0E0#62736BE80080D000
(1675525950.282712) vcan0 28C#000020000016FEAB
(1675525950.282861) vcan0 290#0000000000000000
(1675525950.283083) vcan0 291#0000000000000000
(1675525950.283315) vcan0 2B5#4B282A6293A6BCA9
(1675525950.283466) vcan0 2C0#468700C30000A0F1
(1675525950.283689) vcan0 1B0#00C0000004B000FC
(1675525950.283912) vcan0 1B5#FFB9F8C003E0FFEF
(1675525950.283990) vcan0 1D8#363339343234DB43
(1675525950.284211) vcan0 1E0#000CC34300B917E0
(1675525950.284290) vcan0 072#F000FF3F00788038
(1675525950.284509) vcan0 210#2EE080A0A869C545
(1675525950.284660) vcan0 2C5#45D7A4A9C4E70070
(1675525950.284883) vcan0 370#071FC0005C1BC71F
(1675525950.285278) vcan0 3AF#0000000000000020
(1675525950.285501) vcan0 3E0#000000D92E808090
(1675525950.285652) vcan0 125#E53383E5C1D0D735
(1675525950.285872) vcan0 008#DE8258B49A810080
(1675525950.286240) vcan0 010#008800002FB031F8
(1675525950.286318) vcan0 1D0#0000000000000061
(1675525950.288786) vcan0 0F5#2B94CD937F5B9220
(1675525950.290163) vcan0 120#4694CB937F4C5689
(1675525950.290387) vcan0 130#B7151EEE1392FF11
(1675525950.290537) vcan0 150#FC13286925F984C0
(1675525950.290759) vcan0 3CA#00000000D50000C8
(1675525950.291286) vcan0 3C8#4687008E882C008E
(1675525950.292715) vcan0 260#D0FF00AA497487B0
(1675525950.293804) vcan0 008#DA8268C57D810080
(1675525950.296574) vcan0 010#008800002FB031F8
(1675525950.296654) vcan0 072#F000FF3F0078A038
(1675525950.296949) vcan0 2A9#8C260082C0000084
(1675525950.297099) vcan0 055#EAF74A28B2249D80
(1675525950.297321) vcan0 065#CFE74DF807BE8A02
(1675525950.297544) vcan0 070#00001BF884E22000
(1675525950.297766) vcan0 075#0000000000005458
(1675525950.297844) vcan0 080#C2508000C2002C00
(1675525950.298078) vcan0 0B0#398311A3DBC139A3
(1675525950.298156) vcan0 145#F9E2D180FC4810A1
(1675525950.298379) vcan0 0E0#627368F00080B300
(1675525950.298820) vcan0 288#76E340BF00000080
(1675525950.299910) vcan0 1B0#00C0000002B000FC
(1675525950.301284) vcan0 1B5#FFC704C609E0FFEF
(1675525950.301505) vcan0 1D8#363339343234DB43
(1675525950.301584) vcan0 1E0#0010B34300B917E0
(1675525950.301807) vcan0 2C3#468700FFFF8B5450
(1675525950.302823) vcan0 125#E52D83E5C1D0D735
(1675525950.303910) vcan0 008#D88278CD67810080
(1675525950.305291) vcan0 010#008800002FB031F8
(1675525950.306307) vcan0 1D0#0000000000000061
(1675525950.306531) vcan0 210#2EE080A0A869C54D
(1675525950.306608) vcan0 290#0000000000000000
(1675525950.306901) vcan0 291#0000000000000000
(1675525950.309087) vcan0 0F5#1D94D8937F5F8222
(1675525950.310177) vcan0 120#3794D4937F455689
(1675525950.310327) vcan0 130#BF151EEE1382FF11
(1675525950.310550) vcan0 150#FA13227920F976C0
(1675525950.310772) vcan0 072#F000FF3F00788038
(1675525950.311282) vcan0 3B0#00D84B3841BCC400
(1675525950.313957) vcan0 350#A200000000000080
(1675525950.314180) vcan0 008#D58288EB3C810080
(1675525950.315132) vcan0 010#008800002FB031F8
(1675525950.316152) vcan0 330#7B00000000000000
(1675525950.316445) vcan0 055#EAF74A28B2249D80
(1675525950.316596) vcan0 065#D3E74DF805BE8806
(1675525950.318982) vcan0 070#00001BF884E22000
(1675525950.319203) vcan0 075#0000000000005458
(1675525950.319353) vcan0 080#C2508000C2002C00
(1675525950.319574) vcan0 0B0#398311A3DBC139A3
(1675525950.319755) vcan0 145#F9D2D280FC4810A1
(1675525950.319904) vcan0 28C#000020000016FEAB
(1675525950.320129) vcan0 0E0#627361F800809A00
(1675525950.320207) vcan0 2B5#4B282B6293A6B2A7
(1675525950.320430) vcan0 340#9900000000000000
(1675525950.320507) vcan0 1B0#00C0000002B000FC
(1675525950.320730) vcan0 1B5#FFD411CD10E0FFEF
(1675525950.320880) vcan0 1D8#363339343234DB43
(1675525950.321103) vcan0 1E0#0010B30300B917E0
(1675525950.321182) vcan0 288#49E340BF00000080
(1675525950.323638) vcan0 260#D0FF0055497487B0
(1675525950.323716) vcan0 125#E52883E5C1D0D735
(1675525950.325095) vcan0 008#D18298E635810080
(1675525950.326182) vcan0 010#008800002FB031F8
(1675525950.326332) vcan0 072#F000FF3F0078A038
(1675525950.326554) vcan0 1D0#0000000000000861
(1675525950.328659) vcan0 0F5#3794DD937F637223
(1675525950.330109) vcan0 120#3394DF937F415689
(1675525950.330332) vcan0 130#C7151EEF1371FF11
(1675525950.330555) vcan0 150#0A1413891AF955C0
(1675525950.330705) vcan0 210#2EE080A0A869C54D
(1675525950.332734) vcan0 008#CF82A8FC11810080
(1675525950.335194) vcan0 010#008800002FB031F9
(1675525950.336283) vcan0 291#0000000000000000
(1675525950.339100) vcan0 055#EAF74A28B2249D80
(1675525950.339322) vcan0 065#D3E74BF803BE8506
(1675525950.339473) vcan0 070#00001BF884E22000
(1675525950.339694) vcan0 075#0000000000005458
(1675525950.339915) vcan0 080#C3508000C2002C00
(1675525950.340065) vcan0 0B0#398311A3DAC139A3
(1675525950.340287) vcan0 145#F9C2D380FC4810A1
(1675525950.340510) vcan0 290#0000000000000000
(1675525950.340602) vcan0 0E0#627362C000807900
(1675525950.340896) vcan0 2A9#8C26009BC0000084
(1675525950.341046) vcan0 2C0#468700BB0000A0F1
(1675525950.341213) vcan0 2C5#47D7A4A8D3E70070
(1675525950.341419) vcan0 1B0#00C0000004B000FC
(1675525950.341497) vcan0 1B5#FFE11ED316E0FFEF
(1675525950.341718) vcan0 1D8#363339343234DB43
(1675525950.341796) vcan0 1E0#0014A34300B917E0
(1675525950.342019) vcan0 2C3#468700FFFF8B5450
(1675525950.342167) vcan0 072#F000FF3F00788038
(1675525950.342389) vcan0 360#488700A6BD64A041
(1675525950.342686) vcan0 125#E52083E5C1D0D735
(1675525950.344058) vcan0 008#CA82B80FF4800080
(1675525950.345444) vcan0 010#008800002FB031F8
(1675525950.346318) vcan0 1D0#0000000000000261
(1675525950.347696) vcan0 390#80FF0500021E584F
(1675525950.347936) vcan0 288#35E350AF00000080
(1675525950.349239) vcan0 0F5#4E94DC937F676225
(1675525950.350409) vcan0 120#3A94F1937F3A5689
(1675525950.350633) vcan0 130#CF151EF1135FFF11
(1675525950.350854) vcan0 150#1514139916F93AC0
(1675525950.352810) vcan0 260#D0FF0055497487B0
(1675525950.354186) vcan0 008#C882C801F4800080
(1675525950.355280) vcan0 010#008800002FB031F8
(1675525950.356371) vcan0 072#F000FF3F0078A038
(1675525950.359188) vcan0 055#EAF74A28B2249D80
(1675525950.359337) vcan0 065#D2E74AF801BE8406
(1675525950.359560) vcan0 070#00001BF884E22000
(1675525950.359781) vcan0 075#0000000000005458
(1675525950.359932) vcan0 080#C3508000C2002C00
(1675525950.360154) vcan0 0B0#398311A3DAC139A3
(1675525950.360377) vcan0 145#F9B2D480FC4810A1
(1675525950.360539) vcan0 210#2EE080A0A869C545
(1675525950.360761) vcan0 0E0#627363C800805800
(1675525950.360839) vcan0 28C#000020000016FEAB
(1675525950.361062) vcan0 2B5#4B292B6293A6B0A3
(1675525950.361139) vcan0 3D0#880F6100661780C3
(1675525950.361432) vcan0 1B0#00C0000008B000FC
(1675525950.361510) vcan0 1B5#FFEE2BDA1DE0FFEF
(1675525950.361732) vcan0 1D8#363339343234DB43
(1675525950.361809) vcan0 1E0#0018934300B917E0
(1675525950.362826) vcan0 125#E51A83E5C1D0D735
(1675525950.364201) vcan0 008#C382D8EFFB800080
(1675525950.365293) vcan0 010#008800002FB031F8
(1675525950.366671) vcan0 1D0#0000000000000061
(1675525950.366893) vcan0 290#0000000000000000
(1675525950.367043) vcan0 291#0000000000000000
(1675525950.367192) vcan0 400#020B011601010102
(1675525950.367793) vcan0 405#4887003C002D3302
(1675525950.369242) vcan0 0F5#4194E6937F6B5227
(1675525950.370258) vcan0 120#3994E1937F355689
(1675525950.370481) vcan0 130#D7181EF1134FFF11
(1675525950.370702) vcan0 150#131409A912F92CC0
(1675525950.371430) vcan0 072#F000FF3F00788038
(1675525950.372808) vcan0 288#3DE350AF00000080
(1675525950.375853) vcan0 008#C182E8E8F4800080
(1675525950.376003) vcan0 055#EAF74A28B2249D80
(1675525950.377021) vcan0 065#CDE74AF8FEBD8406
(1675525950.377243) vcan0 070#00001BF885E22000
(1675525950.377393) vcan0 010#008800002FB031F8
(1675525950.377615) vcan0 075#0000000000005458
(1675525950.377838) vcan0 080#C3508000C2002C00
(1675525950.378134) vcan0 0B0#398312A3DAC139A3
(1675525950.378211) vcan0 145#F9A2D580FC4810A1
(1675525950.378443) vcan0 0E0#627367D000803400
(1675525950.378520) vcan0 2A9#8C260082C0000084
(1675525950.378815) vcan0 370#071FC0005C1BC71F
(1675525950.379469) vcan0 1B0#00C0000002B000FC
(1675525950.379548) vcan0 1B5#FFFB38E023E0FFEF
(1675525950.380491) vcan0 1D8#363339343234DC43
(1675525950.380569) vcan0 1E0#0018930300B917E0
(1675525950.381942) vcan0 2C3#468700FFFF8B5450
(1675525950.382165) vcan0 210#2EE080A0A869C545
(1675525950.383037) vcan0 260#D0FF0055497487B0
(1675525950.383259) vcan0 125#E51283E5C1D0D735
(1675525950.384489) vcan0 008#BF82F8EFDF800080
(1675525950.385581) vcan0 010#008800002FB031F8
(1675525950.386672) vcan0 072#F000FF3F0078A038
(1675525950.386893) vcan0 1D0#0000000000000861
(1675525950.389209) vcan0 0F5#3A94FB937F6F4228
(1675525950.390606) vcan0 120#6094E4937F465689
(1675525950.390755) vcan0 130#DF181EFB13350412
(1675525950.390979) vcan0 150#1B140FB90EF914C0
(1675525950.393149) vcan0 008#BC8208DBE6800080
(1675525950.395576) vcan0 010#008800002FB031F8
(1675525950.396667) vcan0 291#0000000000000000
(1675525950.396817) vcan0 055#EAF74A28B2249D80
(1675525950.397040) vcan0 065#CBE74AF8FCBD8506
(1675525950.399425) vcan0 070#00001AF885E22000
(1675525950.399647) vcan0 075#0000000000005458
(1675525950.399871) vcan0 080#C3508000C2002C00
(1675525950.400020) vcan0 0B0#398312A3DBC139A3
(1675525950.400242) vcan0 145#F992D680FC4810A1
(1675525950.400466) vcan0 288#35E350AF00000080
(1675525950.400618) vcan0 0E0#62736AD800801100
(1675525950.400839) vcan0 28C#000020000016FEAB
(1675525950.401075) vcan0 290#0000000000000000
(1675525950.401226) vcan0 2B5#4B292B6293A6A9A3
(1675525950.401447) vcan0 2C0#468700B50000A0F1
(1675525950.401525) vcan0 2C5#4AD7A4A8CAE70070
(1675525950.401748) vcan0 1B0#00C0000003B000FC
(1675525950.401825) vcan0 1B5#FF0845E729E0FFEF
(1675525950.402048) vcan0 1D8#363339343234DC43
(1675525950.403425) vcan0 1E0#001C834300B917E0
(1675525950.403502) vcan0 072#F000FF3F00788038
(1675525950.403580) vcan0 330#7B00000000000000
(1675525950.403873) vcan0 340#9A00000000000000
(1675525950.403952) vcan0 3AF#0000000000000020
(1675525950.404173) vcan0 125#E50D83E5C1D0D735
(1675525950.404323) vcan0 350#A200000000000080
(1675525950.404547) vcan0 008#B88218CFE6800080
(1675525950.405640) vcan0 010#008800002FB031F8
(1675525950.405731) vcan0 1D0#0000000000000061
(1675525950.406745) vcan0 210#2EE08020A869C54D
(1675525950.409205) vcan0 0F5#2E94F2937F73322A
(1675525950.410581) vcan0 120#6594F7937F415689
(1675525950.410660) vcan0 130#E7181E05141A0A12
(1675525950.410954) vcan0 150#10140CC90BF90FC0
(1675525950.411105) vcan0 3CA#00000000D60000C8
(1675525950.411687) vcan0 3C8#4687008E882C008E
(1675525950.413063) vcan0 260#D0FF00AA497487B0
(1675525950.414224) vcan0 008#B58228C2E6800080
(1675525950.417117) vcan0 010#008800002FB031F9
(1675525950.417412) vcan0 072#F000FF3F0078A038
(1675525950.417562) vcan0 055#EAF74A28B2249D80
(1675525950.417784) vcan0 065#CFE74BF800BE8606
(1675525950.418005) vcan0 070#00001AF885E22000
(1675525950.418155) vcan0 075#0000000000005458
(1675525950.418246) vcan0 080#C3508000C2002C00
(1675525950.418540) vcan0 0B0#398312A3DBC139A3
(1675525950.418619) vcan0 145#F982D780FC4810A1
(1675525950.418842) vcan0 2A9#8C26009BC0000084
(1675525950.418921) vcan0 0E0#627361E00080FA00
(1675525950.419361) vcan0 1B0#00C0000003B000FC
(1675525950.420448) vcan0 1B5#FF1552ED30E0FFEF
(1675525950.420526) vcan0 1D8#363339343234DC43
(1675525950.421829) vcan0 1E0#0020734300B917E0
(1675525950.421907) vcan0 2C3#468700FFFF8C5450
(1675525950.422127) vcan0 288#14E350AF00000080
(1675525950.423359) vcan0 125#E50A83E5C1D0D735
(1675525950.424375) vcan0 008#B38238C3D7800080
(1675525950.425467) vcan0 010#008800002FB031F8
(1675525950.426481) vcan0 1D0#0000000000000261
(1675525950.426704) vcan0 290#0000000000000000
(1675525950.427946) vcan0 291#0000000000000000
(1675525950.429538) vcan0 0F5#5494FD937F77222B
(1675525950.429759) vcan0 120#5C94F9937F3C5689
(1675525950.429982) vcan0 130#EF181E0914060F12
(1675525950.430709) vcan0 150#281401D908F9E7C0
(1675525950.430931) vcan0 072#F000FF3F00788038
(1675525950.431010) vcan0 210#2CE080A0A869C545
(1675525950.431231) vcan0 3B0#00D84B3841BCC400
(1675525950.434479) vcan0 008#AF8248A8E6800080
(1675525950.435571) vcan0 010#008800002FB031F8
(1675525950.436660) vcan0 055#EAF74A28B2249D80
(1675525950.436883) vcan0 065#D4E74BF802BE8606
(1675525950.439555) vcan0 070#00001AF885E22000
(1675525950.439777) vcan0 075#0000000000005458
(1675525950.439928) vcan0 080#C3508000C2002C00
(1675525950.440149) vcan0 0B0#398312A3DBC139A3
(1675525950.440384) vcan0 145#F972D880FC4810A1
(1675525950.440534) vcan0 28C#000020000016FEAB
(1675525950.440761) vcan0 0E0#62735DE80080DE00
(1675525950.440983) vcan0 2B5#4B2A2B6293A6A2A4
(1675525950.441061) vcan0 1B0#00C0000006B000FC
(1675525950.441283) vcan0 1B5#FF225EF436E0FFEF
(1675525950.441362) vcan0 1D8#363339343234DC43
(1675525950.441584) vcan0 1E0#0020730300B917E0
(1675525950.442022) vcan0 360#488700A6BD64A041
(1675525950.443181) vcan0 260#D0FF00AA497487B0
(1675525950.443259) vcan0 125#E50183E5C1D0D735
(1675525950.444564) vcan0 008#AC82589BE6800080
(1675525950.445727) vcan0 010#008800002FB031F8
(1675525950.445877) vcan0 072#F000FF3F0078A038
(1675525950.446751) vcan0 1D0#0000000000000061
(1675525950.446974) vcan0 288#18E3609F00000080
(1675525950.448073) vcan0 390#80FF0500021A594F
(1675525950.449593) vcan0 0F5#5394FB937F7B122D
(1675525950.449816) vcan0 120#6394F9937F395689
(1675525950.449967) vcan0 130#F7181E0B14F41212
(1675525950.450697) vcan0 150#271404E905F9D8C0
(1675525950.453153) vcan0 008#A6826891E6800080
(1675525950.455559) vcan0 010#008800002FB031F8
(1675525950.456648) vcan0 210#2CE080A0A869C54D
(1675525950.456870) vcan0 055#EAF74A28B2229D80
(1675525950.457093) vcan0 065#DCE74BF805BE8506
(1675525950.459477) vcan0 070#00001AF884E22000
(1675525950.459700) vcan0 075#0000000000005458
(1675525950.459849) vcan0 080#C2508000C2002C00
(1675525950.460073) vcan0 0B0#398313A3DBC139A3
(1675525950.460295) vcan0 145#F962D980FC4810A1
(1675525950.460446) vcan0 290#0000000000000000
(1675525950.460693) vcan0 0E0#62735BF00080C000
(1675525950.460842) vcan0 291#0000000000000000
(1675525950.460992) vcan0 2A9#8C260082C0000084
(1675525950.461216) vcan0 2C0#468700B20000A0F1
(1675525950.461293) vcan0 2C5#4CD7A5A8D3E70070
(1675525950.461514) vcan0 1B0#00C0000002B000FC
(1675525950.461593) vcan0 1B5#FF306BFB3DE0FFEF
(1675525950.461813) vcan0 1D8#363339343234DC43
(1675525950.461964) vcan0 1E0#0024634300B917E0
(1675525950.462186) vcan0 072#F000FF3F00788038
(1675525950.462263) vcan0 2C3#468700FFFF8C5450
(1675525950.462992) vcan0 125#E5F982E5C1D0D735
(1675525950.464369) vcan0 008#A3827876F4800080
(1675525950.465532) vcan0 010#008800002FB031F8
(1675525950.466621) vcan0 1D0#0000000000000861
(1675525950.469007) vcan0 0F5#5A9402947F7F022F
(1675525950.470398) vcan0 120#7394F7937F325689
(1675525950.470621) vcan0 130#FF181E0B14E41212
(1675525950.470771) vcan0 150#2D1401F903F9C2C0
(1675525950.471569) vcan0 288#1CE3609F00000080
(1675525950.472947) vcan0 260#D0FF00AA497487B0
(1675525950.474037) vcan0 008#9C82886DF4800080
(1675525950.476933) vcan0 055#EAF74A28B2249D80
(1675525950.477154) vcan0 065#E1E74AF808BE8406
(1675525950.477304) vcan0 010#008800002FB031F8
(1675525950.477527) vcan0 070#00001BF884E22000
(1675525950.477748) vcan0 072#F000FF3F0078A038
(1675525950.477899) vcan0 075#0000000000005458
(1675525950.478123) vcan0 080#C2508000C2002C00
(1675525950.478345) vcan0 0B0#398313A3DAC139A3
(1675525950.478422) vcan0 0E0#627357F80080A400
(1675525950.478646) vcan0 145#F952DA80FC4810A1
(1675525950.479097) vcan0 28C#000020000016FEAB
(1675525950.479174) vcan0 2B5#4B2A2B6293A69FA2
(1675525950.480695) vcan0 330#7B00000000000000
(1675525950.480844) vcan0 340#9A00000000000000
(1675525950.480995) vcan0 1B0#00C0000001B000FC
(1675525950.481217) vcan0 1B5#FF3D780143E0FFEF
(1675525950.481294) vcan0 1D8#363339343234DC43
(1675525950.481514) vcan0 1E0#0028534300B917E0
(1675525950.481593) vcan0 370#071FC0005C1BC71F
(1675525950.481815) vcan0 210#2CE080A0A869C545
(1675525950.483551) vcan0 125#E5F182E5C1D0D735
(1675525950.484642) vcan0 008#9882983C18810080
(1675525950.485807) vcan0 010#008800002FB031F8
(1675525950.486028) vcan0 1D0#0000000000000061
(1675525950.486900) vcan0 290#0000000000000000
(1675525950.488350) vcan0 291#0000000000000000
(1675525950.489881) vcan0 0F5#629418947F43F230
(1675525950.490031) vcan0 120#8194FD937F335689
(1675525950.490255) vcan0 130#87151E1814C71512
(1675525950.490475) vcan0 150#3D140B0901F9A2C0
(1675525950.490915) vcan0 072#F000FF3F00788038
(1675525950.493442) vcan0 350#A200000000000080
(1675525950.494531) vcan0 008#9382A82227810080
(1675525950.495920) vcan0 010#008800002FB031F9
(1675525950.496143) vcan0 2A9#8C26008AC0000084
(1675525950.496365) vcan0 055#EAF74A28B2249D80
(1675525950.497021) vcan0 065#E4E749F804BE8306
(1675525950.497244) vcan0 070#00001AF884E22000
(1675525950.497467) vcan0 075#0000000000005458
(1675525950.499778) vcan0 080#C2508000C2002C00
(1675525950.499999) vcan0 0B0#398313A3DAC139A3
(1675525950.500220) vcan0 145#F942DB80FC4810A1
(1675525950.500384) vcan0 288#28E3609F00000080
(1675525950.500607) vcan0 0E0#62735AC000808100
(1675525950.500686) vcan0 1B0#00C0000003B000FC
(1675525950.500908) vcan0 1B5#FF4A85084AE0FFEF
(1675525950.501058) vcan0 1D8#363339343234DC43
(1675525950.501280) vcan0 1E0#0028530300B917E0
(1675525950.501358) vcan0 2C3#468700FFFF8C5450
(1675525950.503455) vcan0 125#E5E382E5C1D0D735
(1675525950.503677) vcan0 260#D0FF00AA497487B0
(1675525950.504475) vcan0 008#8D82B80A35810080
(1675525950.505781) vcan0 010#008800002FB031F8
(1675525950.506004) vcan0 072#F000FF3F0078A038
(1675525950.507021) vcan0 1D0#0000000000000261
(1675525950.507171) vcan0 210#2CE080A0A869C54D
(1675525950.509485) vcan0 0F5#6794FB937F47E232
(1675525950.509635) vcan0 120#7F940D947F2A5689
(1675525950.509867) vcan0 130#8F181E1814B70F12
(1675525950.510603) vcan0 150#31140819FEF89EC0
(1675525950.513062) vcan0 008#8682C8E452810080
(1675525950.515596) vcan0 010#008800002FB031F8
(1675525950.516759) vcan0 291#0000000000000000
(1675525950.516980) vcan0 055#EAF74A28B2249D80
(1675525950.519578) vcan0 065#E4E749F802BE8206
(1675525950.519728) vcan0 070#00001AF884E22000
(1675525950.519952) vcan0 075#0000000000005458
(1675525950.520173) vcan0 080#C2508000C2002C00
(1675525950.520323) vcan0 0B0#398313A3DAC139A3
(1675525950.520546) vcan0 145#F932DC80FC4810A1
(1675525950.520768) vcan0 28C#000020000016FEAB
(1675525950.520989) vcan0 0E0#62735EC800805D00
(1675525950.521212) vcan0 290#0000000000000000
(1675525950.521361) vcan0 2B5#4B2B2B6293A6A1A0
(1675525950.521449) vcan0 2C0#468700AF0000A0F1
(1675525950.521670) vcan0 2C5#4DD7A6A8E4E70070
(1675525950.521820) vcan0 3AF#0000000000000020
(1675525950.522045) vcan0 1B0#00C0000005B000FC
(1675525950.522121) vcan0 1B5#FF57920E50E0FFEF
(1675525950.522344) vcan0 1D8#363339343234DC43
(1675525950.522423) vcan0 1E0#002C434300B917E0
(1675525950.522645) vcan0 425#0000000000000000
(1675525950.522794) vcan0 072#F000FF3F00788038
(1675525950.523018) vcan0 288#08E3609F00000080
(1675525950.523095) vcan0 125#E5D582E5C1D0D735
(1675525950.523389) vcan0 008#7F82D8B776810080
(1675525950.525924) vcan0 010#008800002FB031F8
(1675525950.526220) vcan0 1D0#0000000000000061
(1675525950.527306) vcan0 0F5#609416947F4BD233
(1675525950.529836) vcan0 120#8F9416947F355689
(1675525950.529932) vcan0 130#97151E1814A70A12
(1675525950.530225) vcan0 150#3B14FD28FCF884C0
(1675525950.530880) vcan0 210#2CE080A0A869C54D
(1675525950.531102) vcan0 3CA#00000000C00000C8
(1675525950.532333) vcan0 3C8#4687008E882C008E
(1675525950.535297) vcan0 260#D0FF0055497487B0
(1675525950.535518) vcan0 008#7882E8998B810080
(1675525950.536462) vcan0 010#008800002FB031F8
(1675525950.536683) vcan0 072#F000FF3F0078A038
(1675525950.536834) vcan0 055#EAF74A28B2249D80
(1675525950.537055) vcan0 065#E1E748F800BE8206
(1675525950.537276) vcan0 070#00001AF884E22000
(1675525950.537571) vcan0 075#0000000000005458
(1675525950.537648) vcan0 080#C2508000C2002C00
(1675525950.537652) vcan0 0B0#398314A3DAC139A3
(1675525950.538017) vcan0 145#F922DD80FC4810A1
(1675525950.538106) vcan0 2A9#8C260093C0000084
(1675525950.538690) vcan0 0E0#62735DD000803E00
(1675525950.540066) vcan0 1B0#00C0000004B000FC
(1675525950.540289) vcan0 1B5#FF649F1557E0FFEF
(1675525950.543032) vcan0 1D8#363339343234DC43
(1675525950.543256) vcan0 1E0#0030334300B917E0
(1675525950.543485) vcan0 2C3#468700FFFF8C5450
(1675525950.543707) vcan0 360#488700A6BD64A041
(1675525950.543857) vcan0 125#E5C582E5C1D0D735
(1675525950.544226) vcan0 008#7182F873A8810080
(1675525950.545315) vcan0 010#008800002FB031F8
(1675525950.546477) vcan0 1D0#0000000000000861
(1675525950.547852) vcan0 290#0000000000000000
(1675525950.548001) vcan0 288#08E3708F00000080
(1675525950.548223) vcan0 291#0000000000000000
(1675525950.548374) vcan0 390#80FF050002165A4F
(1675525950.549401) vcan0 0F5#5E9424947F4FC235
(1675525950.549623) vcan0 120#94940B947F475689
(1675525950.549701) vcan0 130#9F151E2D14820F12
(1675525950.550644) vcan0 150#41140039F9F86EC0
(1675525950.550794) vcan0 072#F000FF3F00788038
(1675525950.550873) vcan0 3B0#00D84B3841BCC400
(1675525950.554410) vcan0 008#68820856BE810080
(1675525950.555642) vcan0 010#008800002FB031F8
(1675525950.556661) vcan0 055#EAF74A28B2229D80
(1675525950.559622) vcan0 065#DFE749F8FDBD8206
(1675525950.559772) vcan0 070#00001AF884E22000
(1675525950.559994) vcan0 075#0000000000005458
(1675525950.560217) vcan0 080#C2508000C2002C00
(1675525950.560366) vcan0 0B0#398314A3DAC139A3
(1675525950.560587) vcan0 145#F912DE80FC4810A1
(1675525950.560809) vcan0 210#2CE08020A869C545
(1675525950.560970) vcan0 0E0#627356D800802500
(1675525950.561194) vcan0 28C#000020000016FEAB
(1675525950.561418) vcan0 2B5#4B2B2B6293A69FA0
(1675525950.561494) vcan0 330#7B00000000000000
(1675525950.561718) vcan0 340#9B00000000000000
(1675525950.561794) vcan0 3D0#880F6100661780C3
(1675525950.562016) vcan0 1B0#00C0000009B000FC
(1675525950.562094) vcan0 1B5#FF72AC1C5DE0FFEF
(1675525950.562389) vcan0 1D8#363339343234DC43
(1675525950.562467) vcan0 1E0#0030330300B917E0
(1675525950.562688) vcan0 430#48084800000017A6
(1675525950.562766) vcan0 125#E5B782E5C1D0D735
(1675525950.563494) vcan0 260#D0FF0055497487B0
(1675525950.564511) vcan0 008#5F821824E9810080
(1675525950.567258) vcan0 010#008800002FB031F8
(1675525950.567482) vcan0 072#F000FF3F0078A038
(1675525950.567720) vcan0 1D0#0000000000000061
(1675525950.568521) vcan0 0F5#789418947F53B237
(1675525950.569537) vcan0 120#8394FB937F3F5689
(1675525950.569760) vcan0 130#A7181E2D14721512
(1675525950.570991) vcan0 150#4814F948F7F857C0
(1675525950.571214) vcan0 288#EBE2708F00000080
(1675525950.573602) vcan0 008#568228F80D820080
(1675525950.576135) vcan0 055#EAF74A28B2249D80
(1675525950.576286) vcan0 065#E1E74AF8FFBD8506
(1675525950.577229) vcan0 010#008800002FB031F9
(1675525950.577379) vcan0 070#000019F884E22000
(1675525950.580123) vcan0 075#0000000000005458
(1675525950.580345) vcan0 080#C2508000C2002C00
(1675525950.580495) vcan0 0B0#398314A3DAC139A3
(1675525950.580717) vcan0 145#F902DF80FC4810A1
(1675525950.580868) vcan0 0E0#62734AE000801100
(1675525950.581099) vcan0 290#0000000000000000
(1675525950.581322) vcan0 291#0000000000000000
(1675525950.581471) vcan0 2A9#8C26008AC0000084
(1675525950.581693) vcan0 2C0#468700AC0000A0F1
(1675525950.581772) vcan0 2C5#4ED7A6A7DFE70070
(1675525950.581993) vcan0 1B0#00C0000005B000FC
(1675525950.582143) vcan0 1B5#FF7FB92264E0FFEF
(1675525950.582437) vcan0 1D8#363339343234DC43
(1675525950.582444) vcan0 1E0#0034234300B917E0
(1675525950.582665) vcan0 2C3#468700FFFF8D5450
(1675525950.583106) vcan0 072#F000FF3F00788038
(1675525950.583110) vcan0 210#2CE080A0A869C545
(1675525950.583405) vcan0 370#071FC0005C1BC71F
(1675525950.583483) vcan0 3E0#000000D92E808090
(1675525950.583707) vcan0 125#E5A382E5C1D0D735
(1675525950.584147) vcan0 350#A200000000000080
(1675525950.584236) vcan0 008#4B8238D62A820080
(1675525950.585289) vcan0 010#008800002FB031F8
(1675525950.586521) vcan0 1D0#0000000000000261
(1675525950.588909) vcan0 0F5#4C941D947F57A238
(1675525950.590356) vcan0 120#81942A947F2D5689
(1675525950.590578) vcan0 130#AF181E2D14621212
(1675525950.590760) vcan0 150#3414F158F4F85BC0
(1675525950.592894) vcan0 260#D0FF0055497487B0
(1675525950.593984) vcan0 008#3D8248936B820080
(1675525950.596444) vcan0 010#008800002FB031F8
(1675525950.596669) vcan0 055#EAF74A28B2249D80
(1675525950.599199) vcan0 065#E4E74BF804BE8606
(1675525950.599349) vcan0 070#000017F884E22000
(1675525950.599572) vcan0 072#F000FF3F0078A038
(1675525950.599793) vcan0 075#0000000000005458
(1675525950.599942) vcan0 080#C2508000C2002C00
(1675525950.600195) vcan0 0B0#398315A3DAC139A3
(1675525950.600348) vcan0 145#F9F2D080FC4810A1
(1675525950.600570) vcan0 0E0#627340E80080FB00
(1675525950.600794) vcan0 288#EBE2708F00000080
(1675525950.600872) vcan0 28C#000020000016FEAB
(1675525950.601093) vcan0 2B5#4B2C2B6293A6999F
(1675525950.601173) vcan0 1B0#00C0000007B000FC
(1675525950.601394) vcan0 1B5#FF8CC6296AE0FFEF
(1675525950.601472) vcan0 1D8#363339343234DC43
(1675525950.601694) vcan0 1E0#0038134300B917E0
(1675525950.602781) vcan0 125#E58A82E5C1D0D735
(1675525950.604086) vcan0 008#3282586A8F820080
(1675525950.605142) vcan0 010#008800002FB031F8
(1675525950.606231) vcan0 1D0#0000000000000061
(1675525950.607606) vcan0 210#2CE080A0A869C54D
(1675525950.607684) vcan0 290#0000000000000000
(1675525950.607916) vcan0 291#0000000000000000
(1675525950.609146) vcan0 0F5#B9942C947F5B923A
(1675525950.610165) vcan0 120#7F9430947F385689
(1675525950.610387) vcan0 130#B7181E3C14431812
(1675525950.610609) vcan0 150#7214F468F1F80DC0
(1675525950.610687) vcan0 072#F000FF3F00788038
(1675525950.612639) vcan0 008#22826838C1820080
(1675525950.615173) vcan0 010#008800002FB031F8
(1675525950.616259) vcan0 2A9#8C260093C0000084
(1675525950.619075) vcan0 400#01010101010B0303
(1675525950.619300) vcan0 055#EAF74A28B2249D80
(1675525950.619451) vcan0 065#E4E74BF801BE8606
(1675525950.619673) vcan0 070#000016F884E22000
(1675525950.619895) vcan0 075#0000000000005458
(1675525950.620046) vcan0 080#C2508000C2002C00
(1675525950.620268) vcan0 0B0#398316A3DAC139A3
(1675525950.620500) vcan0 145#F9E2D180FC4810A1
(1675525950.620723) vcan0 0E0#627345F00080D600
(1675525950.620801) vcan0 405#0000000000000000
(1675525950.621022) vcan0 1B0#00C0000013B000FC
(1675525950.621101) vcan0 1B5#FF9AD32F71E0FFEF
(1675525950.621322) vcan0 1D8#363339343234DC43
(1675525950.621400) vcan0 1E0#0038130300B917E0
(1675525950.621695) vcan0 2C3#468700FFFF8D5450
(1675525950.621773) vcan0 288#D6E2708F00000080
(1675525950.622649) vcan0 125#E56982E5C1D0D735
(1675525950.623663) vcan0 260#D0FF00AA497487B0
(1675525950.625336) vcan0 008#148278F402830080
(1675525950.626135) vcan0 010#008800002FB031F8
(1675525950.627438) vcan0 072#F000FF3F0078A038
(1675525950.627660) vcan0 1D0#0000000000000861
(1675525950.628531) vcan0 0F5#B4942A947F5F823C
(1675525950.629845) vcan0 120#9B942E947F205689
(1675525950.629923) vcan0 130#BF181E3C14331B12
(1675525950.630218) vcan0 150#6F14ED78EEF800C0
(1675525950.630945) vcan0 210#2CE080A0A869C545
(1675525950.633404) vcan0 008#048288C234830080
(1675525950.635789) vcan0 010#008800002FB031F8
(1675525950.635940) vcan0 291#0000000000000000
(1675525950.636162) vcan0 330#7C00000000000000
(1675525950.638690) vcan0 055#EAF74A28B2249D80
(1675525950.638840) vcan0 065#E9E74AF802BE8406
(1675525950.639064) vcan0 070#000017F885E22000
(1675525950.639285) vcan0 075#0000000000005458
(1675525950.639436) vcan0 080#C3508000C2002C00
(1675525950.639657) vcan0 0B0#398316A3DAC139A3
(1675525950.639881) vcan0 0E0#627348F80080B300
(1675525950.640030) vcan0 145#F9D2D280FC4810A1
(1675525950.640119) vcan0 28C#000020000016FEAB
(1675525950.640413) vcan0 290#0000000000000000
(1675525950.640492) vcan0 2B5#4B2C2B6293A6949D
(1675525950.640715) vcan0 2C0#468700AA0000A0F1
(1675525950.640791) vcan0 1B0#00C000000EB000FC
(1675525950.641014) vcan0 1B5#FFA7E03677E0FFEF
(1675525950.641092) vcan0 1D8#363339343234DC43
(1675525950.642682) vcan0 072#F000FF3F00788038
(1675525950.642686) vcan0 1E0#003C034300B917E0
(1675525950.642981) vcan0 2C5#4FD7A7A7E8E70070
(1675525950.643058) vcan0 340#9B00000000000000
(1675525950.643281) vcan0 360#488700A6BD64A041
(1675525950.643358) vcan0 3AF#0000000000000020
(1675525950.643585) vcan0 125#E54B82E5C1D0D735
(1675525950.643882) vcan0 008#F481988275830080
(1675525950.646276) vcan0 010#008800002FB031F8
(1675525950.646361) vcan0 1D0#0000000000000061
(1675525950.646656) vcan0 288#DFE2807F00000080
(1675525950.646735) vcan0 390#80FF050002125B4F
(1675525950.648762) vcan0 0F5#73945A947F63723D
(1675525950.649995) vcan0 120#B7944A947F315689
(1675525950.651297) vcan0 130#C7181E5A14051D12
(1675525950.651519) vcan0 150#6614F588EAF8F9C0
(1675525950.651741) vcan0 3CA#00000000D10000C8
(1675525950.651891) vcan0 3C8#4687008E882C008E
(1675525950.653918) vcan0 260#D0FF00AA497487B0
(1675525950.654140) vcan0 008#E481A833C4830080
(1675525950.656816) vcan0 010#008800002FB031F9
(1675525950.656967) vcan0 072#F000FF3F0078A038
(1675525950.657189) vcan0 055#EAF74A28B2249D80
(1675525950.657411) vcan0 065#E9E749F804BE8406
(1675525950.657561) vcan0 070#000018F885E22000
(1675525950.657793) vcan0 075#0000000000005458
(1675525950.657871) vcan0 080#C2508000C2002C00
(1675525950.658092) vcan0 0B0#398316A3DAC139A3
(1675525950.658170) vcan0 145#F9C2D380FC4810A1
(1675525950.658464) vcan0 0E0#627341C000809A00
(1675525950.658543) vcan0 210#2CE080A0A869C54D
(1675525950.658981) vcan0 2A9#8C26008AC0000084
(1675525950.660069) vcan0 1B0#00C000000CB000FC
(1675525950.661445) vcan0 1B5#FFB4ED3D7EE0FFEF
(1675525950.661596) vcan0 1D8#363339343234DC43
(1675525950.661747) vcan0 1E0#0000F34300B917E0
(1675525950.661968) vcan0 2C3#468700FFFF8D5450
(1675525950.662910) vcan0 125#E52782E5C1D0D735
(1675525950.664071) vcan0 008#D481B80FE8830080
(1675525950.666529) vcan0 010#008800002FB031F8
(1675525950.666823) vcan0 1D0#0000000000000261
(1675525950.666914) vcan0 291#0000000000000000
(1675525950.667209) vcan0 290#0000000000000000
(1675525950.669017) vcan0 0F5#919460947F67623F
(1675525950.670106) vcan0 120#C29455947F2A5689
(1675525950.670256) vcan0 130#CF181E6014EF2312
(1675525950.671486) vcan0 150#7814ED98E5F8D7C0
(1675525950.671636) vcan0 072#F000FF3F00788038
(1675525950.671859) vcan0 288#C2E2807F00000080
(1675525950.672081) vcan0 3B0#00D84B3841BCC402
(1675525950.674032) vcan0 350#A200000000000080
(1675525950.674255) vcan0 008#C281C8DD1B840080
(1675525950.677002) vcan0 055#EAF74A28B2249D80
(1675525950.677152) vcan0 010#008800002FB031F8
(1675525950.677375) vcan0 065#EEE74AF801BE8406
(1675525950.677596) vcan0 070#000018F885E22000
(1675525950.677745) vcan0 075#0000000000005458
(1675525950.678049) vcan0 080#C2508000C2002C00
(1675525950.678128) vcan0 0B0#398315A3DAC139A3
(1675525950.678420) vcan0 145#F9B2D480FC4810A1
(1675525950.678498) vcan0 0E0#627342C800807900
(1675525950.678721) vcan0 28C#000020000016FEAB
(1675525950.679160) vcan0 2B5#4B2D2B6293A6939F
(1675525950.679164) vcan0 370#071FC0005C1BC71F
(1675525950.680609) vcan0 1B0#00C0000006B000FC
(1675525950.680687) vcan0 1B5#FFC2FA4384E0FFEF
(1675525950.680909) vcan0 1D8#363339343234DC43
(1675525950.680987) vcan0 1E0#0000F30300B917E0
(1675525950.681208) vcan0 210#2CE080A0A869C545
(1675525950.683235) vcan0 125#E50582E5C1D0D735
(1675525950.683385) vcan0 260#D0FF00AA497487B0
(1675525950.684400) vcan0 008#B281D8AB4D840080
(1675525950.685705) vcan0 010#008800002FB031F8
(1675525950.685938) vcan0 072#F000FF3F0078A038
(1675525950.686883) vcan0 1D0#0000000000000061
(1675525950.689267) vcan0 0F5#98945E947F6B5241
(1675525950.689490) vcan0 120#C89463947F365689
(1675525950.690361) vcan0 130#D7181E6314DC2912
(1675525950.690584) vcan0 150#7B14DEA8DFF8C4C0
(1675525950.692752) vcan0 008#A281E89D5B840080
(1675525950.695139) vcan0 010#008800002FB031F8
(1675525950.696227) vcan0 291#0000000000000000
(1675525950.696378) vcan0 055#EAF74A28B2249D80
(1675525950.699049) vcan0 065#F6E74AF804BE8406
(1675525950.699197) vcan0 070#000018F884E22000
(1675525950.699420) vcan0 075#0000000000005458
(1675525950.699641) vcan0 080#C2508000C2002C00
(1675525950.699791) vcan0 0B0#398316A3DAC139A3
(1675525950.700014) vcan0 145#F9A2D580FC4810A1
(1675525950.700191) vcan0 288#8DE2807F00000080
(1675525950.700414) vcan0 0E0#627346D000805500
(1675525950.700636) vcan0 290#0000000000000000
(1675525950.700785) vcan0 2A9#8C260082C0000084
(1675525950.700864) vcan0 2C0#468700A90000A0F1
(1675525950.701158) vcan0 2C5#50D7A8A7EDE70070
(1675525950.701235) vcan0 1B0#00C0000008B000FC
(1675525950.701457) vcan0 1B5#FFCF084A8BE0FFEF
(1675525950.701534) vcan0 1D8#363339343234DC43
(1675525950.701756) vcan0 1E0#0004E34300B917E0
(1675525950.701905) vcan0 2C3#468700FFFF8E5450
(1675525950.702127) vcan0 072#F000FF3F00788038
(1675525950.702638) vcan0 125#E5E281E5C1D0D735
(1675525950.703942) vcan0 008#9081F87B7F840080
(1675525950.705007) vcan0 010#008800002FB031F8
(1675525950.706025) vcan0 1D0#0000000000000861
(1675525950.707408) vcan0 210#2DE08020A869C54D
(1675525950.710013) vcan0 0F5#95945B947F6F4242
(1675525950.710237) vcan0 120#E09451947F2C5689
(1675525950.710458) vcan0 130#DF1A1E6314CC2312
(1675525950.710607) vcan0 150#7814D4B8D8F8B7C0
(1675525950.712563) vcan0 260#D0FF0055497487B0
(1675525950.713866) vcan0 008#8081086C8E840080
(1675525950.714883) vcan0 010#008800002FB031F8
(1675525950.717796) vcan0 072#F000FF3F0078A038
(1675525950.718020) vcan0 055#EAF74A28B2249D80
(1675525950.718241) vcan0 065#FAE749F806BE8406
(1675525950.718462) vcan0 070#000018F884E22000
(1675525950.718613) vcan0 075#0000000000005458
(1675525950.718835) vcan0 080#C2508000C2002C00
(1675525950.719059) vcan0 0B0#398316A3DAC139A3
(1675525950.719209) vcan0 145#F992D680FC4810A1
(1675525950.719439) vcan0 28C#000020000016FEAB
(1675525950.719590) vcan0 0E0#62734CD800802F00
(1675525950.719811) vcan0 2B5#4B2D2B6293A6929E
(1675525950.719891) vcan0 330#7C00000000000000
(1675525950.720113) vcan0 340#9D00000000000000
(1675525950.720190) vcan0 1B0#00C0000001B000FC
(1675525950.720412) vcan0 1B5#FFDD155192E0FFEF
(1675525950.721428) vcan0 1D8#363339343234DC43
(1675525950.721505) vcan0 1E0#0008D34300B917E0
(1675525950.721726) vcan0 288#8DE2807F00000080
(1675525950.722959) vcan0 125#E5BE81E5C1D0D735
(1675525950.723974) vcan0 008#7081185E9C840080
(1675525950.725356) vcan0 010#008800002FB031F8
(1675525950.726443) vcan0 1D0#0000000000000061
(1675525950.726521) vcan0 290#0000000000000000
(1675525950.726815) vcan0 291#0000000000000000
(1675525950.729136) vcan0 0F5#AD947A947F733244
(1675525950.730150) vcan0 120#DD944C947F415689
(1675525950.730372) vcan0 130#E7181E7914A62312
(1675525950.730595) vcan0 150#9314D4C8D1F88CC0
(1675525950.730746) vcan0 072#F000FF3F00788038
(1675525950.730967) vcan0 210#2DE080A0A869C54D
(1675525950.732631) vcan0 008#5E812851AB840080
(1675525950.735022) vcan0 010#008800002FB031F9
(1675525950.736182) vcan0 2A9#8C26009BC0000084
(1675525950.740493) vcan0 055#EAF74A28B2249D80
(1675525950.740658) vcan0 065#FFE749F803BE8306
(1675525950.740880) vcan0 070#000017F884E22000
(1675525950.741031) vcan0 075#0000000000005458
(1675525950.741253) vcan0 080#C2508000C2002C00
(1675525950.741477) vcan0 0B0#398316A3DAC139A3
(1675525950.741629) vcan0 145#F982D780FC4810A1
(1675525950.741878) vcan0 0E0#627342E000801900
(1675525950.742028) vcan0 1B0#00C0000005B000FC
(1675525950.742252) vcan0 1B5#FFEA225798E0FFEF
(1675525950.742473) vcan0 1D8#363339343234DC43
(1675525950.742624) vcan0 1E0#0008D30300B917E0
(1675525950.742846) vcan0 2C3#468700FFFF8E5450
(1675525950.742924) vcan0 360#488700A6BD64A041
(1675525950.743144) vcan0 125#E59D81E5C1D0D735
(1675525950.743295) vcan0 260#D0FF0055497487B0
(1675525950.744093) vcan0 008#4E813843B9840080
(1675525950.745639) vcan0 010#008800002FB031F8
(1675525950.745788) vcan0 072#F000FF3F0078A038
(1675525950.746662) vcan0 1D0#0000000000000261
(1675525950.746883) vcan0 288#4BE2906F00000080
(1675525950.747104) vcan0 390#80FF050002125B4F
(1675525950.749205) vcan0 0F5#B8946F947F772245
(1675525950.750306) vcan0 120#B09488947F3A5689
(1675525950.750455) vcan0 130#EF1A1E8814872312
(1675525950.751759) vcan0 150#9314C9D8C9F87CC0
(1675525950.754289) vcan0 008#3C814853AB840080
(1675525950.755379) vcan0 010#008800002FB031F8
(1675525950.756467) vcan0 210#2DE080A0A869C545
(1675525950.759285) vcan0 291#0000000000000000
(1675525950.759507) vcan0 3D0#880F6100661780C3
(1675525950.759656) vcan0 055#EAF74A28B2249D80
(1675525950.759878) vcan0 065#07E849F805BE8306
(1675525950.760100) vcan0 070#000017F884E22000
(1675525950.760251) vcan0 075#0000000000005458
(1675525950.760472) vcan0 080#C2508000C2002C00
(1675525950.760695) vcan0 0B0#398316A3DAC139A3
(1675525950.760844) vcan0 0E0#627333E800800800
(1675525950.761068) vcan0 145#F972D880FC4810A1
(1675525950.761227) vcan0 28C#000020000016FEAB
(1675525950.761376) vcan0 290#0000000000000000
(1675525950.762321) vcan0 2B5#4B2D2B6293A6929D
(1675525950.762545) vcan0 2C0#468700A90000A0F1
(1675525950.762622) vcan0 1B0#00C0000005B000FC
(1675525950.762845) vcan0 1B5#FFF82F5E9FE0FFEF
(1675525950.762994) vcan0 1D8#363339343234DC43
(1675525950.763215) vcan0 1E0#000CC34300B917E0
(1675525950.763294) vcan0 072#F000FF3F00788038
(1675525950.763516) vcan0 2C5#50D7A9A606E80070
(1675525950.763596) vcan0 3AF#0000000000000020
(1675525950.763818) vcan0 125#E57E81E5C1D0D735
(1675525950.763967) vcan0 350#A200000000000080
(1675525950.764550) vcan0 008#2C815845B9840080
(1675525950.766000) vcan0 010#008800002FB031F8
(1675525950.766005) vcan0 1D0#0000000000000061
(1675525950.768543) vcan0 0F5#AE9470947F7B1247
(1675525950.769705) vcan0 120#B6945A947F2F5689
(1675525950.769927) vcan0 130#F7181E91146E2312
(1675525950.770799) vcan0 150#8F14B5E8C0F870C0
(1675525950.770948) vcan0 3CA#00000000D20000C8
(1675525950.772033) vcan0 288#1EE2906F00000080
(1675525950.772255) vcan0 3C8#4687008E882C008E
(1675525950.773556) vcan0 260#D0FF0055497487B0
(1675525950.774644) vcan0 008#1C816853AB840080
(1675525950.775808) vcan0 055#EAF74A28B2249D80
(1675525950.776966) vcan0 065#08E849F806BE8306
(1675525950.778414) vcan0 010#008800002FB031F8
(1675525950.778636) vcan0 070#000017F884E22000
(1675525950.778858) vcan0 072#F000FF3F0078A038
(1675525950.779009) vcan0 075#0000000000005458
(1675525950.779230) vcan0 080#C2508000C2002C00
(1675525950.779391) vcan0 0B0#398316A3DAC139A3
(1675525950.779541) vcan0 0E0#627322F00080F900
(1675525950.779763) vcan0 145#F962D980FC4810A1
(1675525950.781354) vcan0 2A9#8C260082C0000084
(1675525950.781574) vcan0 370#071FC0005C1BC71F
(1675525950.781797) vcan0 1B0#00C0000004B000FC
(1675525950.781874) vcan0 1B5#FF053C65A5E0FFEF
(1675525950.782097) vcan0 1D8#363339343234DC43
(1675525950.782173) vcan0 1E0#0010B34300B917E0
(1675525950.782396) vcan0 2C3#468700FFFF8E5450
(1675525950.782546) vcan0 210#2DE080A0A869C545
(1675525950.782768) vcan0 125#E56081E5C1D0D735
(1675525950.783567) vcan0 008#0E81787587840080
(1675525950.786171) vcan0 010#008800002FB031F8
(1675525950.787400) vcan0 1D0#0000000000000861
(1675525950.787624) vcan0 290#0000000000000000
(1675525950.787785) vcan0 291#0000000000000000
(1675525950.788510) vcan0 0F5#AD9485947F7F0249
(1675525950.789958) vcan0 120#4C942E947F265689
(1675525950.790180) vcan0 130#FF1A1E91145E2312
(1675525950.790405) vcan0 150#9814AAF8B6F857C0
(1675525950.790552) vcan0 072#F000FF3F00788038
(1675525950.791061) vcan0 3B0#00D84B3C41BCC400
(1675525950.793517) vcan0 008#0381887F78840080
(1675525950.796145) vcan0 010#008800002FB031F8
(1675525950.796369) vcan0 330#7C00000000000000
(1675525950.796519) vcan0 055#EAF74A28B2249D80
(1675525950.796739) vcan0 065#0AE849F802BE8406
(1675525950.797255) vcan0 070#000018F884E22000
(1675525950.797478) vcan0 075#0000000000005458
(1675525950.800294) vcan0 080#C2508000C2002C00
(1675525950.800371) vcan0 0B0#398316A3DAC139A3
(1675525950.800688) vcan0 145#F952DA80FC4810A1
(1675525950.800838) vcan0 0E0#627327F80080D400
(1675525950.801062) vcan0 288#C8E1906F00000080
(1675525950.801284) vcan0 28C#000020000016FEAB
(1675525950.801361) vcan0 2B5#4B2D2B6293A6919E
(1675525950.801585) vcan0 340#9D00000000000000
(1675525950.801662) vcan0 1B0#00C0000006B000FC
(1675525950.801957) vcan0 1B5#FF12496BACE0FFEF
(1675525950.802034) vcan0 1D8#363339343234DC43
