(1675525543.188521) vcan0 1B0#00C0000001B000FC
(1675525543.188581) vcan0 1B5#FF1CD2B4EFE0FFEF
(1675525543.188658) vcan0 1D8#363339343234DE43
(1675525543.189535) vcan0 1E0#0030334300B917E0
(1675525543.189615) vcan0 2C3#669C00FFFFBC5450
(1675525543.189763) vcan0 008#64803C4F1C800080
(1675525543.190634) vcan0 010#000000002FB031F8
(1675525543.191721) vcan0 291#0000000000000000
(1675525543.192735) vcan0 425#0000000000000000
(1675525543.193824) vcan0 0E0#E27322E800801900
(1675525543.193902) vcan0 288#D0DFB04F00000080
(1675525543.194849) vcan0 072#F000FF3F00788038
(1675525543.197304) vcan0 0F5#A69BAE9B7F4FC23C
(1675525543.198391) vcan0 120#C99BC49B7FFF5589
(1675525543.198469) vcan0 130#9FF71DC91BDFFD11
(1675525543.198547) vcan0 150#AA1BFA3700F8FEC0
(1675525543.199489) vcan0 125#E5F07FE4C1D0D735
(1675525543.202380) vcan0 008#64804C4D0E800080
(1675525543.202457) vcan0 010#000000002FB031F8
(1675525543.202545) vcan0 1D0#0000000000000061
(1675525543.202622) vcan0 260#D0FF00AA497487B0
(1675525543.202772) vcan0 055#F4F7F527B2009C80
(1675525543.203499) vcan0 065#1DE7F5F7FECDE501
(1675525543.203578) vcan0 070#00000BF8E5E11500
(1675525543.203655) vcan0 075#0000000000005458
(1675525543.203732) vcan0 080#E04F8000C2002C00
(1675525543.204539) vcan0 0B0#398313A3E0C139A3
(1675525543.204690) vcan0 145#F942DB80FC4810A1
(1675525543.204766) vcan0 28C#00000000002EBEAA
(1675525543.204845) vcan0 290#0000000000000000
(1675525543.204921) vcan0 2B5#4B24326293A68604
(1675525543.205650) vcan0 2C0#669C00010000A0F1
(1675525543.208469) vcan0 2C5#00E797D01EE70070
(1675525543.208544) vcan0 340#AF00000000000000
(1675525543.208696) vcan0 3AF#0000000000000020
(1675525543.208782) vcan0 210#08E080A0C169BF45
(1675525543.208859) vcan0 1B0#00C0000001B000FC
(1675525543.208938) vcan0 1B5#FF2EE4BDF8E0FFEF
(1675525543.209016) vcan0 1D8#363339343234DE43
(1675525543.209093) vcan0 1E0#0030330300B917E0
(1675525543.209604) vcan0 008#64805C3D0E800080
(1675525543.210619) vcan0 010#000000002FB031F8
(1675525543.211708) vcan0 072#F000FF3F0078A038
(1675525543.212794) vcan0 2A9#8C260082C0000084
(1675525543.213810) vcan0 0E0#E2731DF00080FE00
(1675525543.213888) vcan0 350#A200000000000080
(1675525543.214980) vcan0 360#709C00D2B745A001
(1675525543.217726) vcan0 0F5#929BA89B7F53B23E
(1675525543.218885) vcan0 120#D69BE89B7FFC5589
(1675525543.218963) vcan0 130#A7F71DC91BCFF711
(1675525543.219041) vcan0 150#9D1BF147FFF7FBC0
(1675525543.219127) vcan0 125#E5F07FE4C1D0D735
(1675525543.219853) vcan0 288#E5DFB04F00000080
(1675525543.220005) vcan0 008#64806C3B00800080
(1675525543.221020) vcan0 010#000000002FB031F8
(1675525543.222109) vcan0 1D0#0000000000000061
(1675525543.223125) vcan0 291#0000000000000000
(1675525543.223203) vcan0 390#80FF051D0232534F
(1675525543.223280) vcan0 055#F4F7F527B2009C80
(1675525543.225985) vcan0 065#1AE7F5F7FCCDE401
(1675525543.226064) vcan0 070#00000BF8E4E11500
(1675525543.226204) vcan0 075#0000000000005458
(1675525543.226292) vcan0 080#E04F8000C2002C00
(1675525543.226368) vcan0 0B0#398313A3E0C139A3
(1675525543.226449) vcan0 145#F932DC80FC4810A1
(1675525543.227103) vcan0 072#F000FF3F00788038
(1675525543.227181) vcan0 3B0#00FC70387DB4C400
(1675525543.228206) vcan0 1B0#00C0000003B000FC
(1675525543.228356) vcan0 1B5#FF40F7C601E0FFEF
(1675525543.228435) vcan0 1D8#363339343234DE43
(1675525543.229307) vcan0 1E0#0034234300B917E0
(1675525543.229384) vcan0 2C3#669C00FFFFBC5450
(1675525543.229462) vcan0 008#64807C2B00800080
(1675525543.230405) vcan0 010#000000002FB031F8
(1675525543.233294) vcan0 210#08E08020C169BF45
(1675525543.233372) vcan0 260#D0FF00AA497487B0
(1675525543.233449) vcan0 330#2800000000000000
(1675525543.233600) vcan0 290#0000000000000000
(1675525543.233677) vcan0 3D0#990F6100D11480C3
(1675525543.234334) vcan0 0E0#E27318F80080E300
(1675525543.235495) vcan0 430#28082A0000002DC6
(1675525543.236512) vcan0 0F5#AB9BB09B7F57A241
(1675525543.237600) vcan0 120#DB9BD69B7FFC5589
(1675525543.238565) vcan0 130#AFF71DC91BBFF111
(1675525543.238713) vcan0 150#AD1BF557FFF7DBC0
(1675525543.238791) vcan0 125#E5F07FE4C1D0D735
(1675525543.241467) vcan0 008#64808C1B00800080
(1675525543.241545) vcan0 010#000000002FB031F8
(1675525543.242561) vcan0 072#F000FF3F0078A038
(1675525543.242712) vcan0 1D0#0000000000000061
(1675525543.242838) vcan0 055#F3F7F527B2009C80
(1675525543.243734) vcan0 065#16E7F5F7FDCDE401
(1675525543.243811) vcan0 070#00000BF8E3E11500
(1675525543.243890) vcan0 075#0000000000005458
(1675525543.243974) vcan0 080#E04F8000C2002C00
(1675525543.244051) vcan0 0B0#398313A3E0C139A3
(1675525543.244707) vcan0 145#F922DD80FC4810A1
(1675525543.244856) vcan0 288#E5DFC03F00000080
(1675525543.244935) vcan0 28C#00000000002EBEAA
(1675525543.245019) vcan0 2B5#4B24326293A68603
(1675525543.245820) vcan0 1B0#00C0000004B000FC
(1675525543.248638) vcan0 1B5#FF5209CF0AE0FFEF
(1675525543.248715) vcan0 1D8#363339343234DE43
(1675525543.248792) vcan0 1E0#0038134300B917E0
(1675525543.249738) vcan0 3C8#669C008E882C008E
(1675525543.249814) vcan0 008#64809C0B00800080
(1675525543.250759) vcan0 010#000000002FB031F8
(1675525543.251847) vcan0 291#0000000000000000
(1675525543.252863) vcan0 2A9#8C26008AC0000084
(1675525543.254028) vcan0 0E0#E27316C00080C500
(1675525543.255118) vcan0 072#F000FF3F00788038
(1675525543.256132) vcan0 210#08E080A0C169BF45
(1675525543.257224) vcan0 0F5#A19BA89B7F5B9243
(1675525543.258311) vcan0 120#A89BBF9B7FFA5589
(1675525543.259617) vcan0 130#B7F71DBF1BB9EC11
(1675525543.259703) vcan0 150#A41BF667FEF7D4C0
(1675525543.259781) vcan0 125#E5F07FE4C1D0D735
(1675525543.259931) vcan0 008#6480ACFB00800080
(1675525543.262678) vcan0 010#000000002FB031F9
(1675525543.262757) vcan0 1D0#0000000000000A61
(1675525543.262834) vcan0 260#D0FF00AA497487B0
(1675525543.263705) vcan0 055#F4F7F427B2009C80
(1675525543.263783) vcan0 065#1AE7F5F700CEE301
(1675525543.263958) vcan0 070#00000BF8E3E11500
(1675525543.263963) vcan0 075#0000000000005458
(1675525543.264113) vcan0 080#E04F8000C2002C00
(1675525543.264768) vcan0 0B0#398313A3E0C139A3
(1675525543.264847) vcan0 145#F912DE80FC4810A1
(1675525543.264924) vcan0 290#0000000000000000
(1675525543.265001) vcan0 2C0#669C00010000A0F1
(1675525543.265874) vcan0 2C5#00E797D01BE70070
(1675525543.266898) vcan0 1B0#00C0000002B000FC
(1675525543.267914) vcan0 1B5#FF641AD812E0FFEF
(1675525543.270878) vcan0 1D8#363339343234DE43
(1675525543.270956) vcan0 1E0#0038130300B917E0
(1675525543.271034) vcan0 288#E1DFC03F00000080
(1675525543.271112) vcan0 2C3#669C00FFFFBC5450
(1675525543.271260) vcan0 008#6480BCEB00800080
(1675525543.271917) vcan0 010#000000002FB031F8
(1675525543.271994) vcan0 072#F000FF3F0078A038
(1675525543.273009) vcan0 0E0#E2730DC80080AE00
(1675525543.274036) vcan0 0F5#949B9E9B7F5F8245
(1675525543.275123) vcan0 120#AE9BB59B7FFB5589
(1675525543.276136) vcan0 130#BFF71DB51BB3E611
(1675525543.277228) vcan0 125#E5F37FE4C1D0D735
(1675525543.278316) vcan0 150#991BF577FEF7CFC0
(1675525543.279620) vcan0 008#6480CCDB00800080
(1675525543.280715) vcan0 010#000000002FB031F8
(1675525543.281731) vcan0 1D0#0000000000000061
(1675525543.282820) vcan0 210#08E080A0C169BF4D
(1675525543.282897) vcan0 291#0000000000000000
(1675525543.285573) vcan0 055#F3F7F427B2009C80
(1675525543.285724) vcan0 065#1DE7F5F703CEE301
(1675525543.285801) vcan0 070#00000BF8E2E11500
(1675525543.285879) vcan0 075#0000000000005458
(1675525543.285956) vcan0 080#E04F8000C2002C00
(1675525543.286033) vcan0 0B0#398313A3E0C139A3
(1675525543.286112) vcan0 145#F902DF80FC4810A1
(1675525543.286188) vcan0 28C#00000000002EBEAA
(1675525543.286339) vcan0 2B5#4B24326293A68602
(1675525543.286416) vcan0 340#AF00000000000000
(1675525543.286492) vcan0 370#1727C0008103CB1F
(1675525543.286716) vcan0 072#F000FF3F00788038
(1675525543.287742) vcan0 1B0#00C0000005B000FC
(1675525543.288828) vcan0 1B5#FF762CE11BE0FFEF
(1675525543.288907) vcan0 1D8#363339343234DE43
(1675525543.291651) vcan0 1E0#003C034300B917E0
(1675525543.291729) vcan0 008#6480DCCB00800080
(1675525543.291807) vcan0 010#000000002FB031F8
(1675525543.292751) vcan0 2A9#8C260093C0000084
(1675525543.292756) vcan0 260#D0FF0055497487B0
(1675525543.292832) vcan0 400#000101010002031B
(1675525543.292911) vcan0 405#0000000000000022
(1675525543.292988) vcan0 290#0000000000000000
(1675525543.293787) vcan0 0E0#E27302D000809900
(1675525543.293864) vcan0 288#E1DFC03F00000080
(1675525543.294815) vcan0 0F5#969B9C9B7F637247
(1675525543.295903) vcan0 120#C99BCC9B7FF95589
(1675525543.296921) vcan0 130#C7F41DB51BA3E611
(1675525543.298015) vcan0 150#991BF587FDF7BFC0
(1675525543.299104) vcan0 125#E5F67FE4C1D0D735
(1675525543.301925) vcan0 3CA#00000000560000C8
(1675525543.302002) vcan0 008#6480ECBB00800080
(1675525543.302080) vcan0 010#000000002FB031F8
(1675525543.302156) vcan0 072#F000FF3F0078A038
(1675525543.302958) vcan0 1D0#0000000000000061
(1675525543.303108) vcan0 055#F3F7F427B2009C80
(1675525543.303185) vcan0 065#1BE7F4F700CEE201
(1675525543.303263) vcan0 070#00000BF8E1E11500
(1675525543.304068) vcan0 075#0000000000005458
(1675525543.304147) vcan0 080#E04F8000C2002C00
(1675525543.304224) vcan0 0B0#398313A3E0C139A3
(1675525543.304302) vcan0 145#F9F2D080FC4810A1
(1675525543.305102) vcan0 350#A200000000000080
(1675525543.306116) vcan0 210#07E080A0C169BF4D
(1675525543.309018) vcan0 1B0#00C0000002B000FC
(1675525543.309095) vcan0 1B5#FF883EEA24E0FFEF
(1675525543.309173) vcan0 1D8#363339343234DE43
(1675525543.309250) vcan0 1E0#0000F34300B917E0
(1675525543.309382) vcan0 2C3#669C00FFFFBD5450
(1675525543.310128) vcan0 008#6180F42E00800080
(1675525543.311142) vcan0 010#000000002FB031F8
(1675525543.312230) vcan0 291#0000000000000000
(1675525543.312308) vcan0 330#2800000000000000
(1675525543.313250) vcan0 0E0#62730CD800806F00
(1675525543.314330) vcan0 072#F000FF3F00788038
(1675525543.315364) vcan0 360#709C00D2B745A001
(1675525543.316468) vcan0 0F5#8C9BA39B7F67624A
(1675525543.317502) vcan0 120#C99BE39B7FFC5589
(1675525543.318606) vcan0 130#CFF41DB51B93EC11
(1675525543.320052) vcan0 150#971BF897FDF7B1C0
(1675525543.320134) vcan0 125#E5F67FE4C1D0D735
(1675525543.320208) vcan0 288#F1DFC03F00000080
(1675525543.320283) vcan0 008#5D8004140E800080
(1675525543.323031) vcan0 010#000000002FB031F8
(1675525543.323106) vcan0 1D0#0000000000000061
(1675525543.323180) vcan0 260#D0FF0055497487B0
(1675525543.323254) vcan0 390#80FF051D022E544F
(1675525543.323328) vcan0 055#F3F7F427B2009C80
(1675525543.323471) vcan0 065#1AE7F4F700CEE201
(1675525543.324104) vcan0 070#00000BF8E1E11500
(1675525543.324177) vcan0 075#0000000000005458
(1675525543.324321) vcan0 080#E04F8000C2002C00
(1675525543.324396) vcan0 0B0#398313A3E0C139A3
(1675525543.324469) vcan0 145#F9E2D180FC4810A1
(1675525543.325161) vcan0 28C#00000000002EBEAA
(1675525543.325235) vcan0 290#0000000000000000
(1675525543.325318) vcan0 2B5#4B24326293A68601
(1675525543.325394) vcan0 2C0#669C00010000A0F1
(1675525543.328074) vcan0 2C5#00E797D01CE70070
(1675525543.328147) vcan0 3AF#0000000000000020
(1675525543.328221) vcan0 1B0#00C0000001B000FC
(1675525543.329050) vcan0 1B5#FF9A50F32DE0FFEF
(1675525543.329123) vcan0 1D8#363339343234DE43
(1675525543.329266) vcan0 1E0#0000F30300B917E0
(1675525543.330163) vcan0 008#5D8014E032800080
(1675525543.331266) vcan0 010#000000002FB031F8
(1675525543.332299) vcan0 072#F000FF3F0078A038
(1675525543.332372) vcan0 210#07E080A0C169BF45
(1675525543.332446) vcan0 2A9#8C26008AC0000084
(1675525543.333410) vcan0 0E0#627314E000804700
(1675525543.334474) vcan0 0F5#969BA69B7F6B524C
(1675525543.335512) vcan0 120#C69BC19B7F005689
(1675525543.337930) vcan0 130#D7F41DB51B83F111
(1675525543.339102) vcan0 150#9E1BF8A7FDF79AC0
(1675525543.339176) vcan0 125#E5F97FE4C1D0D735
(1675525543.340141) vcan0 008#588024C740800080
(1675525543.342960) vcan0 010#000000002FB031F9
(1675525543.343104) vcan0 1D0#0000000000000A61
(1675525543.343178) vcan0 291#0000000000000000
(1675525543.343251) vcan0 055#F3F7F327B2009C80
(1675525543.343326) vcan0 065#18E7F4F7FECDE101
(1675525543.343468) vcan0 070#00000BF8E0E11500
(1675525543.344099) vcan0 075#0000000000005458
(1675525543.344174) vcan0 080#E04F8000C2002C00
(1675525543.344249) vcan0 0B0#398313A3E0C139A3
(1675525543.344390) vcan0 145#F9D2D280FC4810A1
(1675525543.344465) vcan0 288#EDDFD02F00000080
(1675525543.345156) vcan0 072#F000FF3F00788038
(1675525543.346200) vcan0 3B0#00D870387DB4C400
(1675525543.347302) vcan0 1B0#00C0000001B000FC
(1675525543.348338) vcan0 1B5#FFAC62FC36E0FFEF
(1675525543.349852) vcan0 1D8#363339343234DE43
(1675525543.349996) vcan0 1E0#0004E34300B917E0
(1675525543.350069) vcan0 2C3#669C00FFFFBD5450
(1675525543.350143) vcan0 008#568034AA4F800080
(1675525543.350987) vcan0 260#D0FF0055497487B0
(1675525543.352008) vcan0 010#000000002FB031F8
(1675525543.353043) vcan0 290#0000000000000000
(1675525543.354112) vcan0 0E0#62731EE800801D00
(1675525543.357001) vcan0 210#07E080A0C169BF4D
(1675525543.358105) vcan0 0F5#8A9B879B7F6F424E
(1675525543.358248) vcan0 120#A69BAE9B7F025689
(1675525543.359297) vcan0 130#DFF41DAE1B7AF111
(1675525543.359303) vcan0 150#881BF9B7FDF7A0C0
(1675525543.359372) vcan0 125#E5FE7FE4C1D0D735
(1675525543.360273) vcan0 008#5480448764800080
(1675525543.361308) vcan0 010#000000002FB031F8
(1675525543.362275) vcan0 072#F000FF3F0078A038
(1675525543.362418) vcan0 1D0#0000000000000061
(1675525543.363385) vcan0 055#F3F7F327B2009C80
(1675525543.363458) vcan0 065#16E7F4F7FFCDE001
(1675525543.363531) vcan0 070#00000BF8E0E11500
(1675525543.363676) vcan0 075#0000000000005458
(1675525543.363749) vcan0 080#E04F8000C2002C00
(1675525543.367659) vcan0 0B0#398313A3E0C139A3
(1675525543.367737) vcan0 145#F9C2D380FC4810A1
(1675525543.367815) vcan0 28C#00000000002EBEAA
(1675525543.367894) vcan0 2B5#4B24326293A68600
(1675525543.367971) vcan0 340#AF00000000000000
(1675525543.368698) vcan0 1B0#00C0000005B000FC
(1675525543.368784) vcan0 1B5#FFBE74043FE0FFEF
(1675525543.368862) vcan0 1D8#363339343234DE43
(1675525543.369013) vcan0 1E0#0008D34300B917E0
(1675525543.369814) vcan0 288#F1DFD02F00000080
(1675525543.369892) vcan0 3C8#669C008E882C008E
(1675525543.369969) vcan0 008#5180546B73800080
(1675525543.370842) vcan0 010#000000002FB031F8
(1675525543.371929) vcan0 291#0000000000000000
(1675525543.372944) vcan0 2A9#8C260093C0000084
(1675525543.374037) vcan0 0E0#62731BF000800000
(1675525543.375071) vcan0 072#F000FF3F00788038
(1675525543.377615) vcan0 0F5#809B8F9B7F733250
(1675525543.378651) vcan0 120#B39BB59B7FFC5589
(1675525543.378725) vcan0 130#E7F41DAE1B6AF411
(1675525543.378799) vcan0 150#871BFAC7FCF791C0
(1675525543.378941) vcan0 125#E50180E4C1D0D735
(1675525543.381503) vcan0 008#4F80644F81800080
(1675525543.381578) vcan0 010#000000002FB031F8
(1675525543.382545) vcan0 1D0#0000000000000061
(1675525543.382619) vcan0 210#07E08020C169BF4D
(1675525543.382762) vcan0 260#D0FF00AA497487B0
(1675525543.382836) vcan0 055#F3F7F327B2009C80
(1675525543.383595) vcan0 065#13E7F3F7FECDE001
(1675525543.383739) vcan0 070#00000BF8E0E11500
(1675525543.383812) vcan0 075#0000000000005458
(1675525543.383886) vcan0 080#E04F8000C2002C00
(1675525543.383977) vcan0 0B0#398313A3E0C139A3
(1675525543.384711) vcan0 145#F9B2D480FC4810A1
(1675525543.384789) vcan0 290#0000000000000000
(1675525543.384868) vcan0 2C0#669C00000000A0F1
(1675525543.385017) vcan0 2C5#00E797D018E70070
(1675525543.387624) vcan0 370#1727C0008103CB1F
(1675525543.387711) vcan0 3E0#000000D934808090
(1675525543.388727) vcan0 1B0#00C0000004B000FC
(1675525543.388806) vcan0 1B5#FFD0860D48E0FFEF
(1675525543.388882) vcan0 1D8#363339343234DE43
(1675525543.388960) vcan0 1E0#0008D30300B917E0
(1675525543.389760) vcan0 2C3#669C00FFFFBE5450
(1675525543.389909) vcan0 008#4F80743F81800080
(1675525543.390851) vcan0 010#000000002FB031F8
(1675525543.391940) vcan0 072#F000FF3F0078A038
(1675525543.392956) vcan0 330#2800000000000000
(1675525543.394044) vcan0 0E0#627323F80080D800
(1675525543.394120) vcan0 288#DDDFD02F00000080
(1675525543.394194) vcan0 350#A200000000000080
(1675525543.396463) vcan0 0F5#7E9B849B7F772253
(1675525543.397497) vcan0 120#BC9BB39B7FFC5589
(1675525543.398531) vcan0 130#EFF41DAE1B5AFA11
(1675525543.398623) vcan0 150#811BF5D7FDF787C0
(1675525543.399657) vcan0 125#E50480E4C1D0D735
(1675525543.402542) vcan0 008#4D8084238F800080
(1675525543.402685) vcan0 010#000000002FB031F8
(1675525543.402757) vcan0 1D0#0000000000000861
(1675525543.402832) vcan0 291#0000000000000000
(1675525543.402907) vcan0 055#F3F7F327B2009C80
(1675525543.403529) vcan0 065#11E7F3F7FECDE001
(1675525543.403672) vcan0 070#00000BF8E0E11500
(1675525543.403745) vcan0 075#0000000000005458
(1675525543.403819) vcan0 080#E04F8000C2002C00
(1675525543.404627) vcan0 0B0#398313A3E0C139A3
(1675525543.404706) vcan0 145#F9A2D580FC4810A1
(1675525543.404785) vcan0 28C#00000000002EBEAA
(1675525543.404935) vcan0 2B5#4B24326293A68600
(1675525543.405736) vcan0 072#F000FF3F00788038
(1675525543.406761) vcan0 210#07E080A0C169BF45
(1675525543.409653) vcan0 1B0#00C0000001B000FC
(1675525543.409802) vcan0 1B5#FFE2981651E0FFEF
(1675525543.409882) vcan0 1D8#363339343234DE43
(1675525543.409959) vcan0 1E0#000CC34300B917E0
(1675525543.410038) vcan0 008#4D8094138F800080
(1675525543.410692) vcan0 010#000000002FB031F8
(1675525543.411710) vcan0 2A9#8C26008AC0000084
(1675525543.412799) vcan0 260#D0FF00AA497487B0
(1675525543.412876) vcan0 290#0000000000000000
(1675525543.413894) vcan0 0E0#627321C00080BA00
(1675525543.414872) vcan0 360#709C00D2B745A001
(1675525543.415978) vcan0 0F5#769B879B7F7B1255
(1675525543.416945) vcan0 120#B99BD99B7F005689
(1675525543.417979) vcan0 130#F7F41DAE1B4AFD11
(1675525543.419084) vcan0 150#7F1BF8E7FDF779C0
(1675525543.420474) vcan0 125#E50480E4C1D0D735
(1675525543.420616) vcan0 288#F9DFD02F00000080
(1675525543.420692) vcan0 3CA#00000000400000C8
(1675525543.420766) vcan0 008#4B80A4FD97800080
(1675525543.423518) vcan0 010#000000002FB031F9
(1675525543.423592) vcan0 072#F000FF3F0078A038
(1675525543.423736) vcan0 1D0#0000000000000261
(1675525543.423809) vcan0 055#F3F7F327B2009C80
(1675525543.423883) vcan0 065#12E7F3F700CEE001
(1675525543.423978) vcan0 070#00000BF8E0E11500
(1675525543.424127) vcan0 075#0000000000005458
(1675525543.424202) vcan0 080#E04F8000C2002C00
(1675525543.424550) vcan0 0B0#398313A3E0C139A3
(1675525543.424625) vcan0 145#F992D680FC4810A1
(1675525543.424698) vcan0 390#80FF051D022A554F
(1675525543.425594) vcan0 1B0#00C0000002B000FC
(1675525543.426707) vcan0 1B5#FFF3AA1F5AE0FFEF
(1675525543.427740) vcan0 1D8#363339343234DE43
(1675525543.428775) vcan0 1E0#0010B34300B917E0
(1675525543.431523) vcan0 2C3#669C00FFFFBE5450
(1675525543.431667) vcan0 008#4B80B41173800080
(1675525543.432566) vcan0 010#000000002FB031F8
(1675525543.432639) vcan0 210#07E080A0C169BF45
(1675525543.432712) vcan0 291#0000000000000000
(1675525543.432785) vcan0 3D0#990F6100D11480C3
(1675525543.433615) vcan0 0E0#62731CC800809F00
(1675525543.436436) vcan0 072#F000FF3F00788038
(1675525543.437527) vcan0 0F5#859B849B7F7F0257
(1675525543.438471) vcan0 120#AE9BA19B7F005689
(1675525543.438548) vcan0 130#FFF41DAE1B3AFD11
(1675525543.438700) vcan0 150#841BFFF7FEF764C0
(1675525543.439574) vcan0 125#E50680E4C1D0D735
(1675525543.439661) vcan0 008#4B80C41064800080
(1675525543.440605) vcan0 010#000000002FB031F8
(1675525543.441693) vcan0 1D0#0000000000000061
(1675525543.442638) vcan0 260#D0FF00AA497487B0
(1675525543.442789) vcan0 055#F3F7F327B2009C80
(1675525543.442866) vcan0 065#13E7F3F700CEE001
(1675525543.443736) vcan0 070#00000BF8E0E11500
(1675525543.443815) vcan0 075#0000000000005458
(1675525543.443892) vcan0 080#E04F8000C2002C00
(1675525543.444041) vcan0 0B0#398313A3E0C139A3
(1675525543.444801) vcan0 145#F982D780FC4810A1
(1675525543.444875) vcan0 288#02E0E01F00000080
(1675525543.445019) vcan0 28C#00000000002EBEAA
(1675525543.445094) vcan0 290#0000000000000000
(1675525543.446129) vcan0 2B5#4B24326293A68500
(1675525543.446203) vcan0 2C0#669C00010000A0F1
(1675525543.446356) vcan0 2C5#00E797D015E70070
(1675525543.446429) vcan0 340#AF00000000000000
(1675525543.446503) vcan0 3AF#0000000000000020
(1675525543.449185) vcan0 1B0#00C0000002B000FC
(1675525543.449259) vcan0 1B5#FF05BC2863E0FFEF
(1675525543.449332) vcan0 1D8#363339343234DE43
(1675525543.449406) vcan0 1E0#0010B30300B917E0
(1675525543.450235) vcan0 008#4B80D40E56800080
(1675525543.451271) vcan0 010#000000002FB031F8
(1675525543.452374) vcan0 072#F000FF3F0078A038
(1675525543.453340) vcan0 0E0#627312D000808900
(1675525543.454376) vcan0 2A9#8C260082C0000084
(1675525543.455413) vcan0 210#07E080A0C169BF45
(1675525543.456515) vcan0 0F5#749B799B7F43F259
(1675525543.457553) vcan0 120#A89BA89B7FFF5589
(1675525543.458657) vcan0 130#87F41DA81B30FD11
(1675525543.458740) vcan0 150#761BFF07FEF762C0
(1675525543.459640) vcan0 125#E50480E4C1D0D735
(1675525543.461015) vcan0 008#4B80E41440800080
(1675525543.464057) vcan0 010#000000002FB031F8
(1675525543.464136) vcan0 1D0#0000000000000061
(1675525543.464215) vcan0 291#0000000000000000
(1675525543.464292) vcan0 055#F3F7F327B2009C80
(1675525543.464443) vcan0 065#13E7F3F700CEE001
(1675525543.464520) vcan0 070#00000BF8E0E11500
(1675525543.464598) vcan0 075#0000000000005458
(1675525543.464676) vcan0 080#E04F8000C2002C00
(1675525543.464752) vcan0 0B0#398313A3E0C139A3
(1675525543.464830) vcan0 145#F972D880FC4810A1
(1675525543.465053) vcan0 072#F000FF3F00788038
(1675525543.466141) vcan0 3B0#00D870387DB4C400
(1675525543.467158) vcan0 1B0#00C0000003B000FC
(1675525543.468254) vcan0 1B5#FF17CE316CE0FFEF
(1675525543.468333) vcan0 1D8#363339343234DE43
(1675525543.471154) vcan0 1E0#0014A34300B917E0
(1675525543.471232) vcan0 288#02E0E01F00000080
(1675525543.471383) vcan0 2C3#669C00FFFFBE5450
(1675525543.471460) vcan0 008#4B80F41232800080
(1675525543.472260) vcan0 010#000000002FB031F8
(1675525543.472337) vcan0 330#2800000000000000
(1675525543.472414) vcan0 260#D0FF0055497487B0
(1675525543.473285) vcan0 290#0000000000000000
(1675525543.473363) vcan0 0E0#627312D800806900
(1675525543.474368) vcan0 0F5#719B7B9B7F47E25C
(1675525543.475469) vcan0 120#AE9BB39B7FF95589
(1675525543.476438) vcan0 130#8FF41DA81B20FD11
(1675525543.477473) vcan0 150#761BFF17FFF752C0
(1675525543.478508) vcan0 125#E50480E4C1D0D735
(1675525543.481406) vcan0 008#4B80041123800080
(1675525543.482441) vcan0 010#000000002FB031F8
(1675525543.482515) vcan0 072#F000FF3F0078A038
(1675525543.482659) vcan0 1D0#0000000000000061
(1675525543.482732) vcan0 210#07E080A0C169BF4D
(1675525543.483494) vcan0 055#F3F7F327B2009C80
(1675525543.483637) vcan0 065#12E7F3F7FFCDE001
(1675525543.483710) vcan0 070#00000BF8E0E11500
(1675525543.483785) vcan0 075#0000000000005458
(1675525543.483857) vcan0 080#E04F8000C2002C00
(1675525543.484645) vcan0 0B0#398313A3E0C139A3
(1675525543.484720) vcan0 145#F962D980FC4810A1
(1675525543.487538) vcan0 28C#00000000002EBEAA
(1675525543.487681) vcan0 2B5#4B24326293A68500
(1675525543.487756) vcan0 350#A200000000000080
(1675525543.487831) vcan0 370#1727C0008103CB1F
(1675525543.488532) vcan0 1B0#00C0000002B000FC
(1675525543.488607) vcan0 1B5#FF29E03A75E0FFEF
(1675525543.488751) vcan0 1D8#363339343234DE43
(1675525543.488825) vcan0 1E0#0018934300B917E0
(1675525543.489584) vcan0 3C8#669C008E882C008E
(1675525543.489728) vcan0 008#4B80140123800080
(1675525543.490694) vcan0 010#000000002FB031F8
(1675525543.491730) vcan0 291#0000000000000000
(1675525543.492833) vcan0 2A9#8C26009BC0000084
(1675525543.493867) vcan0 0E0#627316E000804500
(1675525543.493978) vcan0 288#02E0E01F00000080
(1675525543.496512) vcan0 072#F000FF3F00788038
(1675525543.497527) vcan0 0F5#6F9B6F9B7F4BD25E
(1675525543.498615) vcan0 120#A89BB59B7FFA5589
(1675525543.498693) vcan0 130#97F41DA81B10FD11
(1675525543.498770) vcan0 150#6F1B0028FFF749C0
(1675525543.499725) vcan0 125#E50480E4C1D0D735
(1675525543.503844) vcan0 008#4B8024FF15800080
(1675525543.503922) vcan0 010#000000002FB031F9
(1675525543.504036) vcan0 1D0#0000000000000A61
(1675525543.504110) vcan0 260#D0FF0055497487B0
(1675525543.504253) vcan0 055#F3F7F327B2009C80
(1675525543.504328) vcan0 065#0DE7F3F7FDCDE001
(1675525543.504403) vcan0 070#00000BF8E0E11500
(1675525543.504477) vcan0 075#0000000000005458
(1675525543.504620) vcan0 080#E04F8000C2002C00
(1675525543.504693) vcan0 0B0#398313A3E0C139A3
(1675525543.504769) vcan0 145#F952DA80FC4810A1
(1675525543.504980) vcan0 290#0000000000000000
(1675525543.505053) vcan0 2C0#669C00010000A0F1
(1675525543.505134) vcan0 2C5#00E797D012E70070
(1675525543.506028) vcan0 210#07E080A0C169BF4D
(1675525543.507075) vcan0 1B0#00C0000002B000FC
(1675525543.508179) vcan0 1B5#FF3BF2437DE0FFEF
(1675525543.508253) vcan0 1D8#363339343234DE43
(1675525543.509220) vcan0 1E0#0018930300B917E0
(1675525543.509294) vcan0 2C3#669C00FFFFBF5450
(1675525543.510674) vcan0 008#4B8034EF15800080
(1675525543.511708) vcan0 010#000000002FB031F8
(1675525543.512811) vcan0 072#F000FF3F0078A038
(1675525543.513847) vcan0 0E0#627317E800802400
(1675525543.516797) vcan0 360#709C00D2B745A001
(1675525543.517814) vcan0 0F5#669B6F9B7F4FC260
(1675525543.518902) vcan0 120#B39BAE9B7FFE5589
(1675525543.518979) vcan0 130#9FF41DA81B00FD11
(1675525543.519056) vcan0 150#6A1BFC3700F83EC0
(1675525543.519206) vcan0 125#E50480E4C1D0D735
(1675525543.519285) vcan0 288#02E0E01F00000080
(1675525543.519961) vcan0 008#4B8044F400800080
(1675525543.521048) vcan0 010#000000002FB031F8
(1675525543.522136) vcan0 1D0#0000000000000061
(1675525543.523153) vcan0 291#0000000000000000
(1675525543.523229) vcan0 055#F3F7F327B2009C80
(1675525543.523378) vcan0 065#0CE7F3F7FFCDE001
(1675525543.523457) vcan0 070#00000BF8E0E11500
(1675525543.524252) vcan0 075#0000000000005458
(1675525543.527139) vcan0 080#E04F8000C2002C00
(1675525543.527213) vcan0 0B0#398313A3DFC139A3
(1675525543.527287) vcan0 145#F942DB80FC4810A1
(1675525543.527361) vcan0 28C#00000000002EBEAA
(1675525543.527505) vcan0 2B5#4B24326293A68500
(1675525543.527578) vcan0 340#AF00000000000000
(1675525543.527653) vcan0 390#80FF051D0226564F
(1675525543.527727) vcan0 072#F000FF3F00788038
(1675525543.528221) vcan0 1B0#00C0000002B000FC
(1675525543.528297) vcan0 1B5#FF4D044B86E0FFEF
(1675525543.528369) vcan0 1D8#363339343234DE43
(1675525543.529337) vcan0 1E0#001C834300B917E0
(1675525543.529410) vcan0 008#4B8054E400800080
(1675525543.530445) vcan0 010#000000002FB031F8
(1675525543.531480) vcan0 210#07E08020C169BF45
(1675525543.532928) vcan0 2A9#8C260082C0000084
(1675525543.533002) vcan0 260#D0FF0055497487B0
(1675525543.533075) vcan0 290#0000000000000000
(1675525543.533990) vcan0 0E0#62731CF00080FF00
(1675525543.535074) vcan0 0F5#699B5A9B7F53B262
(1675525543.536164) vcan0 120#AE9B929B7FFF5589
(1675525543.537180) vcan0 130#A7F41DA81BF0FD11
(1675525543.538269) vcan0 150#611B024800F837C0
(1675525543.539356) vcan0 125#E50480E4C1D0D735
(1675525543.539445) vcan0 3CA#00000000510000C8
(1675525543.542194) vcan0 008#4B8064D400800080
(1675525543.543211) vcan0 055#F3F7F327B2009C80
(1675525543.543289) vcan0 065#0CE7F3F700CEE001
(1675525543.543439) vcan0 070#00000BF8E0E11500
(1675525543.543516) vcan0 075#0000000000005458
(1675525543.544308) vcan0 010#000000002FB031F8
(1675525543.544384) vcan0 072#F000FF3F0078A038
(1675525543.544457) vcan0 080#E04F8000C2002C00
(1675525543.544601) vcan0 0B0#398313A3E0C139A3
(1675525543.545362) vcan0 145#F932DC80FC4810A1
(1675525543.545435) vcan0 1D0#0000000000000061
(1675525543.545578) vcan0 288#0AE0F00F00000080
(1675525543.545652) vcan0 400#000300030301001C
(1675525543.545728) vcan0 405#0000000000000023
(1675525543.546486) vcan0 581#FFFFFFFFFFFF0081
(1675525543.549314) vcan0 1B0#00C0000003B000FC
(1675525543.549387) vcan0 1B5#FF5F15548FE0FFEF
(1675525543.549461) vcan0 1D8#363339343234DE43
(1675525543.549536) vcan0 1E0#0020734300B917E0
(1675525543.549677) vcan0 2C3#669C00FFFFBF5450
(1675525543.549752) vcan0 008#4B8074C400800080
(1675525543.550375) vcan0 0E0#62731EF80080DD00
(1675525543.551409) vcan0 010#000000002FB031F8
(1675525543.552513) vcan0 291#0000000000000000
(1675525543.553545) vcan0 330#2800000000000000
(1675525543.554628) vcan0 0F5#5A9B699B7F57A264
(1675525543.555718) vcan0 120#969B949B7FFA5589
(1675525543.556735) vcan0 130#AFF41D961BF2F711
(1675525543.557823) vcan0 072#F000FF3F00788038
(1675525543.558948) vcan0 125#E50680E4C1D0D735
(1675525543.561584) vcan0 150#611B025801F827C0
(1675525543.561743) vcan0 210#07E080A0C169BF4D
(1675525543.561821) vcan0 008#4B8084B400800080
(1675525543.562693) vcan0 260#D0FF0055497487B0
(1675525543.562770) vcan0 055#F3F7F327B2009C80
(1675525543.562848) vcan0 065#0CE7F3F700CEE001
(1675525543.563790) vcan0 070#00000BF8E0E11500
(1675525543.563869) vcan0 010#000000002FB031F8
(1675525543.566698) vcan0 075#0000000000005458
(1675525543.566775) vcan0 080#E04F8000C2002C00
(1675525543.566848) vcan0 0B0#398313A3E0C139A3
(1675525543.566990) vcan0 145#F922DD80FC4810A1
(1675525543.567063) vcan0 1D0#0000000000000861
(1675525543.567140) vcan0 28C#00000000002EBEAA
(1675525543.567267) vcan0 290#0000000000000000
(1675525543.567357) vcan0 2B5#4B24326293A68500
(1675525543.567430) vcan0 2C0#669C00000000A0F1
(1675525543.567513) vcan0 2C5#00E797D010E70070
(1675525543.567588) vcan0 3AF#0000000000000020
(1675525543.567661) vcan0 1B0#00C0000002B000FC
(1675525543.568766) vcan0 1B5#FF71275D98E0FFEF
(1675525543.568840) vcan0 1D8#363339343234DE43
(1675525543.568914) vcan0 1E0#0020730300B917E0
(1675525543.570293) vcan0 288#0AE0F00F00000080
(1675525543.570367) vcan0 008#488094990E800080
(1675525543.571332) vcan0 010#000000002FB031F8
(1675525543.572366) vcan0 072#F000FF3F0078A038
(1675525543.572508) vcan0 2A9#8C26009BC0000084
(1675525543.573474) vcan0 0E0#62732FC00080AC00
(1675525543.574571) vcan0 350#A200000000000080
(1675525543.575588) vcan0 0F5#589B679B7F5B9267
(1675525543.576678) vcan0 120#A39B999B7F035689
(1675525543.577694) vcan0 130#B7F41D961BE2F111
(1675525543.580593) vcan0 150#5F1B026801F819C0
(1675525543.580672) vcan0 125#E50680E4C1D0D735
(1675525543.580748) vcan0 008#4680A47D1C800080
(1675525543.581620) vcan0 010#000000002FB031F9
(1675525543.582636) vcan0 1D0#0000000000000261
(1675525543.582712) vcan0 210#07E080A0C169BF4D
(1675525543.582790) vcan0 291#0000000000000000
(1675525543.582868) vcan0 055#F3F7F327B2009C80
(1675525543.583666) vcan0 065#0BE7F3F700CEE001
(1675525543.586501) vcan0 070#00000BF8E0E11500
(1675525543.586576) vcan0 075#0000000000005458
(1675525543.586718) vcan0 080#E04F8000C2002C00
(1675525543.586792) vcan0 0B0#398313A3E0C139A3
(1675525543.586866) vcan0 145#F912DE80FC4810A1
(1675525543.586940) vcan0 370#1727C0008103CB1F
(1675525543.587084) vcan0 072#F000FF3F00788038
(1675525543.587167) vcan0 3B0#00D8703C7DB0C600
(1675525543.587585) vcan0 1B0#00C0000002B000FC
(1675525543.588688) vcan0 1B5#FF833966A1E0FFEF
(1675525543.588762) vcan0 1D8#363339343234DE43
(1675525543.588837) vcan0 1E0#0024634300B917E0
(1675525543.588911) vcan0 2C3#669C00FFFFC05450
(1675525543.589741) vcan0 008#4180B45C32800080
(1675525543.590705) vcan0 010#000000002FB031F8
(1675525543.592223) vcan0 260#D0FF00AA497487B0
(1675525543.593256) vcan0 290#0000000000000000
(1675525543.593398) vcan0 0E0#627339C800808200
(1675525543.594342) vcan0 288#FEDFF00F00000080
(1675525543.595428) vcan0 0F5#589B589B7F5F8269
(1675525543.596518) vcan0 120#8F9B919B7FFE5589
(1675525543.597533) vcan0 130#BFF41D911BD7EF11
(1675525543.601794) vcan0 150#581BFF7702F810C0
(1675525543.601888) vcan0 125#E50980E4C1D0D735
(1675525543.601966) vcan0 008#4180C43E40800080
(1675525543.602117) vcan0 010#000000002FB031F8
(1675525543.602194) vcan0 072#F000FF3F0078A038
(1675525543.602776) vcan0 1D0#0000000000000061
(1675525543.602854) vcan0 055#F3F7F327B2009C80
(1675525543.603003) vcan0 065#09E7F3F7FECDE001
(1675525543.603876) vcan0 070#00000BF8E0E11500
(1675525543.603960) vcan0 075#0000000000005458
(1675525543.604035) vcan0 080#E04F8000C2002C00
(1675525543.604109) vcan0 0B0#398313A3E0C139A3
(1675525543.604252) vcan0 145#F902DF80FC4810A1
(1675525543.604945) vcan0 28C#00000000002EBEAA
(1675525543.605019) vcan0 2B5#4B24326293A68500
(1675525543.605091) vcan0 340#AF00000000000000
(1675525543.605990) vcan0 210#07E080A0C169BF45
(1675525543.607101) vcan0 1B0#00C0000002B000FC
(1675525543.608136) vcan0 1B5#FF944B6FAAE0FFEF
(1675525543.609169) vcan0 1D8#363339343234DE43
(1675525543.610613) vcan0 1E0#0028534300B917E0
(1675525543.610687) vcan0 3C8#669C008E882C008E
(1675525543.610830) vcan0 008#3F80D4214F800080
(1675525543.611659) vcan0 010#000000002FB031F8
(1675525543.612761) vcan0 291#0000000000000000
(1675525543.612837) vcan0 2A9#8C260082C0000084
(1675525543.613802) vcan0 0E0#62733AD000806100
(1675525543.617948) vcan0 072#F000FF3F00788038
(1675525543.618098) vcan0 360#709C00D2B345A001
(1675525543.618177) vcan0 0F5#4E9B559B7F63726B
(1675525543.618256) vcan0 120#9C9B949B7FFF5589
(1675525543.619052) vcan0 130#C7F41D911BC7EF11
(1675525543.619130) vcan0 150#511BFD8702F807C0
(1675525543.619218) vcan0 125#E50F80E4C1D0D735
(1675525543.619296) vcan0 288#02E0F00F00000080
(1675525543.620093) vcan0 008#3D80E4055D800080
(1675525543.621181) vcan0 010#000000002FB031F8
(1675525543.622269) vcan0 1D0#0000000000000061
(1675525543.622345) vcan0 390#80FF051D0222576F
(1675525543.623289) vcan0 260#D0FF00AA497487B0
(1675525543.623439) vcan0 055#F3F7F327B2009C80
(1675525543.623518) vcan0 065#0AE7F3F700CEE001
(1675525543.623594) vcan0 070#00000BF8E0E11500
(1675525543.623673) vcan0 075#0000000000005458
(1675525543.624386) vcan0 080#E04F8000C2002C00
(1675525543.624460) vcan0 0B0#398313A3E0C139A3
(1675525543.624602) vcan0 145#F9F2D080FC4810A1
(1675525543.627216) vcan0 290#0000000000000000
(1675525543.627358) vcan0 2C0#669C00010000A0F1
(1675525543.627441) vcan0 2C5#00E796D10CE70070
(1675525543.628339) vcan0 1B0#00C0000002B000FC
(1675525543.628414) vcan0 1B5#FFA65D78B3E0FFEF
(1675525543.628486) vcan0 1D8#363339343234DE43
(1675525543.629386) vcan0 1E0#0028530300B917E0
(1675525543.629460) vcan0 2C3#669C00FFFFC05450
(1675525543.629535) vcan0 008#3B80F4F75D800080
(1675525543.630567) vcan0 010#000000002FB031F8
(1675525543.631603) vcan0 072#F000FF3F0078A038
(1675525543.632636) vcan0 210#07E080A0C169BF45
(1675525543.632779) vcan0 330#2800000000000000
(1675525543.632853) vcan0 3D0#990F6100D11480C3
(1675525543.635494) vcan0 0E0#627330D800804B00
(1675525543.636582) vcan0 0F5#5D9B589B7F67626D
(1675525543.637669) vcan0 120#999B829B7F005689
(1675525543.638685) vcan0 130#CFF41D911BB7EF11
(1675525543.638773) vcan0 150#5A1B009803F8EEC0
(1675525543.638850) vcan0 125#E51280E4C1D0D735
(1675525543.639865) vcan0 008#3B8004D173800080
(1675525543.640951) vcan0 010#000000002FB031F8
(1675525543.641965) vcan0 1D0#0000000000000061
(1675525543.642043) vcan0 291#0000000000000000
(1675525543.643059) vcan0 055#F3F7F327B2009C80
(1675525543.645868) vcan0 065#09E7F3F7FFCDE001
(1675525543.645942) vcan0 070#00000BF8E0E11500
(1675525543.646085) vcan0 075#0000000000005458
(1675525543.646159) vcan0 080#E04F8000C2002C00
(1675525543.646232) vcan0 0B0#398313A3E0C139A3
(1675525543.646306) vcan0 145#F9E2D180FC4810A1
(1675525543.646449) vcan0 288#06E000FF00000080
(1675525543.646524) vcan0 28C#00000000002EBEAA
(1675525543.646599) vcan0 2B5#4B24326293A68400
(1675525543.646957) vcan0 072#F000FF3F00788038
(1675525543.647993) vcan0 1B0#00C0000002B000FC
(1675525543.648136) vcan0 1B5#FFB86F81BBE0FFEF
(1675525543.649102) vcan0 1D8#363339343234DE43
(1675525543.649177) vcan0 1E0#002C434300B917E0
(1675525543.650145) vcan0 008#388014B681800080
(1675525543.653032) vcan0 260#D0FF00AA497487B0
(1675525543.653107) vcan0 290#0000000000000000
(1675525543.653180) vcan0 010#000000002FB031F8
(1675525543.653254) vcan0 2A9#8C26008AC0000084
(1675525543.654097) vcan0 0E0#627332E000802900
(1675525543.655134) vcan0 210#07E080A0C169BF45
(1675525543.656237) vcan0 0F5#4E9B559B7F6B5270
(1675525543.657271) vcan0 120#7B9B989B7FFF5589
(1675525543.658374) vcan0 130#D7F41D8F1BA9F411
(1675525543.658448) vcan0 150#511B00A804F8E7C0
(1675525543.659436) vcan0 125#E51780E4C1D0D735
(1675525543.662254) vcan0 3CA#00000000520000C8
(1675525543.662327) vcan0 008#3680249A8F800080
(1675525543.662472) vcan0 010#000000002FB031F9
(1675525543.662546) vcan0 072#F000FF3F0078A038
(1675525543.662618) vcan0 1D0#0000000000000A61
(1675525543.663312) vcan0 055#F3F7F327B2009C80
(1675525543.663454) vcan0 065#07E7F3F7FFCDE001
(1675525543.663528) vcan0 070#00000BF8E0E11500
(1675525543.663602) vcan0 075#0000000000005458
(1675525543.664392) vcan0 080#E04F8000C2002C00
(1675525543.664465) vcan0 0B0#398313A3E0C139A3
(1675525543.664609) vcan0 145#F9D2D280FC4810A1
(1675525543.664685) vcan0 350#A200000000000080
(1675525543.665444) vcan0 1B0#00C0000002B000FC
(1675525543.666549) vcan0 1B5#FFCA8089C4E0FFEF
(1675525543.669376) vcan0 1D8#363339343234DE43
(1675525543.669450) vcan0 1E0#0030334300B917E0
(1675525543.669593) vcan0 288#0AE000FF00000080
(1675525543.669667) vcan0 2C3#669C00FFFFC05450
(1675525543.669740) vcan0 008#3480348C8F800080
(1675525543.670431) vcan0 010#000000002FB031F8
(1675525543.671534) vcan0 291#0000000000000000
(1675525543.672569) vcan0 0E0#627335E800800600
(1675525543.673603) vcan0 072#F000FF3F00788038
(1675525543.674700) vcan0 0F5#4B9B539B7F6F4272
(1675525543.675789) vcan0 120#849B879B7FFF5589
(1675525543.676806) vcan0 130#DFF41D871BA1F411
(1675525543.677893) vcan0 150#4F1B02B804F8D9C0
(1675525543.679199) vcan0 125#E51A80E4C1D0D735
(1675525543.679348) vcan0 008#3480448A81800080
(1675525543.682241) vcan0 010#000000002FB031F8
(1675525543.682328) vcan0 1D0#0000000000000061
(1675525543.682407) vcan0 210#07E08020C169BF4D
(1675525543.682556) vcan0 260#D0FF0055497487B0
(1675525543.683356) vcan0 055#F3F7F327B2009C80
(1675525543.683434) vcan0 065#06E7F3F7FFCDE001
(1675525543.683512) vcan0 070#00000BF8E0E11500
(1675525543.683590) vcan0 075#0000000000005458
(1675525543.684376) vcan0 080#E04F8000C2002C00
(1675525543.684451) vcan0 0B0#398313A3E0C139A3
(1675525543.684593) vcan0 145#F9C2D380FC4810A1
(1675525543.684669) vcan0 28C#00000000002EBEAA
(1675525543.685499) vcan0 290#0000000000000000
(1675525543.685572) vcan0 2B5#4B24326293A68400
(1675525543.685646) vcan0 2C0#669C00000000A0F1
(1675525543.688394) vcan0 2C5#00E796D10AE70070
(1675525543.688468) vcan0 340#AF00000000000000
(1675525543.688552) vcan0 370#1727C0008103CB1F
(1675525543.688694) vcan0 3AF#0000000000000020
(1675525543.688768) vcan0 3E0#000000D934808090
(1675525543.688843) vcan0 1B0#00C0000003B000FC
(1675525543.688915) vcan0 1B5#FFDC9292CDE0FFEF
(1675525543.689058) vcan0 1D8#363339343234DE43
(1675525543.689134) vcan0 1E0#0030330300B917E0
(1675525543.689483) vcan0 008#3280547C81800080
(1675525543.690517) vcan0 010#000000002FB031F8
(1675525543.691622) vcan0 072#F000FF3F0078A038
(1675525543.692655) vcan0 2A9#8C260093C0000084
(1675525543.693621) vcan0 0E0#627336F00080E500
(1675525543.693764) vcan0 288#0AE000FF00000080
(1675525543.697590) vcan0 0F5#4A9B509B7F733274
(1675525543.698609) vcan0 120#809B799B7FFC5589
(1675525543.698685) vcan0 130#E7F41D801B98F111
(1675525543.698773) vcan0 150#4C1B02C805F8CCC0
(1675525543.698925) vcan0 125#E51D80E4C1D0D735
(1675525543.699723) vcan0 008#3280647A73800080
(1675525543.700741) vcan0 010#000000002FB031F8
(1675525543.701828) vcan0 1D0#0000000000000061
(1675525543.702847) vcan0 291#0000000000000000
(1675525543.702997) vcan0 055#F3F7F327B2009C80
(1675525543.703075) vcan0 065#04E7F3F7FECDE001
(1675525543.705803) vcan0 070#00000BF8E0E11500
(1675525543.705879) vcan0 075#0000000000005458
(1675525543.706022) vcan0 080#E04F8000C2002C00
(1675525543.706096) vcan0 0B0#398313A3E0C139A3
(1675525543.706170) vcan0 145#F9B2D480FC4810A1
(1675525543.706862) vcan0 072#F000FF3F00788038
(1675525543.707005) vcan0 210#07E080A0C169BF4D
(1675525543.707080) vcan0 3B0#00D870387DB0C400
(1675525543.707926) vcan0 1B0#00C0000000B000FC
(1675525543.708070) vcan0 1B5#FFEEA49BD6E0FFEF
(1675525543.709035) vcan0 1D8#363339343234DE43
(1675525543.709111) vcan0 1E0#0034234300B917E0
(1675525543.709184) vcan0 2C3#669C00FFFFC15450
(1675525543.710082) vcan0 008#3280747964800080
(1675525543.711187) vcan0 010#000000002FB031F8
(1675525543.712496) vcan0 330#2800000000000000
(1675525543.712571) vcan0 260#D0FF0055497487B0
(1675525543.712644) vcan0 290#0000000000000000
(1675525543.713543) vcan0 0E0#627337F80080C400
(1675525543.714628) vcan0 360#709C00D2B345A001
(1675525543.718604) vcan0 0F5#3D9B459B7F772276
(1675525543.718682) vcan0 120#879B849B7F0F5689
(1675525543.718832) vcan0 130#EFF41D801B88F111
(1675525543.718910) vcan0 150#411B03D806F8C7C0
(1675525543.718996) vcan0 125#E51D80E4C1D0D735
(1675525543.719723) vcan0 288#0AE000FF00000080
(1675525543.719801) vcan0 008#2F80847A56800080
(1675525543.720744) vcan0 010#000000002FB031F8
(1675525543.721830) vcan0 072#F000FF3F0078A038
(1675525543.722846) vcan0 1D0#0000000000000061
(1675525543.722996) vcan0 055#F3F7F327B2009C80
(1675525543.723074) vcan0 065#04E7F3F700CEE001
(1675525543.723952) vcan0 070#00000BF8E0E11500
(1675525543.724027) vcan0 075#0000000000005458
(1675525543.724101) vcan0 080#E04F8000C2002C00
(1675525543.726782) vcan0 0B0#398313A3E0C139A3
(1675525543.726857) vcan0 145#F9A2D580FC4810A1
(1675525543.727001) vcan0 28C#00000000002EBEAA
(1675525543.727075) vcan0 2B5#4B24326293A68400
(1675525543.727148) vcan0 390#80FF051D021E584F
(1675525543.727849) vcan0 1B0#00C0000002B000FC
(1675525543.728952) vcan0 1B5#FFFFB6A4DFE0FFEF
(1675525543.729027) vcan0 1D8#363339343234DE43
(1675525543.729101) vcan0 1E0#0038134300B917E0
(1675525543.729175) vcan0 3C8#669C008E882C008E
(1675525543.730004) vcan0 008#2F80946A56800080
(1675525543.731038) vcan0 010#000000002FB031F8
(1675525543.732141) vcan0 210#07E080A0C169BF45
(1675525543.732214) vcan0 291#0000000000000000
(1675525543.733180) vcan0 2A9#8C26008AC0000084
(1675525543.734555) vcan0 0E0#62732AC00080B100
(1675525543.735573) vcan0 072#F000FF3F00788038
(1675525543.736660) vcan0 0F5#4B9B539B7F7B1279
(1675525543.737747) vcan0 120#829B749B7F005689
(1675525543.738764) vcan0 130#F7F41D801B78F111
(1675525543.741656) vcan0 150#4F1B03E807F8A9C0
(1675525543.741742) vcan0 125#E51D80E4C1D0D735
(1675525543.741819) vcan0 008#2F80A47040800080
(1675525543.741950) vcan0 010#000000002FB031F9
(1675525543.742698) vcan0 1D0#0000000000000A61
(1675525543.742776) vcan0 260#D0FF0055497487B0
(1675525543.742852) vcan0 055#F3F7F327B2009C80
(1675525543.743003) vcan0 065#04E7F3F700CEE001
(1675525543.743801) vcan0 070#00000BF8E0E11500
(1675525543.743880) vcan0 075#0000000000005458
(1675525543.743965) vcan0 080#E04F8000C2002C00
(1675525543.744039) vcan0 0B0#398313A3E0C139A3
(1675525543.744869) vcan0 145#F992D680FC4810A1
(1675525543.744944) vcan0 288#0EE010EF00000080
(1675525543.745017) vcan0 290#0000000000000000
(1675525543.747765) vcan0 2C0#669C00010000A0F1
(1675525543.747839) vcan0 2C5#00E796D106E70070
(1675525543.747990) vcan0 1B0#00C0000002B000FC
(1675525543.748819) vcan0 1B5#FF11C8ADE8E0FFEF
(1675525543.748964) vcan0 1D8#363339343234DE43
(1675525543.749038) vcan0 1E0#0038130300B917E0
(1675525543.749110) vcan0 2C3#669C00FFFFC15450
(1675525543.749939) vcan0 008#2F80B46E32800080
(1675525543.750973) vcan0 010#000000002FB031F8
(1675525543.752077) vcan0 072#F000FF3F0078A038
(1675525543.753110) vcan0 0E0#62731FC800809C00
(1675525543.754192) vcan0 350#A200000000000080
(1675525543.755208) vcan0 210#07E080A0C169BF4D
(1675525543.756296) vcan0 0F5#429B479B7F7F027B
(1675525543.758830) vcan0 120#6C9B769B7F025689
(1675525543.758981) vcan0 130#FFF41D731B75EC11
(1675525543.759057) vcan0 125#E51D80E4C1D0D735
(1675525543.759134) vcan0 150#441B03F807F8A4C0
(1675525543.759944) vcan0 008#2F80C46D23800080
(1675525543.762763) vcan0 010#000000002FB031F8
(1675525543.762841) vcan0 1D0#0000000000000061
(1675525543.762990) vcan0 291#0000000000000000
(1675525543.763068) vcan0 055#F3F7F327B2009C80
(1675525543.763145) vcan0 065#05E7F3F701CEE001
(1675525543.763872) vcan0 070#00000BF8E0E11500
(1675525543.763957) vcan0 075#0000000000005458
(1675525543.764032) vcan0 080#E04F8000C2002C00
(1675525543.764106) vcan0 0B0#398313A3E0C139A3
(1675525543.764937) vcan0 145#F982D780FC4810A1
(1675525543.765011) vcan0 28C#00000000002EBEAA
(1675525543.765086) vcan0 2B5#4B24326293A6A000
(1675525543.765229) vcan0 340#AF00000000000000
(1675525543.765989) vcan0 072#F000FF3F00788038
(1675525543.767024) vcan0 1B0#00C0000002B000FC
(1675525543.768684) vcan0 1B5#FF23D9B6F0E0FFEF
(1675525543.768758) vcan0 1D8#363339343234DE43
(1675525543.768832) vcan0 1E0#003C034300B917E0
(1675525543.768908) vcan0 288#06E010EF00000080
(1675525543.769734) vcan0 008#2F80D46B15800080
(1675525543.770768) vcan0 010#000000002FB031F8
(1675525543.771873) vcan0 2A9#8C260093C0000084
(1675525543.772909) vcan0 260#D0FF00AA497487B0
(1675525543.772982) vcan0 290#0000000000000000
(1675525543.773981) vcan0 0E0#62731FD000807C00
(1675525543.778248) vcan0 0F5#3D9B459B7F43F27D
(1675525543.778398) vcan0 120#769B769B7F035689
(1675525543.778477) vcan0 130#87F41D6F1B69EC11
(1675525543.779347) vcan0 150#411B000808F897C0
(1675525543.779424) vcan0 125#E51A80E4C1D0D735
(1675525543.779502) vcan0 3CA#00000000530000C8
(1675525543.779590) vcan0 008#2F80E45B15800080
(1675525543.780389) vcan0 010#000000002FB031F8
(1675525543.781549) vcan0 072#F000FF3F0078A038
(1675525543.782638) vcan0 1D0#0000000000000061
(1675525543.782716) vcan0 210#07E080A0C169BF4D
(1675525543.782794) vcan0 055#F3F7F327B2009C80
(1675525543.783664) vcan0 065#04E7F3F7FFCDE001
(1675525543.783814) vcan0 070#00000BF8E0E11500
(1675525543.783891) vcan0 075#0000000000005458
(1675525543.783978) vcan0 080#E04F8000C2002C00
(1675525543.784740) vcan0 0B0#398313A3E0C139A3
(1675525543.784814) vcan0 145#F972D880FC4810A1
(1675525543.784889) vcan0 370#1727C0008103CB1F
(1675525543.785785) vcan0 1B0#00C0000003B000FC
(1675525543.788194) vcan0 1B5#FF35EBBEF9E0FFEF
(1675525543.788268) vcan0 1D8#363339343234DE43
(1675525543.789243) vcan0 1E0#0000F34300B917E0
(1675525543.789318) vcan0 2C3#669C00FFFFC25450
(1675525543.789461) vcan0 008#2F80F46000800080
(1675525543.792211) vcan0 010#000000002FB031F8
(1675525543.792285) vcan0 291#0000000000000000
(1675525543.792360) vcan0 330#2800000000000000
(1675525543.793255) vcan0 400#010300010100011D
(1675525543.793328) vcan0 405#2AF8355C111B6701
(1675525543.793404) vcan0 425#0000000000000000
(1675525543.793547) vcan0 0E0#62731CD800805F00
(1675525543.794237) vcan0 288#0EE010EF00000080
(1675525543.795340) vcan0 072#F000FF3F00788038
(1675525543.796444) vcan0 0F5#3B9B389B7F47E27F
(1675525543.797548) vcan0 120#669B7B9B7FFE5589
(1675525543.798581) vcan0 130#8FF41D6F1B59EF11
(1675525543.798724) vcan0 125#E51A80E4C1D0D735
(1675525543.799640) vcan0 150#391B041808F88FC0
(1675525543.799784) vcan0 008#2F80045000800080
(1675525543.802257) vcan0 010#000000002FB031F8
(1675525543.802332) vcan0 1D0#0000000000000861
(1675525543.802406) vcan0 260#D0FF00AA497487B0
(1675525543.803301) vcan0 055#F3F7F327B2009C80
(1675525543.803375) vcan0 065#01E7F3F7FDCDE001
(1675525543.803518) vcan0 070#00000BF8E0E11500
(1675525543.803593) vcan0 075#0000000000005458
(1675525543.804410) vcan0 080#E04F8000C2002C00
(1675525543.804488) vcan0 0B0#398313A3E0C139A3
(1675525543.808610) vcan0 145#F962D980FC4810A1
(1675525543.808759) vcan0 28C#00000000002EBEAA
(1675525543.808837) vcan0 290#0000000000000000
(1675525543.808914) vcan0 2B5#4B24316293A6B000
(1675525543.808993) vcan0 2C0#669C00010000A0F1
(1675525543.809080) vcan0 2C5#00E796D105E70070
(1675525543.809158) vcan0 3AF#0000000000000020
(1675525543.809310) vcan0 210#07E080A0C169BF45
(1675525543.809388) vcan0 1B0#00C0000002B000FC
(1675525543.809465) vcan0 1B5#FF46FDC702E0FFEF
(1675525543.809544) vcan0 1D8#363339343234DE43
(1675525543.809622) vcan0 1E0#0000F30300B917E0
(1675525543.809699) vcan0 008#2F80144000800080
(1675525543.810789) vcan0 010#000000002FB031F8
(1675525543.811876) vcan0 072#F000FF3F0078A038
(1675525543.812892) vcan0 2A9#8C26008AC0000084
(1675525543.813986) vcan0 0E0#62731AE000804100
(1675525543.815093) vcan0 360#709C00D2B345A001
(1675525543.816127) vcan0 0F5#3B9B319B7F4BD281
(1675525543.817163) vcan0 120#849B679B7F035689
(1675525543.818542) vcan0 130#97F41D6F1B49F411
(1675525543.818624) vcan0 125#E51780E4C1D0D735
(1675525543.819590) vcan0 150#361B002809F882C0
(1675525543.819665) vcan0 288#02E010EF00000080
(1675525543.819739) vcan0 008#2F80243000800080
(1675525543.822489) vcan0 010#000000002FB031F9
(1675525543.822631) vcan0 1D0#0000000000000261
(1675525543.822705) vcan0 291#0000000000000000
(1675525543.822778) vcan0 055#F4F7F427B2009C80
(1675525543.823608) vcan0 065#01E7F4F7FFCDE101
(1675525543.823680) vcan0 070#00000AF8E1E11500
(1675525543.823756) vcan0 075#0000000000005458
(1675525543.823899) vcan0 080#E14F8000C2002C00
(1675525543.824649) vcan0 0B0#398313A3E0C139A3
(1675525543.824722) vcan0 145#F952DA80FC4810A1
(1675525543.824798) vcan0 390#80FF051D021A594F
(1675525543.825695) vcan0 072#F000FF3F00788038
(1675525543.826737) vcan0 3B0#00D870387DB0C400
(1675525543.827909) vcan0 1B0#00C0000001B000FC
(1675525543.829013) vcan0 1B5#FF580FD00BE0FFEF
(1675525543.831898) vcan0 1D8#363339343234DE43
(1675525543.831972) vcan0 1E0#0004E34300B917E0
(1675525543.832115) vcan0 2C3#669C00FFFFC25450
(1675525543.832188) vcan0 008#2F80342000800080
(1675525543.832262) vcan0 010#000000002FB031F8
(1675525543.832336) vcan0 210#07E08020C169BF45
(1675525543.832960) vcan0 3D0#990F6100D11480C3
(1675525543.833102) vcan0 260#D0FF00AA497487B0
(1675525543.833176) vcan0 290#0000000000000000
(1675525543.834061) vcan0 0E0#62731BE800802000
(1675525543.835099) vcan0 430#2808280000002DC6
(1675525543.836271) vcan0 0F5#409B479B7F4FC284
(1675525543.837308) vcan0 120#7E9B5A9B7F005689
(1675525543.838350) vcan0 130#9FF41D6F1B39F411
(1675525543.838424) vcan0 125#E51780E4C1D0D735
(1675525543.841312) vcan0 150#431B043809F865C0
(1675525543.841387) vcan0 008#2F80441000800080
(1675525543.842350) vcan0 010#000000002FB031F8
(1675525543.842425) vcan0 072#F000FF3F0078A038
(1675525543.842567) vcan0 1D0#0000000000000061
(1675525543.843395) vcan0 055#F4F7F427B2009C80
(1675525543.843540) vcan0 065#01E7F4F7FFCDE101
(1675525543.843613) vcan0 070#00000AF8E1E11500
(1675525543.843688) vcan0 075#0000000000005458
(1675525543.843760) vcan0 080#E14F8000C2002C00
(1675525543.844510) vcan0 0B0#398313A3E1C139A3
(1675525543.844585) vcan0 145#F942DB80FC4810A1
(1675525543.844729) vcan0 288#16E020DF00000080
(1675525543.844802) vcan0 28C#00000000002EBEAA
(1675525543.845572) vcan0 2B5#4B24316293A6B300
(1675525543.848525) vcan0 340#AF00000000000000
(1675525543.848599) vcan0 350#A200000000000080
(1675525543.848741) vcan0 1B0#00C0000003B000FC
(1675525543.848816) vcan0 1B5#FF6A20D914E0FFEF
(1675525543.848889) vcan0 1D8#363339343234DE43
(1675525543.848966) vcan0 1E0#0008D34300B917E0
(1675525543.849586) vcan0 3C8#669C008E882C008E
(1675525543.849660) vcan0 008#2F80540000800080
(1675525543.850693) vcan0 010#000000002FB031F8
(1675525543.851796) vcan0 291#0000000000000000
(1675525543.852899) vcan0 0E0#627327F00080F400
(1675525543.853968) vcan0 2A9#8C260082C0000084
(1675525543.855006) vcan0 072#F000FF3F00788038
(1675525543.856108) vcan0 210#07E080A0C169BF45
(1675525543.858999) vcan0 0F5#339B3B9B7F53B286
(1675525543.859084) vcan0 120#5D9B6F9B7F085689
(1675525543.859159) vcan0 130#A7F41D691B2FFA11
(1675525543.859302) vcan0 125#E51A80E4C1D0D735
(1675525543.859376) vcan0 150#371B064809F861C0
(1675525543.860068) vcan0 008#2F8064F000800080
(1675525543.861171) vcan0 010#000000002FB031F8
(1675525543.862273) vcan0 1D0#0000000000000061
(1675525543.862347) vcan0 260#D0FF00AA497487B0
(1675525543.863382) vcan0 055#F4F7F427B2009C80
(1675525543.863456) vcan0 065#01E7F4F700CEE201
(1675525543.866143) vcan0 070#00000AF8E2E11500
(1675525543.866221) vcan0 075#0000000000005458
(1675525543.866300) vcan0 080#E24F8000C2002C00
(1675525543.866377) vcan0 0B0#398313A3E1C139A3
(1675525543.866526) vcan0 145#F932DC80FC4810A1
(1675525543.866603) vcan0 290#0000000000000000
(1675525543.866730) vcan0 2C0#669C00000000A0F1
(1675525543.866768) vcan0 2C5#00E796D203E70070
(1675525543.867209) vcan0 1B0#00C0000002B000FC
(1675525543.868298) vcan0 1B5#FF7C32E21CE0FFEF
(1675525543.868374) vcan0 1D8#363339343234DE43
(1675525543.869317) vcan0 1E0#0008D30300B917E0
(1675525543.869467) vcan0 288#22E020DF00000080
(1675525543.869546) vcan0 2C3#669C00FFFFC25450
(1675525543.869623) vcan0 008#2F8074E000800080
(1675525543.871867) vcan0 010#000000002FB031F8
(1675525543.871944) vcan0 072#F000FF3F0078A038
(1675525543.872890) vcan0 330#2800000000000000
(1675525543.873981) vcan0 0E0#62732BF80080D000
(1675525543.877836) vcan0 0F5#319B389B7F57A288
(1675525543.878940) vcan0 120#629B5A9B7F025689
(1675525543.879014) vcan0 130#AFF71D5D1B2BF411
(1675525543.879098) vcan0 125#E51A80E4C1D0D735
(1675525543.879171) vcan0 150#341B0A5809F854C0
(1675525543.880002) vcan0 008#2F8084D000800080
(1675525543.881038) vcan0 010#000000002FB031F8
(1675525543.882142) vcan0 1D0#0000000000000061
(1675525543.882214) vcan0 210#01E080A0C169BF4D
(1675525543.883115) vcan0 291#0000000000000000
(1675525543.883189) vcan0 055#F4F7F427B2009C80
(1675525543.883263) vcan0 065#00E7F4F700CEE201
(1675525543.883365) vcan0 070#00000AF8E2E11500
(1675525543.884189) vcan0 075#0000000000005458
(1675525543.884265) vcan0 080#E24F8000C2002C00
(1675525543.885643) vcan0 0B0#398313A3E1C139A3
(1675525543.885718) vcan0 145#F922DD80FC4810A1
(1675525543.885793) vcan0 28C#00000000002EBEAA
(1675525543.885867) vcan0 2B5#4B24316293A6B300
(1675525543.885950) vcan0 370#1727C0008103CB1F
(1675525543.886710) vcan0 072#F000FF3F00788038
(1675525543.887745) vcan0 1B0#00C0000004B000FC
(1675525543.888780) vcan0 1B5#FF8D44EA25E0FFEF
(1675525543.888922) vcan0 1D8#363339343234DE43
(1675525543.888998) vcan0 1E0#000CC34300B917E0
(1675525543.891683) vcan0 008#2F8094C000800080
(1675525543.891755) vcan0 010#000000002FB031F8
(1675525543.891828) vcan0 2A9#8C26009BC0000084
(1675525543.892728) vcan0 260#D0FF0055497487B0
(1675525543.892802) vcan0 290#0000000000000000
(1675525543.893768) vcan0 0E0#62732EC00080AD00
(1675525543.893911) vcan0 288#0EE020DF00000080
(1675525543.894787) vcan0 0F5#319B2E9B7F5B928A
(1675525543.895892) vcan0 120#509B699B7F005689
(1675525543.896926) vcan0 130#B7F41D5D1B1BF111
(1675525543.897969) vcan0 125#E51A80E4C1D0D735
(1675525543.899075) vcan0 150#2F1B00680AF849C0
(1675525543.899148) vcan0 3CA#00000000540000C8
(1675525543.900114) vcan0 008#2F80A4B000800080
(1675525543.901149) vcan0 010#000000002FB031F9
(1675525543.903898) vcan0 072#F000FF3F0078A038
(1675525543.904048) vcan0 1D0#0000000000000A61
(1675525543.904127) vcan0 055#F4F7F427B2009C80
(1675525543.904206) vcan0 065#FDE6F4F7FECDE101
(1675525543.904284) vcan0 070#00000AF8E1E11500
(1675525543.904362) vcan0 075#0000000000005458
(1675525543.904439) vcan0 080#E14F8000C2002C00
(1675525543.904589) vcan0 0B0#398313A3E1C139A3
(1675525543.904956) vcan0 145#F912DE80FC4810A1
(1675525543.907851) vcan0 210#01E080A0C169BF4D
(1675525543.907928) vcan0 1B0#00C0000001B000FC
(1675525543.908957) vcan0 1B5#FF9F55F32EE0FFEF
(1675525543.909034) vcan0 1D8#363339343234DE43
(1675525543.909112) vcan0 1E0#0010B34300B917E0
(1675525543.909189) vcan0 2C3#669C00FFFFC35450
(1675525543.909989) vcan0 008#2F80B4A000800080
(1675525543.911078) vcan0 010#000000002FB031F8
(1675525543.912093) vcan0 291#0000000000000000
(1675525543.913182) vcan0 0E0#627326C800809500
(1675525543.914278) vcan0 072#F000FF3F00788038
(1675525543.915365) vcan0 360#709C00D2B345A001
(1675525543.916385) vcan0 0F5#1F9B299B7F5F828C
(1675525543.917909) vcan0 120#749B629B7F005689
(1675525543.918998) vcan0 130#BFF41D5D1B0BF111
(1675525543.919075) vcan0 125#E51A80E4C1D0D735
(1675525543.919152) vcan0 150#241B02780AF844C0
(1675525543.919231) vcan0 288#1AE020DF00000080
(1675525543.920044) vcan0 008#2F80C49000800080
(1675525543.922864) vcan0 010#000000002FB031F8
(1675525543.922943) vcan0 1D0#0000000000000061
(1675525543.923093) vcan0 260#D0FF0055497487B0
(1675525543.923171) vcan0 055#F4F7F427B2009C80
(1675525543.923249) vcan0 065#FDE6F4F700CEE101
(1675525543.923983) vcan0 070#00000AF8E1E11500
(1675525543.924058) vcan0 075#0000000000005458
(1675525543.924133) vcan0 080#E14F8000C2002C00
(1675525543.924209) vcan0 0B0#398313A3E1C139A3
(1675525543.925038) vcan0 145#F902DF80FC4810A1
(1675525543.925112) vcan0 28C#00000000002EBEAA
(1675525543.925187) vcan0 290#0000000000000000
(1675525543.925261) vcan0 2B5#4B24316293A6B300
(1675525543.925406) vcan0 2C0#669C00000000A0F1
(1675525543.926096) vcan0 2C5#00E795D201E70070
(1675525543.930364) vcan0 340#AF00000000000000
(1675525543.930439) vcan0 390#80FF051D02165A4F
(1675525543.930513) vcan0 3AF#0000000000000020
(1675525543.930657) vcan0 1B0#00C0000003B000FC
(1675525543.930732) vcan0 1B5#FFB167FC37E0FFEF
(1675525543.930805) vcan0 1D8#363339343234DE43
(1675525543.930879) vcan0 1E0#0010B30300B917E0
(1675525543.931022) vcan0 008#2F80D48000800080
(1675525543.931440) vcan0 010#000000002FB031F8
(1675525543.932610) vcan0 072#F000FF3F0078A038
(1675525543.932684) vcan0 210#01E080A0C169BF45
(1675525543.932760) vcan0 2A9#8C260082C0000084
(1675525543.933587) vcan0 0E0#627326D000807500
(1675525543.934640) vcan0 350#A200000000000080
(1675525543.935677) vcan0 0F5#319B339B7F63728F
(1675525543.936780) vcan0 120#589B589B7F035689
(1675525543.937836) vcan0 130#C7F41D581B00EF11
(1675525543.938871) vcan0 125#E51A80E4C1D0D735
(1675525543.938947) vcan0 150#321B08880AF826C0
(1675525543.939913) vcan0 008#2F80E47000800080
(1675525543.942392) vcan0 010#000000002FB031F8
(1675525543.945277) vcan0 1D0#0000000000000061
(1675525543.945355) vcan0 291#0000000000000000
(1675525543.945435) vcan0 055#F4F7F427B2009C80
(1675525543.945511) vcan0 065#FDE6F4F700CEE101
(1675525543.945661) vcan0 070#00000AF8E1E11500
(1675525543.945738) vcan0 075#0000000000005458
(1675525543.945817) vcan0 080#E14F8000C2002C00
(1675525543.945895) vcan0 0B0#398313A3E1C139A3
(1675525543.945972) vcan0 145#F9F2D080FC4810A1
(1675525543.946050) vcan0 288#12E030CF00000080
(1675525543.946344) vcan0 072#F000FF3F00788038
(1675525543.947443) vcan0 3B0#00FC70387DB0C400
(1675525543.948458) vcan0 1B0#00C0000003B000FC
(1675525543.948537) vcan0 1B5#FFC3790540E0FFEF
(1675525543.948687) vcan0 1D8#363339343234DE43
(1675525543.949993) vcan0 1E0#0014A34300B917E0
(1675525543.950070) vcan0 2C3#669C00FFFFC35450
(1675525543.950147) vcan0 008#2F80F46000800080
(1675525543.951092) vcan0 010#000000002FB031F8
(1675525543.952108) vcan0 260#D0FF0055497487B0
(1675525543.953197) vcan0 290#0000000000000000
(1675525543.953274) vcan0 330#2800000000000000
(1675525543.954162) vcan0 0E0#627324D800805700
(1675525543.955267) vcan0 210#01E080A0C169BF4D
(1675525543.958233) vcan0 0F5#1F9B259B7F676291
(1675525543.958301) vcan0 120#4A9B5F9B7F045689
(1675525543.958377) vcan0 130#CFF41D581BF0F411
(1675525543.959146) vcan0 125#E51A80E4C1D0D735
(1675525543.959219) vcan0 150#221B04980AF826C0
(1675525543.959365) vcan0 008#2F80045000800080
(1675525543.960261) vcan0 010#000000002FB031F8
(1675525543.961297) vcan0 072#F000FF3F0078A038
(1675525543.962333) vcan0 1D0#0000000000000061
(1675525543.963299) vcan0 055#F4F7F427B2009C80
(1675525543.963442) vcan0 065#FDE6F4F700CEE101
(1675525543.963518) vcan0 070#00000AF8E1E11500
(1675525543.963590) vcan0 075#0000000000005458
(1675525543.964386) vcan0 080#E14F8000C2002C00
(1675525543.964465) vcan0 0B0#398313A3E1C139A3
(1675525543.967292) vcan0 145#F9E2D180FC4810A1
(1675525543.967369) vcan0 28C#00000000002EBEAA
(1675525543.967447) vcan0 2B5#4B24316293A6B400
(1675525543.968319) vcan0 1B0#00C0000003B000FC
(1675525543.968407) vcan0 1B5#FFD48B0D48E0FFEF
(1675525543.968485) vcan0 1D8#363339343234DF43
(1675525543.969357) vcan0 1E0#0018934300B917E0
(1675525543.969435) vcan0 288#0EE030CF00000080
(1675525543.969513) vcan0 3C8#669C008E882C008E
(1675525543.969591) vcan0 008#2F80144000800080
(1675525543.970391) vcan0 010#000000002FB031F8
(1675525543.971482) vcan0 291#0000000000000000
(1675525543.972499) vcan0 2A9#8C26009BC0000084
(1675525543.973515) vcan0 0E0#627323E000803800
(1675525543.974540) vcan0 072#F000FF3F00788038
(1675525543.978302) vcan0 0F5#1F9B1F9B7F6B5293
(1675525543.978379) vcan0 120#509B369B7FFE5589
(1675525543.978458) vcan0 130#D7F41D4B1BEDF111
(1675525543.979329) vcan0 125#E51A80E4C1D0D735
(1675525543.979477) vcan0 150#1F1B03A80AF819C0
(1675525543.979565) vcan0 008#2F80243000800080
(1675525543.980439) vcan0 010#000000002FB031F9
(1675525543.981455) vcan0 1D0#0000000000000A61
(1675525543.982473) vcan0 210#01E08020C169BF4D
(1675525543.982552) vcan0 260#D0FF00AA497487B0
(1675525543.984033) vcan0 055#F4F7F427B2009C80
(1675525543.984113) vcan0 065#FBE6F4F7FFCDE101
(1675525543.984190) vcan0 070#00000AF8E1E11500
(1675525543.984267) vcan0 075#0000000000005458
(1675525543.984344) vcan0 080#E14F8000C2002C00
(1675525543.984423) vcan0 0B0#398313A3E1C139A3
(1675525543.984501) vcan0 145#F9D2D280FC4810A1
(1675525543.985013) vcan0 290#0000000000000000
(1675525543.985163) vcan0 2C0#669C00000000A0F1
(1675525543.985240) vcan0 2C5#00E795D2FDE60070
(1675525543.989365) vcan0 370#1727C0008103CB1F
(1675525543.989452) vcan0 3E0#000000D934808090
(1675525543.989530) vcan0 1B0#00C0000002B000FC
(1675525543.989607) vcan0 1B5#FFE69C1651E0FFEF
(1675525543.989757) vcan0 1D8#363339343234DE43
(1675525543.989835) vcan0 1E0#0018930300B917E0
(1675525543.989913) vcan0 2C3#669C00FFFFC45450
(1675525543.989991) vcan0 008#2F80342000800080
(1675525543.990503) vcan0 010#000000002FB031F8
(1675525543.991521) vcan0 072#F000FF3F0078A038
(1675525543.992536) vcan0 0E0#627326E800801500
(1675525543.993625) vcan0 288#1AE030CF00000080
(1675525543.994651) vcan0 0F5#1A9B1C9B7F6F4295
(1675525543.995740) vcan0 120#3E9B4E9B7F015689
(1675525543.996756) vcan0 130#DFF41D4B1BDDF111
(1675525543.997773) vcan0 125#E51A80E4C1D0D735
(1675525543.998935) vcan0 150#1B1B07B80AF80DC0
(1675525543.999960) vcan0 008#2F80441000800080
(1675525544.002279) vcan0 010#000000002FB031F8
(1675525544.005106) vcan0 1D0#0000000000000061
(1675525544.005185) vcan0 291#0000000000000000
(1675525544.005263) vcan0 055#F4F7F427B2009C80
(1675525544.005412) vcan0 065#F8E6F4F7FDCDE101
(1675525544.005490) vcan0 070#00000AF8E1E11500
(1675525544.005567) vcan0 075#0000000000005458
(1675525544.005644) vcan0 080#E14F8000C2002C00
(1675525544.005723) vcan0 0B0#398313A3E1C139A3
(1675525544.005801) vcan0 145#F9C2D380FC4810A1
(1675525544.005953) vcan0 28C#00000000002EBEAA
(1675525544.006031) vcan0 2B5#4B24316293A6B400
(1675525544.006107) vcan0 340#AF00000000000000
(1675525544.006187) vcan0 072#F000FF3F00788038
(1675525544.007276) vcan0 210#01E080A0C169BF45
(1675525544.008302) vcan0 1B0#00C0000001B000FC
(1675525544.009896) vcan0 1B5#FFF7AE1F5AE0FFEF
(1675525544.010047) vcan0 1D8#363339343234DE43
(1675525544.010125) vcan0 1E0#001C834300B917E0
(1675525544.010203) vcan0 008#2F80540000800080
(1675525544.011002) vcan0 010#000000002FB031F8
(1675525544.012092) vcan0 2A9#8C260082C0000084
(1675525544.013036) vcan0 260#D0FF00AA497487B0
(1675525544.013113) vcan0 290#0000000000000000
(1675525544.013192) vcan0 0E0#627326F00080F500
(1675525544.014136) vcan0 360#709C00D2B345A001
(1675525544.018473) vcan0 0F5#149B189B7F733297
(1675525544.018550) vcan0 120#6C9B509B7F045689
(1675525544.018628) vcan0 130#E7F41D4B1BCDF111
(1675525544.018706) vcan0 125#E51A80E4C1D0D735
(1675525544.019433) vcan0 150#151B06C809F803C0
(1675525544.019529) vcan0 288#1AE030CF00000080
(1675525544.019608) vcan0 3CA#00000000550000C8
(1675525544.019759) vcan0 008#2F8064F000800080
(1675525544.020484) vcan0 010#000000002FB031F8
(1675525544.021575) vcan0 072#F000FF3F0078A038
(1675525544.022589) vcan0 1D0#0000000000000061
(1675525544.022667) vcan0 390#80FF051D02125B4F
(1675525544.023683) vcan0 055#F4F7F427B2009C80
(1675525544.023832) vcan0 065#F8E6F4F7FFCDE101
(1675525544.023910) vcan0 070#00000AF8E1E11500
(1675525544.023997) vcan0 075#0000000000005458
(1675525544.024782) vcan0 080#E14F8000C2002C00
(1675525544.024874) vcan0 0B0#398313A3E1C139A3
(1675525544.024952) vcan0 145#F9B2D480FC4810A1
(1675525544.025031) vcan0 350#A200000000000080
(1675525544.028644) vcan0 1B0#00C0000002B000FC
(1675525544.028730) vcan0 1B5#FF09BF2863E0FFEF
(1675525544.028809) vcan0 1D8#363339343234DF43
(1675525544.028958) vcan0 1E0#0020734300B917E0
(1675525544.029758) vcan0 2C3#669C00FFFFC45450
(1675525544.029836) vcan0 008#2F8074E000800080
(1675525544.030852) vcan0 010#000000002FB031F8
(1675525544.031869) vcan0 210#01E080A0C169BF45
(1675525544.032882) vcan0 291#0000000000000000
(1675525544.033101) vcan0 330#2800000000000000
(1675525544.033112) vcan0 3D0#990F6100D11480C3
(1675525544.034420) vcan0 0E0#62731FF80080DC00
(1675525544.035436) vcan0 072#F000FF3F00788038
(1675525544.036524) vcan0 0F5#1F9B279B7F77229A
(1675525544.037612) vcan0 120#4E9B409B7FFC5589
(1675525544.038628) vcan0 130#EFF41D4B1BBDF411
(1675525544.038706) vcan0 125#E51A80E4C1D0D735
(1675525544.038865) vcan0 150#231B03D809F8E5C0
(1675525544.039736) vcan0 008#2F8084D000800080
(1675525544.042626) vcan0 010#000000002FB031F8
(1675525544.042702) vcan0 1D0#0000000000000861
(1675525544.042853) vcan0 400#0F0102010100011E
(1675525544.042933) vcan0 260#D0FF00AA497487B0
(1675525544.043732) vcan0 055#F4F7F427B2009C80
(1675525544.043809) vcan0 065#F8E6F4F700CEE101
(1675525544.043888) vcan0 070#00000AF8E1E11500
(1675525544.043972) vcan0 075#0000000000005458
(1675525544.044122) vcan0 080#E14F8000C2002C00
(1675525544.044777) vcan0 0B0#398313A3E1C139A3
(1675525544.044855) vcan0 145#F9A2D580FC4810A1
(1675525544.044933) vcan0 288#0EE040BF00000080
(1675525544.045010) vcan0 28C#00000000002EBEAA
(1675525544.045809) vcan0 290#0000000000000000
(1675525544.045897) vcan0 2B5#4B24316293A6B400
(1675525544.048791) vcan0 2C0#669C00000000A0F1
(1675525544.048869) vcan0 2C5#00E795D2FBE60070
(1675525544.048947) vcan0 3AF#0000000000000020
(1675525544.049024) vcan0 405#709C003A00333B02
(1675525544.049103) vcan0 1B0#00C0000002B000FC
(1675525544.049182) vcan0 1B5#FF1BD1316CE0FFEF
(1675525544.049332) vcan0 1D8#363339343234DE43
(1675525544.049408) vcan0 1E0#0020730300B917E0
(1675525544.049848) vcan0 008#2F8094C000800080
(1675525544.050934) vcan0 010#000000002FB031F8
(1675525544.051950) vcan0 072#F000FF3F0078A038
(1675525544.053040) vcan0 0E0#627321C00080BA00
(1675525544.054064) vcan0 2A9#8C26008AC0000084
(1675525544.055081) vcan0 210#01E080A0C169BF45
(1675525544.056169) vcan0 0F5#0A9B0C9B7F7B129C
(1675525544.058928) vcan0 120#459B509B7F0A5689
(1675525544.059005) vcan0 130#F7F41D421BB6EF11
(1675525544.059084) vcan0 125#E51A80E4C1D0D735
(1675525544.059160) vcan0 150#0B1B03E809F8EDC0
(1675525544.059961) vcan0 008#2F80A4B000800080
(1675525544.061048) vcan0 010#000000002FB031F9
(1675525544.062066) vcan0 1D0#0000000000000261
(1675525544.063153) vcan0 291#0000000000000000
(1675525544.063231) vcan0 055#F4F7F427B2009C80
(1675525544.063309) vcan0 065#F8E6F4F700CEE101
(1675525544.064653) vcan0 070#00000AF8E1E11500
(1675525544.064727) vcan0 075#0000000000005458
(1675525544.064869) vcan0 080#E14F8000C2002C00
(1675525544.064945) vcan0 0B0#398313A3E1C139A3
(1675525544.065018) vcan0 145#F992D680FC4810A1
(1675525544.065711) vcan0 072#F000FF3F00788038
(1675525544.066824) vcan0 3B0#00D870387DB0C402
(1675525544.067792) vcan0 1B0#00C0000004B000FC
(1675525544.068828) vcan0 1B5#FF2DE33974E0FFEF
(1675525544.068903) vcan0 1D8#363339343234DF43
(1675525544.073161) vcan0 1E0#0024634300B917E0
(1675525544.073305) vcan0 288#0EE040BF00000080
(1675525544.073378) vcan0 2C3#669C00FFFFC45450
(1675525544.073452) vcan0 008#2F80B4A000800080
(1675525544.073528) vcan0 010#000000002FB031F8
(1675525544.073671) vcan0 260#D0FF0055497487B0
(1675525544.073746) vcan0 290#0000000000000000
(1675525544.073820) vcan0 0E0#627319C80080A200
(1675525544.074188) vcan0 0F5#0C9B149B7F7F029E
(1675525544.075278) vcan0 120#459B489B7FFF5589
(1675525544.076294) vcan0 130#FFF41D411BA7F411
(1675525544.077312) vcan0 125#E51A80E4C1D0D735
(1675525544.078422) vcan0 150#101B03F808F8D8C0
(1675525544.079439) vcan0 008#2F80C49000800080
(1675525544.080456) vcan0 010#000000002FB031F8
(1675525544.081546) vcan0 072#F000FF3F0078A038
(1675525544.082562) vcan0 1D0#0000000000000061
(1675525544.082639) vcan0 210#01E080A0C169BF4D
(1675525544.082717) vcan0 055#F4F7F427B2009C80
(1675525544.083591) vcan0 065#F6E6F4F7FECDE101
(1675525544.085114) vcan0 070#00000AF8E1E11500
(1675525544.085195) vcan0 075#0000000000005458
(1675525544.085272) vcan0 080#E14F8000C2002C00
(1675525544.085350) vcan0 0B0#398313A3E1C139A3
(1675525544.085501) vcan0 145#F982D780FC4810A1
(1675525544.085579) vcan0 28C#00000000002EBEAA
(1675525544.085656) vcan0 2B5#4B24316293A6B300
(1675525544.085734) vcan0 340#AF00000000000000
(1675525544.089503) vcan0 370#1727C0008103CB1F
(1675525544.089584) vcan0 1B0#00C0000003B000FC
(1675525544.089661) vcan0 1B5#FF3EF4427DE0FFEF
(1675525544.089740) vcan0 1D8#363339343234DF43
(1675525544.089817) vcan0 1E0#0028534300B917E0
(1675525544.089967) vcan0 3C8#669C008E882C008E
(1675525544.090045) vcan0 008#2F80D48000800080
(1675525544.090556) vcan0 010#000000002FB031F8
(1675525544.091647) vcan0 291#0000000000000000
(1675525544.092663) vcan0 2A9#8C260093C0000084
(1675525544.093751) vcan0 0E0#627324D000807700
(1675525544.093829) vcan0 288#1AE040BF00000080
(1675525544.094777) vcan0 072#F000FF3F00788038
(1675525544.095792) vcan0 0F5#0C9B0F9B7F43F2A0
(1675525544.096809) vcan0 120#409B429B7F025689
(1675525544.097827) vcan0 130#87F41D411B97F711
(1675525544.098929) vcan0 125#E51A80E4C1D0D735
(1675525544.099009) vcan0 150#0D1B080808F8CBC0
(1675525544.099953) vcan0 008#2F80E47000800080
(1675525544.102415) vcan0 010#000000002FB031F8
(1675525544.105318) vcan0 1D0#0000000000000061
(1675525544.105396) vcan0 260#D0FF0055497487B0
(1675525544.105473) vcan0 055#F4F7F427B2009C80
(1675525544.105552) vcan0 065#F3E6F4F7FECDE101
(1675525544.105631) vcan0 070#00000AF8E1E11500
(1675525544.105779) vcan0 075#0000000000005458
(1675525544.105858) vcan0 080#E14F8000C2002C00
(1675525544.105935) vcan0 0B0#398313A3E1C139A3
(1675525544.106013) vcan0 145#F972D880FC4810A1
(1675525544.106091) vcan0 290#0000000000000000
(1675525544.106170) vcan0 2C0#669C00010000A0F1
(1675525544.106320) vcan0 2C5#00E795D3F8E60070
(1675525544.106410) vcan0 210#01E080A0C169BF4D
(1675525544.107355) vcan0 1B0#00C0000002B000FC
(1675525544.108444) vcan0 1B5#FF50064B86E0FFEF
(1675525544.109821) vcan0 1D8#363339343234DE43
(1675525544.109972) vcan0 1E0#0028530300B917E0
(1675525544.110049) vcan0 2C3#669C00FFFFC55450
(1675525544.110127) vcan0 008#2F80F46000800080
(1675525544.110927) vcan0 010#000000002FB031F8
(1675525544.112016) vcan0 072#F000FF3F0078A038
(1675525544.113031) vcan0 330#2800000000000000
(1675525544.114053) vcan0 0E0#627321D800805A00
(1675525544.114129) vcan0 350#A200000000000080
(1675525544.115148) vcan0 360#709C00D2B345A001
(1675525544.119344) vcan0 0F5#079B039B7F47E2A3
(1675525544.119493) vcan0 120#539B389B7F035689
(1675525544.119569) vcan0 130#8FF41D411B87F711
(1675525544.119656) vcan0 125#E51A80E4C1D0D735
(1675525544.119735) vcan0 150#051B061808F8C3C0
(1675525544.119814) vcan0 288#16E040BF00000080
(1675525544.119890) vcan0 008#2F80045000800080
(1675525544.120475) vcan0 010#000000002FB031F8
(1675525544.121492) vcan0 1D0#0000000000000061
(1675525544.122578) vcan0 291#0000000000000000
(1675525544.122728) vcan0 390#80FF051D020E5C4F
(1675525544.122806) vcan0 055#F4F7F427B2009C80
(1675525544.123606) vcan0 065#F4E6F4F700CEE101
(1675525544.123684) vcan0 070#00000AF8E1E11500
(1675525544.123833) vcan0 075#0000000000005458
(1675525544.123911) vcan0 080#E14F8000C2002C00
(1675525544.124647) vcan0 0B0#398313A3E0C139A3
(1675525544.124797) vcan0 145#F962D980FC4810A1
(1675525544.124875) vcan0 28C#00000000002EBEAA
(1675525544.124961) vcan0 2B5#4B24316293A6B300
(1675525544.127492) vcan0 072#F000FF3F00788038
(1675525544.128581) vcan0 1B0#00C0000002B000FC
(1675525544.128659) vcan0 1B5#FF6118548FE0FFEF
(1675525544.128738) vcan0 1D8#363339343234DF43
(1675525544.128888) vcan0 1E0#002C434300B917E0
(1675525544.129616) vcan0 008#2F80144000800080
(1675525544.130702) vcan0 010#000000002FB031F8
(1675525544.131719) vcan0 210#01E08020C169BF45
(1675525544.132809) vcan0 2A9#8C26008AC0000084
(1675525544.132961) vcan0 260#D0FF0055497487B0
(1675525544.133038) vcan0 290#0000000000000000
(1675525544.135643) vcan0 0E0#62731EE000803D00
(1675525544.136732) vcan0 0F5#079B0C9B7F4BD2A5
(1675525544.137746) vcan0 120#389B319B7F045689
(1675525544.138834) vcan0 130#97F41D381B80F411
(1675525544.138922) vcan0 125#E51A80E4C1D0D735
(1675525544.139000) vcan0 150#091B0A2807F8AFC0
(1675525544.139871) vcan0 3CA#00000000560000C8
(1675525544.139948) vcan0 008#2F80243000800080
(1675525544.140964) vcan0 010#000000002FB031F9
(1675525544.142051) vcan0 072#F000FF3F0078A038
(1675525544.143065) vcan0 1D0#0000000000000A61
(1675525544.143142) vcan0 055#F4F7F427B2009C80
(1675525544.143292) vcan0 065#F4E6F4F700CEE101
(1675525544.145831) vcan0 070#00000AF8E1E11500
(1675525544.145980) vcan0 075#0000000000005458
(1675525544.146058) vcan0 080#E14F8000C2002C00
(1675525544.146136) vcan0 0B0#398313A3E0C139A3
(1675525544.146215) vcan0 145#F952DA80FC4810A1
(1675525544.146291) vcan0 288#1AE050AF00000080
(1675525544.147021) vcan0 1B0#00C0000001B000FC
(1675525544.147973) vcan0 1B5#FF73295C97E0FFEF
(1675525544.149140) vcan0 1D8#363339343234DF43
(1675525544.149212) vcan0 1E0#0030334300B917E0
(1675525544.149290) vcan0 2C3#669C00FFFFC55450
(1675525544.151967) vcan0 008#2F80342000800080
(1675525544.153133) vcan0 010#000000002FB031F8
(1675525544.153205) vcan0 291#0000000000000000
(1675525544.153283) vcan0 0E0#62731EE800801D00
(1675525544.154163) vcan0 072#F000FF3F00788038
(1675525544.155177) vcan0 210#FBDF80A0C169BF4D
(1675525544.156267) vcan0 0F5#FB9AFE9A7F4FC2A7
(1675525544.157284) vcan0 120#2E9B3D9B7F025689
(1675525544.158373) vcan0 130#9FF41D311B77F411
(1675525544.158451) vcan0 125#E51A80E4C1D0D735
(1675525544.159467) vcan0 150#FC1A073807F8ADC0
(1675525544.162289) vcan0 008#2F80441000800080
(1675525544.162375) vcan0 010#000000002FB031F8
(1675525544.162454) vcan0 1D0#0000000000000061
(1675525544.163325) vcan0 260#D0FF0055497487B0
(1675525544.163403) vcan0 055#F4F7F427B2009C80
(1675525544.163554) vcan0 065#F4E6F4F700CEE101
(1675525544.163631) vcan0 070#00000AF8E1E11500
(1675525544.164328) vcan0 075#0000000000005458
(1675525544.164404) vcan0 080#E14F8000C2002C00
(1675525544.164484) vcan0 0B0#398313A3E0C139A3
(1675525544.164634) vcan0 145#F942DB80FC4810A1
(1675525544.164713) vcan0 28C#00000000002EBEAA
(1675525544.165439) vcan0 290#0000000000000000
(1675525544.165517) vcan0 2B5#4B24316293A6B300
(1675525544.168269) vcan0 2C0#669C00010000A0F1
(1675525544.168346) vcan0 2C5#00E795D3F6E60070
(1675525544.168423) vcan0 340#AF00000000000000
(1675525544.168510) vcan0 3AF#0000000000000020
(1675525544.168589) vcan0 1B0#00C0000002B000FC
(1675525544.168666) vcan0 1B5#FF853B65A0E0FFEF
(1675525544.168817) vcan0 1D8#363339343234DF43
(1675525544.169328) vcan0 1E0#0030330300B917E0
(1675525544.169407) vcan0 288#0EE050AF00000080
(1675525544.169483) vcan0 008#2F80540000800080
(1675525544.170428) vcan0 010#000000002FB031F8
(1675525544.171444) vcan0 072#F000FF3F0078A038
(1675525544.172534) vcan0 2A9#8C260093C0000084
(1675525544.173551) vcan0 0E0#627320F00080FB00
(1675525544.174647) vcan0 0F5#F69A009B7F53B2A9
(1675525544.177033) vcan0 120#369B329B7FFF5589
(1675525544.178193) vcan0 130#A7F41D2C1B6CF111
(1675525544.179209) vcan0 125#E51A80E4C1D0D735
(1675525544.179286) vcan0 150#FB1A034807F89EC0
(1675525544.179372) vcan0 008#2F8064F000800080
(1675525544.181976) vcan0 010#000000002FB031F8
(1675525544.182054) vcan0 1D0#0000000000000061
(1675525544.182132) vcan0 210#FBDF80A0C169BF4D
(1675525544.183078) vcan0 291#0000000000000000
(1675525544.183155) vcan0 055#F4F7F427B2009C80
(1675525544.183231) vcan0 065#F1E6F4F7FECDE101
(1675525544.184112) vcan0 070#00000AF8E1E11500
(1675525544.184189) vcan0 075#0000000000005458
(1675525544.184338) vcan0 080#E14F8000C2002C00
(1675525544.184416) vcan0 0B0#398313A3E0C139A3
(1675525544.184493) vcan0 145#F932DC80FC4810A1
(1675525544.185220) vcan0 370#1727C0008103CB1F
(1675525544.186239) vcan0 072#F000FF3F00788038
(1675525544.187327) vcan0 3B0#00D8703C7DB0C400
(1675525544.188417) vcan0 1B0#00C0000002B000FC
(1675525544.191245) vcan0 1B5#FF964C6EA9E0FFEF
(1675525544.191323) vcan0 1D8#363339343234DF43
(1675525544.191401) vcan0 1E0#0034234300B917E0
(1675525544.191479) vcan0 2C3#669C00FFFFC65450
(1675525544.191629) vcan0 008#2F8074E000800080
(1675525544.192285) vcan0 010#000000002FB031F8
(1675525544.192363) vcan0 330#2800000000000000
(1675525544.193379) vcan0 260#D0FF00AA497487B0
(1675525544.193457) vcan0 290#0000000000000000
(1675525544.193534) vcan0 0E0#627321F80080DA00
(1675525544.194407) vcan0 288#16E050AF00000080
(1675525544.195568) vcan0 0F5#FB9AEF9A7F57A2AB
(1675525544.196585) vcan0 120#339B339B7F015689
(1675525544.197601) vcan0 130#AFF41D2C1B5CF111
(1675525544.198689) vcan0 125#E51A80E4C1D0D735
(1675525544.201579) vcan0 150#F51A075806F894C0
(1675525544.201667) vcan0 008#2F8084D000800080
(1675525544.202610) vcan0 010#000000002FB031F8
(1675525544.202688) vcan0 072#F000FF3F0078A038
(1675525544.202766) vcan0 1D0#0000000000000861
(1675525544.202845) vcan0 055#F4F7F427B2009C80
(1675525544.203571) vcan0 065#ECE6F4F7FDCDE101
(1675525544.203719) vcan0 070#00000AF8E1E11500
(1675525544.203799) vcan0 075#0000000000005458
(1675525544.203876) vcan0 080#E14F8000C2002C00
(1675525544.204682) vcan0 0B0#398313A3E0C139A3
(1675525544.204760) vcan0 145#F922DD80FC4810A1
(1675525544.206139) vcan0 28C#00000000002EBEAA
(1675525544.206289) vcan0 2B5#4B24316293A6B300
(1675525544.206367) vcan0 350#A200000000000080
(1675525544.207239) vcan0 210#FBDF80A0C169BF45
(1675525544.208328) vcan0 1B0#00C0000002B000FC
(1675525544.208414) vcan0 1B5#FFA85E76B1E0FFEF
(1675525544.208493) vcan0 1D8#363339343234DF43
(1675525544.209293) vcan0 1E0#0038134300B917E0
(1675525544.209371) vcan0 3C8#669C008E882C008E
(1675525544.209448) vcan0 008#2F8094C000800080
(1675525544.213567) vcan0 010#000000002FB031F8
(1675525544.213644) vcan0 291#0000000000000000
(1675525544.213722) vcan0 2A9#8C26008AC0000084
(1675525544.213800) vcan0 0E0#62731DC00080BE00
(1675525544.214600) vcan0 072#F000FF3F00788038
(1675525544.215615) vcan0 360#709C00D2B345A001
(1675525544.216703) vcan0 0F5#EA9AF49A7F5B92AE
(1675525544.217723) vcan0 120#3E9B1F9B7F045689
(1675525544.218809) vcan0 130#B7F41D2C1B4CF111
(1675525544.218959) vcan0 125#E51A80E4C1D0D735
(1675525544.219036) vcan0 150#EF1A026806F88AC0
(1675525544.219135) vcan0 288#12E050AF00000080
(1675525544.219865) vcan0 008#2F80A4B000800080
(1675525544.220881) vcan0 010#000000002FB031F9
(1675525544.221969) vcan0 1D0#0000000000000261
(1675525544.222984) vcan0 390#80FF051D020A5D6F
(1675525544.223063) vcan0 260#D0FF00AA497487B0
(1675525544.223140) vcan0 055#F4F7F427B2009C80
(1675525544.223292) vcan0 065#EDE6F4F7FFCDE101
(1675525544.224027) vcan0 070#00000AF8E1E11500
(1675525544.227066) vcan0 075#0000000000005458
(1675525544.227142) vcan0 080#E14F8000C2002C00
(1675525544.227220) vcan0 0B0#398313A3E0C139A3
(1675525544.227298) vcan0 145#F912DE80FC4810A1
(1675525544.227449) vcan0 290#0000000000000000
(1675525544.227525) vcan0 2C0#669C00000000A0F1
(1675525544.227603) vcan0 2C5#00E794D3F1E60070
(1675525544.228123) vcan0 1B0#00C0000003B000FC
(1675525544.228200) vcan0 1B5#FFB9707FBAE0FFEF
(1675525544.229216) vcan0 1D8#363339343234DF43
(1675525544.229294) vcan0 1E0#0038130300B917E0
(1675525544.229373) vcan0 2C3#669C00FFFFC65450
(1675525544.230606) vcan0 008#2F80B4A000800080
(1675525544.231692) vcan0 010#000000002FB031F8
(1675525544.231771) vcan0 072#F000FF3F0078A038
(1675525544.232787) vcan0 210#FBDF80A0C169BF45
(1675525544.232864) vcan0 3D0#990F6100D11480C3
(1675525544.233806) vcan0 0E0#62731BC80080A000
(1675525544.234824) vcan0 0F5#F59AFB9A7F5F82B0
(1675525544.235984) vcan0 120#299B1F9B7F035689
(1675525544.237074) vcan0 130#BFF41D291B3FF411
(1675525544.238090) vcan0 125#E51A80E4C1D0D735
(1675525544.240911) vcan0 150#F81A087806F871C0
(1675525544.241067) vcan0 008#2F80C49000800080
(1675525544.242013) vcan0 010#000000002FB031F8
(1675525544.242090) vcan0 1D0#0000000000000061
(1675525544.243035) vcan0 291#0000000000000000
(1675525544.243115) vcan0 055#F4F7F427B2009C80
(1675525544.243191) vcan0 065#EDE6F4F700CEE101
(1675525544.243268) vcan0 070#00000AF8E1E11500
(1675525544.244074) vcan0 075#0000000000005458
(1675525544.244226) vcan0 080#E14F8000C2002C00
(1675525544.246974) vcan0 0B0#398313A3E0C139A3
(1675525544.247051) vcan0 145#F902DF80FC4810A1
(1675525544.247203) vcan0 288#16E0609F00000080
(1675525544.247280) vcan0 28C#00000000002EBEA9
(1675525544.247357) vcan0 2B5#4B24316293A6B300
(1675525544.247435) vcan0 340#AF00000000000000
(1675525544.247513) vcan0 072#F000FF3F00788038
(1675525544.248103) vcan0 1B0#00C0000001B000FC
(1675525544.248182) vcan0 1B5#FFCB8188C3E0FFEF
(1675525544.248259) vcan0 1D8#363339343234DF43
(1675525544.249139) vcan0 1E0#003C034300B917E0
(1675525544.249209) vcan0 008#2F80D48000800080
(1675525544.250225) vcan0 260#D0FF00AA497487B0
(1675525544.251241) vcan0 010#000000002FB031F8
(1675525544.252329) vcan0 290#0000000000000000
(1675525544.255268) vcan0 0E0#62731CD000807F00
(1675525544.255346) vcan0 2A9#8C260082C0000084
(1675525544.256364) vcan0 210#FBDF80A0C169BF45
(1675525544.257380) vcan0 0F5#E89AE89A7F6372B2
(1675525544.258470) vcan0 120#1F9B2E9B7F065689
(1675525544.258549) vcan0 130#C7F41D291B2FFA11
(1675525544.258626) vcan0 125#E51A80E4C1D0D735
(1675525544.259499) vcan0 150#E81A068806F871C0
(1675525544.259657) vcan0 3CA#00000000400000C8
(1675525544.259736) vcan0 008#2F80E47000800080
(1675525544.260610) vcan0 010#000000002FB031F8
(1675525544.261556) vcan0 072#F000FF3F0078A038
(1675525544.262644) vcan0 1D0#0000000000000061
(1675525544.265543) vcan0 055#F4F7F427B2009C80
(1675525544.265621) vcan0 065#EFE6F4F702CEE101
(1675525544.265699) vcan0 070#00000AF8E1E11500
(1675525544.265776) vcan0 075#0000000000005458
(1675525544.265854) vcan0 080#E04F8000C2002C00
(1675525544.265932) vcan0 0B0#398313A3E0C139A3
(1675525544.266023) vcan0 145#F9F2D080FC4810A1
(1675525544.266520) vcan0 1B0#00C0000003B000FC
(1675525544.267682) vcan0 1B5#FFDD9391CCE0FFEF
(1675525544.268699) vcan0 1D8#363339343234DF43
(1675525544.268776) vcan0 1E0#0000F34300B917E0
(1675525544.269657) vcan0 288#12E0609F00000080
(1675525544.272623) vcan0 2C3#669C00FFFFC65450
(1675525544.272774) vcan0 008#2F80F46000800080
(1675525544.272852) vcan0 010#000000002FB031F8
(1675525544.272928) vcan0 291#0000000000000000
(1675525544.273007) vcan0 330#2800000000000000
(1675525544.273663) vcan0 0E0#62731ED800805D00
(1675525544.274758) vcan0 072#F000FF3F00788038
(1675525544.275777) vcan0 0F5#E59AEA9A7F6762B4
(1675525544.276792) vcan0 120#229B189B7FFE5589
(1675525544.277810) vcan0 130#CFF41D1F1B29F711
(1675525544.278898) vcan0 125#E51A80E4C1D0D735
(1675525544.279049) vcan0 150#E71A049805F862C0
(1675525544.281728) vcan0 008#2F80045000800080
(1675525544.281806) vcan0 010#000000002FB031F8
(1675525544.282823) vcan0 1D0#0000000000000061
(1675525544.282909) vcan0 210#FBDF8020C169BF4D
(1675525544.282987) vcan0 055#F4F7F427B2009C80
(1675525544.283065) vcan0 065#EEE6F4F700CEE001
(1675525544.283865) vcan0 070#00000AF8E0E11500
(1675525544.283951) vcan0 075#0000000000005458
(1675525544.284029) vcan0 080#E04F8000C2002C00
(1675525544.284106) vcan0 0B0#398313A3E0C139A3
(1675525544.284906) vcan0 145#F9E2D180FC4810A1
(1675525544.284987) vcan0 260#D0FF0055497487B0
(1675525544.285136) vcan0 28C#00000000002EBEA9
(1675525544.285215) vcan0 290#0000000000000000
(1675525544.285291) vcan0 2B5#4B24316293A6B300
(1675525544.287753) vcan0 2C0#669C00000000A0F1
(1675525544.287904) vcan0 2C5#00E794D3F0E60070
(1675525544.287982) vcan0 370#1727C0008103CB1F
(1675525544.288059) vcan0 3AF#0000000000000020
(1675525544.288145) vcan0 3E0#000000D934808090
(1675525544.288224) vcan0 1B0#00C0000002B000FC
(1675525544.288880) vcan0 1B5#FFEEA499D4E0FFEF
(1675525544.288958) vcan0 1D8#363339343234DF43
(1675525544.289035) vcan0 1E0#0000F30300B917E0
(1675525544.289835) vcan0 008#2F80144000800080
(1675525544.290979) vcan0 010#000000002FB031F8
(1675525544.291941) vcan0 072#F000FF3F0078A038
(1675525544.292092) vcan0 2A9#8C26009BC0000084
(1675525544.292965) vcan0 400#010502000103021F
(1675525544.293043) vcan0 405#0000000000000024
(1675525544.294496) vcan0 0E0#627320E000803B00
(1675525544.294644) vcan0 288#16E0609F00000080
(1675525544.294721) vcan0 350#A200000000000080
(1675525544.295523) vcan0 0F5#E69AEA9A7F6B52B6
(1675525544.296539) vcan0 120#1D9B249B7F015689
(1675525544.297636) vcan0 125#E51A80E4C1D0D735
(1675525544.298724) vcan0 130#D7F41D1F1B19F711
(1675525544.298803) vcan0 150#E81A06A805F851C0
(1675525544.299746) vcan0 008#2F80243000800080
(1675525544.304016) vcan0 010#000000002FB031F9
(1675525544.304168) vcan0 1D0#0000000000000A61
(1675525544.304244) vcan0 291#0000000000000000
(1675525544.304324) vcan0 055#F4F7F427B2009C80
(1675525544.304402) vcan0 065#EBE6F4F7FECDE001
(1675525544.304480) vcan0 070#00000BF8E0E11500
(1675525544.304557) vcan0 075#0000000000005458
(1675525544.304708) vcan0 080#E04F8000C2002C00
(1675525544.304786) vcan0 0B0#398313A3E0C139A3
(1675525544.304862) vcan0 145#F9D2D280FC4810A1
(1675525544.305157) vcan0 072#F000FF3F00788038
(1675525544.306102) vcan0 210#FBDF80A0C169BF4D
(1675525544.307198) vcan0 3B0#00D870387DB0C400
(1675525544.308217) vcan0 1B0#00C0000000B000FC
(1675525544.308365) vcan0 1B5#FF00B6A2DDE0FFEF
(1675525544.308445) vcan0 1D8#363339343234DF43
(1675525544.309317) vcan0 1E0#0004E34300B917E0
(1675525544.309394) vcan0 2C3#669C00FFFFC75450
(1675525544.309472) vcan0 008#2F80342000800080
(1675525544.310271) vcan0 010#000000002FB031F8
(1675525544.312803) vcan0 260#D0FF0055497487B0
(1675525544.312881) vcan0 290#0000000000000000
(1675525544.313823) vcan0 0E0#62731CE800801F00
(1675525544.316724) vcan0 360#709C00D2B345A001
(1675525544.317828) vcan0 0F5#DF9ADF9A7F6F42B8
(1675525544.318864) vcan0 120#319B169B7FFE5589
(1675525544.318938) vcan0 130#DFF41D1F1B09F711
(1675525544.319012) vcan0 125#E51A80E4C1D0D735
(1675525544.319096) vcan0 150#DF1A02B805F84AC0
(1675525544.319171) vcan0 288#0EE0609F00000080
(1675525544.319931) vcan0 008#2F80441000800080
(1675525544.320967) vcan0 010#000000002FB031F8
(1675525544.322001) vcan0 072#F000FF3F0078A038
(1675525544.323105) vcan0 1D0#0000000000000061
(1675525544.323179) vcan0 390#80FF051D02065E4F
(1675525544.323252) vcan0 055#F4F7F427B2009C80
(1675525544.323327) vcan0 065#EAE6F4F700CEE001
(1675525544.323472) vcan0 070#00000BF8E0E11500
(1675525544.325994) vcan0 075#0000000000005458
(1675525544.326074) vcan0 080#E04F8000C2002C00
(1675525544.326151) vcan0 0B0#398313A3E0C139A3
(1675525544.326229) vcan0 145#F9C2D380FC4810A1
(1675525544.326380) vcan0 28C#00000000002EBEA9
(1675525544.326458) vcan0 2B5#4B24316293A6B300
(1675525544.326557) vcan0 340#AF00000000000000
(1675525544.327067) vcan0 1B0#00C0000002B000FC
(1675525544.328158) vcan0 1B5#FF11C7ABE6E0FFEF
(1675525544.328234) vcan0 1D8#363339343234DF43
(1675525544.329180) vcan0 1E0#0008D34300B917E0
(1675525544.329330) vcan0 3C8#669C008E882C008E
(1675525544.329407) vcan0 008#2F80540000800080
(1675525544.330279) vcan0 010#000000002FB031F8
(1675525544.331368) vcan0 210#FBDF80A0C169BF45
(1675525544.332673) vcan0 291#0000000000000000
(1675525544.332752) vcan0 2A9#8C260082C0000084
(1675525544.333768) vcan0 0E0#627318F000800300
(1675525544.334789) vcan0 072#F000FF3F00788038
(1675525544.337682) vcan0 0F5#E69AE99A7F7332BB
(1675525544.338700) vcan0 120#1A9B0C9B7F045689
(1675525544.338777) vcan0 130#E7F41D1A1BFEF411
(1675525544.338865) vcan0 125#E51A80E4C1D0D735
(1675525544.338943) vcan0 150#E71A04C805F832C0
(1675525544.339815) vcan0 008#2F8064F000800080
(1675525544.340892) vcan0 010#000000002FB031F8
(1675525544.341920) vcan0 1D0#0000000000000061
(1675525544.342936) vcan0 055#F4F7F427B2009C80
(1675525544.343013) vcan0 065#E8E6F4F7FECDE001
(1675525544.343965) vcan0 070#00000AF8E0E11500
(1675525544.344044) vcan0 075#0000000000005458
(1675525544.344122) vcan0 080#E04F8000C2002C00
(1675525544.344199) vcan0 0B0#398313A3E0C139A3
(1675525544.344348) vcan0 145#F9B2D480FC4810A1
(1675525544.346884) vcan0 260#D0FF0055497487B0
(1675525544.346961) vcan0 288#16E0708F00000080
(1675525544.347112) vcan0 290#0000000000000000
(1675525544.347190) vcan0 2C0#669C00000000A0F1
(1675525544.347277) vcan0 2C5#00E794D4ECE60070
(1675525544.348003) vcan0 1B0#00C0000001B000FC
(1675525544.348081) vcan0 1B5#FF23D9B3EEE0FFEF
(1675525544.349027) vcan0 1D8#363339343234DF43
(1675525544.349105) vcan0 1E0#0008D30300B917E0
(1675525544.349251) vcan0 2C3#669C00FFFFC75450
(1675525544.350125) vcan0 008#2F8074E000800080
(1675525544.351141) vcan0 010#000000002FB031F8
(1675525544.352228) vcan0 072#F000FF3F0078A038
(1675525544.353319) vcan0 330#2800000000000000
(1675525544.353397) vcan0 0E0#62731AF80080E100
(1675525544.355715) vcan0 210#FBDF80A0C169BF4D
(1675525544.356804) vcan0 0F5#E09ADF9A7F7722BD
(1675525544.357821) vcan0 120#0A9B0B9B7F035689
(1675525544.358910) vcan0 130#EFF41D0B1BFDEF11
(1675525544.361803) vcan0 125#E51A80E4C1D0D735
(1675525544.361904) vcan0 150#E01A06D805F829C0
(1675525544.361983) vcan0 008#2F8084D000800080
(1675525544.362059) vcan0 010#000000002FB031F8
(1675525544.362860) vcan0 1D0#0000000000000061
(1675525544.362937) vcan0 291#0000000000000000
(1675525544.363016) vcan0 055#F4F7F427B2009C80
(1675525544.363092) vcan0 065#EAE6F4F701CEE001
(1675525544.363973) vcan0 070#00000BF8E0E11500
(1675525544.364052) vcan0 075#0000000000005458
(1675525544.364129) vcan0 080#E04F8000C2002C00
(1675525544.364207) vcan0 0B0#398313A3E0C139A3
(1675525544.364284) vcan0 145#F9A2D580FC4810A1
(1675525544.364941) vcan0 28C#00000000002EBEA9
(1675525544.365018) vcan0 2B5#4B24316293A6B300
(1675525544.367911) vcan0 072#F000FF3F00788038
(1675525544.367990) vcan0 1B0#00C0000002B000FC
(1675525544.368942) vcan0 1B5#FF34EABCF7E0FFEF
(1675525544.369019) vcan0 1D8#363339343234DF43
(1675525544.369098) vcan0 1E0#000CC34300B917E0
(1675525544.369249) vcan0 288#16E0708F00000080
(1675525544.370048) vcan0 008#2F8094C000800080
(1675525544.371063) vcan0 010#000000002FB031F8
(1675525544.372152) vcan0 2A9#8C26009BC0000084
(1675525544.373168) vcan0 290#0000000000000000
(1675525544.373318) vcan0 260#D0FF00AA497487B0
(1675525544.373397) vcan0 0E0#62731EC00080BD00
(1675525544.374278) vcan0 0F5#D59ADF9A7F7B12BF
(1675525544.378251) vcan0 120#0C9B0C9B7F035689
(1675525544.378329) vcan0 130#F7F41D0A1BEEEF11
(1675525544.379345) vcan0 125#E51A80E4C1D0D735
(1675525544.379423) vcan0 150#DA1A06E805F81FC0
(1675525544.379501) vcan0 3CA#00000000510000C8
(1675525544.379587) vcan0 008#2F80A4B000800080
(1675525544.380386) vcan0 010#000000002FB031F9
(1675525544.381475) vcan0 072#F000FF3F0078A038
(1675525544.382493) vcan0 1D0#0000000000000A61
(1675525544.382643) vcan0 210#FBDF80A0C169BF4D
(1675525544.383587) vcan0 055#F4F7F427B2009C80
(1675525544.386411) vcan0 065#EAE6F4F700CEE001
(1675525544.386490) vcan0 070#00000AF8E0E11500
(1675525544.386568) vcan0 075#0000000000005458
(1675525544.386645) vcan0 080#E04F8000C2002C00
(1675525544.386722) vcan0 0B0#398313A3E0C139A3
(1675525544.386872) vcan0 145#F992D680FC4810A1
(1675525544.386950) vcan0 350#A200000000000080
(1675525544.387027) vcan0 370#1727C0008103CB1F
(1675525544.387467) vcan0 1B0#00C0000003B000FC
(1675525544.388556) vcan0 1B5#FF46FCC500E0FFEF
(1675525544.388644) vcan0 1D8#363339343234DF43
(1675525544.388720) vcan0 1E0#0010B34300B917E0
(1675525544.389593) vcan0 2C3#669C00FFFFC85450
(1675525544.389671) vcan0 008#2F80B4A000800080
(1675525544.390687) vcan0 010#000000002FB031F8
(1675525544.393580) vcan0 291#0000000000000000
(1675525544.393655) vcan0 425#0000000000000000
(1675525544.393735) vcan0 0E0#627321C800809A00
(1675525544.394543) vcan0 288#0EE0708F00000080
(1675525544.395632) vcan0 072#F000FF3F00788038
(1675525544.396720) vcan0 0F5#D89AD49A7F7F02C1
(1675525544.397881) vcan0 120#FB9A199B7F025689
(1675525544.398897) vcan0 130#FFF41D0A1BDEEF11
(1675525544.398974) vcan0 125#E51A80E4C1D0D735
(1675525544.399123) vcan0 150#D61A03F805F813C0
(1675525544.399997) vcan0 008#2F80C49000800080
(1675525544.400949) vcan0 010#000000002FB031F8
(1675525544.403844) vcan0 1D0#0000000000000061
(1675525544.403969) vcan0 260#D0FF00AA497487B0
(1675525544.404122) vcan0 055#F4F7F427B2009C80
(1675525544.404201) vcan0 065#E8E6F4F7FECDE001
(1675525544.404277) vcan0 070#00000BF8E0E11500
(1675525544.404355) vcan0 075#0000000000005458
(1675525544.404434) vcan0 080#E04F8000C2002C00
(1675525544.404943) vcan0 0B0#398313A3E0C139A3
(1675525544.405021) vcan0 145#F982D780FC4810A1
(1675525544.405099) vcan0 28C#00000000002EBEA9
(1675525544.405250) vcan0 290#0000000000000000
(1675525544.405327) vcan0 2B5#4B24316293A6B300
(1675525544.406054) vcan0 2C0#669C00010000A0F1
(1675525544.406132) vcan0 2C5#00E794D4ECE60070
(1675525544.406212) vcan0 340#AF00000000000000
(1675525544.408897) vcan0 3AF#0000000000000020
(1675525544.408974) vcan0 210#FBDF80A0C169BF45
(1675525544.409051) vcan0 1B0#00C0000001B000FC
(1675525544.409133) vcan0 1B5#FF570DCD08E0FFEF
(1675525544.409208) vcan0 1D8#363339343234DF43
(1675525544.409287) vcan0 1E0#0010B30300B917E0
(1675525544.410015) vcan0 008#2F80D48000800080
(1675525544.411031) vcan0 010#000000002FB031F8
(1675525544.412121) vcan0 072#F000FF3F0078A038
(1675525544.412199) vcan0 2A9#8C260082C0000084
(1675525544.413143) vcan0 0E0#62731AD000808100
(1675525544.414239) vcan0 360#709C00D2B345A001
(1675525544.415257) vcan0 0F5#CB9AD59A7F43F2C3
(1675525544.416347) vcan0 120#249B039B7F015689
(1675525544.417436) vcan0 125#E51A80E4C1D0D735
(1675525544.418741) vcan0 130#87F41D0A1BCEEF11
(1675525544.418829) vcan0 150#D01A040805F809C0
(1675525544.419774) vcan0 288#12E0708F00000080
(1675525544.419925) vcan0 008#2F80E47000800080
(1675525544.422747) vcan0 010#000000002FB031F8
(1675525544.422824) vcan0 1D0#0000000000000061
(1675525544.422903) vcan0 291#0000000000000000
(1675525544.422982) vcan0 390#80FF051D02025F4F
(1675525544.423132) vcan0 055#F3F7F327B2009C80
(1675525544.423787) vcan0 065#E7E6F4F700CEE001
(1675525544.423944) vcan0 070#00000BF8E0E11500
(1675525544.424080) vcan0 075#0000000000005458
(1675525544.424102) vcan0 080#E04F8000C2002C00
(1675525544.424179) vcan0 0B0#398313A3E0C139A3
(1675525544.424907) vcan0 145#F972D880FC4810A1
(1675525544.425995) vcan0 072#F000FF3F00788038
(1675525544.427083) vcan0 3B0#00D870387DB0C400
(1675525544.428107) vcan0 1B0#00C0000002B000FC
(1675525544.428186) vcan0 1B5#FF691FD611E0FFEF
(1675525544.431080) vcan0 1D8#363339343234DF43
(1675525544.431158) vcan0 1E0#0014A34300B917E0
(1675525544.431236) vcan0 2C3#669C00FFFFC85450
(1675525544.431314) vcan0 008#2F80F46000800080
(1675525544.432113) vcan0 010#000000002FB031F8
(1675525544.432191) vcan0 210#02E08020C169BF45
(1675525544.432269) vcan0 330#2800000000000000
(1675525544.433214) vcan0 3D0#990F6100D11480C3
(1675525544.433292) vcan0 290#0000000000000000
(1675525544.433369) vcan0 260#D0FF00AA497487B0
(1675525544.433447) vcan0 0E0#627317D800806400
(1675525544.434182) vcan0 430#2808280000002DC6
(1675525544.435270) vcan0 0F5#D59ADC9A7F47E2C6
(1675525544.436287) vcan0 120#0A9BF59A7F005689
(1675525544.437383) vcan0 130#8FF41D0A1BBEF111
(1675525544.438834) vcan0 125#E51A80E4C1D0D735
(1675525544.438910) vcan0 150#D81A031805F8F1C0
(1675525544.439926) vcan0 008#2F80045000800080
(1675525544.441086) vcan0 010#000000002FB031F8
(1675525544.442101) vcan0 072#F000FF3F0078A038
(1675525544.442178) vcan0 1D0#0000000000000061
(1675525544.443196) vcan0 055#F3F7F327B2009C80
(1675525544.447389) vcan0 065#E6E6F3F7FFCDE001
(1675525544.447465) vcan0 070#00000BF8E0E11500
(1675525544.447617) vcan0 075#0000000000005458
(1675525544.447693) vcan0 080#E04F8000C2002C00
(1675525544.447771) vcan0 0B0#398313A3E0C139A3
(1675525544.447850) vcan0 145#F962D980FC4810A1
(1675525544.447927) vcan0 288#1AE0807F00000080
(1675525544.448075) vcan0 28C#00000000002EBEA9
(1675525544.448163) vcan0 2B5#4B24316293A6B300
(1675525544.448456) vcan0 1B0#00C0000001B000FC
(1675525544.448607) vcan0 1B5#FF7A30DF1AE0FFEF
(1675525544.448685) vcan0 1D8#363339343234DF43
(1675525544.448763) vcan0 1E0#0018934300B917E0
(1675525544.449561) vcan0 3C8#669C008E882C008E
(1675525544.449639) vcan0 008#2F80144000800080
(1675525544.450655) vcan0 0E0#627316E000804500
(1675525544.451672) vcan0 010#000000002FB031F8
(1675525544.452759) vcan0 291#0000000000000000
(1675525544.453848) vcan0 2A9#8C26008AC0000084
(1675525544.457724) vcan0 072#F000FF3F00788038
(1675525544.457802) vcan0 0F5#CE9ACE9A7F4BD2C8
(1675525544.458747) vcan0 120#EF9A039B7F065689
(1675525544.458824) vcan0 125#E51A80E4C1D0D735
(1675525544.458902) vcan0 130#97F41D031BB5F711
(1675525544.458992) vcan0 150#CE1A072805F8EBC0
(1675525544.459143) vcan0 210#02E080A0C169BF45
(1675525544.459871) vcan0 008#2F80243000800080
(1675525544.460886) vcan0 010#000000002FB031F9
(1675525544.461978) vcan0 055#F3F7F327B2009C80
(1675525544.462993) vcan0 065#E6E6F3F700CEE001
(1675525544.464161) vcan0 070#00000BF8E0E11500
(1675525544.466983) vcan0 075#0000000000005458
(1675525544.467062) vcan0 080#E04F8000C2002C00
(1675525544.467138) vcan0 0B0#398313A3E0C139A3
(1675525544.467217) vcan0 145#F952DA80FC4810A1
(1675525544.467367) vcan0 1D0#0000000000000A61
(1675525544.467445) vcan0 260#D0FF00AA497487B0
(1675525544.467523) vcan0 290#0000000000000000
(1675525544.467600) vcan0 2C0#669C00010000A0F1
(1675525544.467678) vcan0 2C5#00E793D4E8E60070
(1675525544.468053) vcan0 1B0#00C0000002B000FC
(1675525544.468131) vcan0 1B5#FF8C42E723E0FFEF
(1675525544.468209) vcan0 1D8#363339343234DF43
(1675525544.469153) vcan0 1E0#0018930300B917E0
(1675525544.469231) vcan0 2C3#669C00FFFFC85450
(1675525544.469307) vcan0 288#16E0807F00000080
(1675525544.472057) vcan0 008#2F80342000800080
(1675525544.472135) vcan0 010#000000002FB031F8
(1675525544.472214) vcan0 072#F000FF3F0078A038
(1675525544.473158) vcan0 0E0#627317E800802400
(1675525544.474110) vcan0 350#A200000000000080
(1675525544.475199) vcan0 0F5#C79AC99A7F4FC2CA
(1675525544.476215) vcan0 120#FE9AF69A7FFC5589
(1675525544.477303) vcan0 125#E51A80E4C1D0D735
(1675525544.478320) vcan0 130#9FF41DFB1AAEF411
(1675525544.479407) vcan0 150#C81A063805F8E1C0
(1675525544.479494) vcan0 008#2F80441000800080
(1675525544.480440) vcan0 010#000000002FB031F8
(1675525544.481527) vcan0 1D0#0000000000000061
(1675525544.482617) vcan0 210#02E080A0C169BF4D
(1675525544.483848) vcan0 291#0000000000000000
(1675525544.483927) vcan0 055#F3F7F327B2009C80
(1675525544.484027) vcan0 065#E5E6F3F7FFCDE001
(1675525544.484105) vcan0 070#00000BF8E0E11500
(1675525544.484183) vcan0 075#0000000000005458
(1675525544.486861) vcan0 080#E04F8000C2002C00
(1675525544.486939) vcan0 0B0#398313A3DFC139A3
(1675525544.487089) vcan0 145#F942DB80FC4810A1
(1675525544.487167) vcan0 28C#00000000002EBEA9
(1675525544.487245) vcan0 2B5#4B24316293A6B200
(1675525544.487323) vcan0 340#AF00000000000000
(1675525544.487399) vcan0 370#1727C0008103CB1F
(1675525544.487487) vcan0 072#F000FF3F00788038
(1675525544.487925) vcan0 1B0#00C0000002B000FC
(1675525544.488075) vcan0 1B5#FF9D53F02BE0FFEF
(1675525544.489020) vcan0 1D8#363339343234DF43
(1675525544.489097) vcan0 1E0#001C834300B917E0
(1675525544.490114) vcan0 008#2F80540000800080
(1675525544.491130) vcan0 010#000000002FB031F8
(1675525544.492218) vcan0 2A9#8C260093C0000084
(1675525544.495041) vcan0 290#0000000000000000
(1675525544.495118) vcan0 260#D0FF0055497487B0
(1675525544.495197) vcan0 0E0#62731AF000800100
(1675525544.495273) vcan0 288#0EE0807F00000080
(1675525544.496073) vcan0 0F5#CE9ABF9A7F53B2CC
(1675525544.497161) vcan0 120#EA9A059B7F005689
(1675525544.498177) vcan0 125#E51A80E4C1D0D735
(1675525544.499265) vcan0 130#A7F41DFB1A9EF411
(1675525544.499363) vcan0 150#C61A034805F8D3C0
(1675525544.499440) vcan0 3CA#00000000520000C8
(1675525544.499518) vcan0 008#2F8064F000800080
(1675525544.500317) vcan0 010#000000002FB031F8
(1675525544.501333) vcan0 072#F000FF3F0078A038
(1675525544.502420) vcan0 1D0#0000000000000061
(1675525544.503870) vcan0 055#F3F7F327B2009C80
(1675525544.503956) vcan0 065#E2E6F3F7FFCDE001
(1675525544.504034) vcan0 070#00000BF8E0E11500
(1675525544.504111) vcan0 075#0000000000005458
(1675525544.504189) vcan0 080#E04F8000C2002C00
(1675525544.504266) vcan0 0B0#398313A3DFC139A3
(1675525544.504922) vcan0 145#F932DC80FC4810A1
(1675525544.506081) vcan0 210#02E080A0C169BF4D
(1675525544.510273) vcan0 1B0#00C0000001B000FC
(1675525544.510350) vcan0 1B5#FFAF65F934E0FFEF
(1675525544.510437) vcan0 1D8#363339343234DF43
(1675525544.510586) vcan0 1E0#0020734300B917E0
(1675525544.510663) vcan0 2C3#669C00FFFFC95450
(1675525544.510742) vcan0 008#2F8074E000800080
(1675525544.511324) vcan0 010#000000002FB031F8
(1675525544.512412) vcan0 291#0000000000000000
(1675525544.512491) vcan0 330#2800000000000000
(1675525544.513432) vcan0 0E0#627315F80080E600
(1675525544.514456) vcan0 072#F000FF3F00788038
(1675525544.515582) vcan0 360#709C00D2B345A001
(1675525544.516629) vcan0 0F5#B99AC29A7F57A2CE
(1675525544.517647) vcan0 120#0C9BFE9A7F015689
