(1675526018.312803) vcan0 2B5#4B9C296293A67E1B
(1675526018.312866) vcan0 2C0#468700000000A0F1
(1675526018.312943) vcan0 072#F000FF3F00788038
(1675526018.313095) vcan0 0F5#9098AB987F4BD261
(1675526018.313173) vcan0 120#B098DB987FFA5589
(1675526018.313250) vcan0 130#97FD1DD318E8FD11
(1675526018.313329) vcan0 150#9D18CC27D2F71EC0
(1675526018.314127) vcan0 210#1AE080A0A869C445
(1675526018.314206) vcan0 2C5#00DF87E153E60070
(1675526018.314283) vcan0 370#071FC000621BC71F
(1675526018.314370) vcan0 3AF#0000000000000020
(1675526018.314521) vcan0 3CA#00000000C00000C8
(1675526018.314598) vcan0 3E0#000000D92E808090
(1675526018.315181) vcan0 010#008800002FB031F8
(1675526018.316267) vcan0 1D0#0000000000000061
(1675526018.317283) vcan0 0E0#E27331D800804A00
(1675526018.318446) vcan0 008#CC80EC5300800080
(1675526018.320763) vcan0 1B0#00C0000005B000FC
(1675526018.323606) vcan0 1B5#FFD20EFE62E0FFEF
(1675526018.323679) vcan0 125#E58A7FE5C1D0D735
(1675526018.323824) vcan0 1D8#363339343234E043
(1675526018.323897) vcan0 1E0#0030334300B917E0
(1675526018.323972) vcan0 260#D0FF00AA497487B0
(1675526018.324045) vcan0 2C3#468700FFFF5E5450
(1675526018.324669) vcan0 010#008800002FB031F8
(1675526018.325840) vcan0 072#F000FF3F0078A038
(1675526018.325923) vcan0 2A9#8C260082C0000084
(1675526018.325998) vcan0 288#66DF00FF00000080
(1675526018.328607) vcan0 008#CC80FC4300800080
(1675526018.328751) vcan0 055#F3F7FF27B2319C80
(1675526018.328825) vcan0 065#52E6FFF700CEFF01
(1675526018.328898) vcan0 070#00000BF8FEE11500
(1675526018.329730) vcan0 075#0000000000005458
(1675526018.329804) vcan0 080#FD4F8000C2002C00
(1675526018.329878) vcan0 0B0#398313A3DFC139A3
(1675526018.329951) vcan0 145#F922DD80FC4810A1
(1675526018.330850) vcan0 0F5#9698AD987F4FC263
(1675526018.331884) vcan0 120#CB98D3987FF25589
(1675526018.333076) vcan0 130#9FFD1DD318D8FF11
(1675526018.333154) vcan0 150#A118CB37D2F70AC0
(1675526018.335394) vcan0 010#008800002FB031F8
(1675526018.338288) vcan0 1D0#0000000000000061
(1675526018.338374) vcan0 210#1AE080A0A869C44D
(1675526018.338452) vcan0 291#0000000000000000
(1675526018.338602) vcan0 0E0#E27333E000802800
(1675526018.338681) vcan0 008#CC800C3300800080
(1675526018.338758) vcan0 290#0000000000000000
(1675526018.339486) vcan0 350#A200000000000080
(1675526018.339562) vcan0 072#F000FF3F00788038
(1675526018.339641) vcan0 3B0#00D845383EBCC400
(1675526018.340511) vcan0 1B0#00C0000001B000FC
(1675526018.341527) vcan0 1B5#FFE21E066AE0FFEF
(1675526018.342619) vcan0 1D8#363339343234E043
(1675526018.342697) vcan0 125#E58A7FE5C1D0D735
(1675526018.342841) vcan0 1E0#0030330300B917E0
(1675526018.345113) vcan0 010#008800002FB031F8
(1675526018.347995) vcan0 330#C600000000000000
(1675526018.348069) vcan0 3C8#4687008E882C008E
(1675526018.348169) vcan0 008#CC801C2300800080
(1675526018.349066) vcan0 055#F3F7FF27B2319C80
(1675526018.349144) vcan0 065#53E6FFF7FFCDFF01
(1675526018.349215) vcan0 070#00000BF8FEE11500
(1675526018.349358) vcan0 075#0000000000005458
(1675526018.350185) vcan0 080#FD4F8000C2002C00
(1675526018.350328) vcan0 0B0#398313A3DFC139A3
(1675526018.350402) vcan0 145#F912DE80FC4810A1
(1675526018.350477) vcan0 28C#000020000016FEA8
(1675526018.350550) vcan0 2B5#4B9C286293A67D1C
(1675526018.351239) vcan0 340#9800000000000000
(1675526018.351382) vcan0 288#62DF00FF00000080
(1675526018.352417) vcan0 0F5#9698BF987F53B265
(1675526018.353738) vcan0 120#C698E8987FFA5589
(1675526018.353815) vcan0 130#A7FD1DD318C8FF11
(1675526018.353894) vcan0 150#AA18CE47D2F7F1C0
(1675526018.353981) vcan0 260#D0FF00AA497487B0
(1675526018.355357) vcan0 010#008800002FB031F8
(1675526018.355435) vcan0 072#F000FF3F0078A038
(1675526018.355512) vcan0 1D0#0000000000000861
(1675526018.356455) vcan0 0E0#E2732EE800800D00
(1675526018.357616) vcan0 008#CC802C1300800080
(1675526018.358633) vcan0 210#1AE080A0A869C445
(1675526018.361237) vcan0 1B0#00C0000003B000FC
(1675526018.363987) vcan0 1B5#FFF22E0E72E0FFEF
(1675526018.364061) vcan0 125#E58A7FE5C1D0D735
(1675526018.364135) vcan0 1D8#363339343234E043
(1675526018.364278) vcan0 1E0#0034234300B917E0
(1675526018.364354) vcan0 2C3#468700FFFF5E5450
(1675526018.365043) vcan0 010#008800002FB031F8
(1675526018.365117) vcan0 291#0000000000000000
(1675526018.366155) vcan0 2A9#8C26009BC0000084
(1675526018.368302) vcan0 008#CC803C0300800080
(1675526018.368380) vcan0 055#F3F7FF27B2319C80
(1675526018.371195) vcan0 065#52E6FFF700CEFF01
(1675526018.371268) vcan0 070#00000BF8FEE11500
(1675526018.371410) vcan0 075#0000000000005458
(1675526018.371486) vcan0 072#F000FF3F00788038
(1675526018.371560) vcan0 080#FD4F8000C2002C00
(1675526018.371634) vcan0 0B0#398313A3DFC139A3
(1675526018.371777) vcan0 145#F902DF80FC4810A1
(1675526018.371851) vcan0 290#0000000000000000
(1675526018.371925) vcan0 2C0#468700000000A0F1
(1675526018.371999) vcan0 2C5#00DF87E154E60070
(1675526018.372073) vcan0 360#498700A7BD64A041
(1675526018.372283) vcan0 0F5#9498A8987F57A267
(1675526018.375191) vcan0 120#CB98E0987FFD5589
(1675526018.375266) vcan0 130#AFFD1DD318B8FF11
(1675526018.375359) vcan0 150#9E18CB57D2F7EDC0
(1675526018.375437) vcan0 010#008800002FB031F9
(1675526018.375516) vcan0 1D0#0000000000000261
(1675526018.375665) vcan0 390#80FF0500022E544F
(1675526018.376320) vcan0 288#6EDF00FF00000080
(1675526018.377408) vcan0 0E0#E2732CF00080EF00
(1675526018.378499) vcan0 008#CC804CF300800080
(1675526018.380957) vcan0 1B0#00C0000004B000FC
(1675526018.383794) vcan0 1B5#FF023E167AE0FFEF
(1675526018.383937) vcan0 125#E58A7FE5C1D0D735
(1675526018.384014) vcan0 1D8#363339343234E043
(1675526018.384087) vcan0 1E0#0038134300B917E0
(1675526018.384161) vcan0 260#D0FF00AA497487B0
(1675526018.384991) vcan0 010#008800002FB031F8
(1675526018.385065) vcan0 072#F000FF3F0078A038
(1675526018.386101) vcan0 210#1AE080A0A869C44D
(1675526018.386192) vcan0 3D0#8A0F6100661780C3
(1675526018.387294) vcan0 008#CC805CE300800080
(1675526018.390043) vcan0 055#F3F7FF27B22F9C80
(1675526018.390187) vcan0 065#53E6FFF700CEFE01
(1675526018.390261) vcan0 070#00000BF8FEE11500
(1675526018.390334) vcan0 075#0000000000005458
(1675526018.390409) vcan0 080#FD4F8000C2002C00
(1675526018.390483) vcan0 0B0#398313A3DFC139A3
(1675526018.390626) vcan0 145#F9F2D080FC4810A1
(1675526018.390700) vcan0 28C#000020000016FEA8
(1675526018.390774) vcan0 2B5#4B9C286293A67D1B
(1675526018.391261) vcan0 0F5#AB98AB987F5B9269
(1675526018.392298) vcan0 120#CB98E5987FFC5589
(1675526018.392373) vcan0 130#B7FD1DD318A8FF11
(1675526018.393732) vcan0 150#AB18CB67D3F7D0C0
(1675526018.394822) vcan0 010#008800002FB031F8
(1675526018.395920) vcan0 1D0#0000000000000061
(1675526018.395999) vcan0 291#0000000000000000
(1675526018.397231) vcan0 0E0#E2732BF80080D000
(1675526018.398318) vcan0 008#CC806CD300800080
(1675526018.399406) vcan0 290#0000000000000000
(1675526018.402223) vcan0 072#F000FF3F00788038
(1675526018.402301) vcan0 288#5EDF10EF00000080
(1675526018.402379) vcan0 1B0#00C0000004B000FC
(1675526018.402458) vcan0 1B5#FF134E1E82E0FFEF
(1675526018.402535) vcan0 1D8#363339343234E043
(1675526018.402613) vcan0 125#E58A7FE5C1D0D735
(1675526018.402760) vcan0 1E0#0038130300B917E0
(1675526018.403316) vcan0 2C3#468700FFFF5F5450
(1675526018.404422) vcan0 010#008800002FB031F8
(1675526018.405457) vcan0 2A9#8C260082C0000084
(1675526018.407933) vcan0 008#CC807CC300800080
(1675526018.410829) vcan0 055#F3F7FF27B22F9C80
(1675526018.410906) vcan0 065#53E6FFF700CEFE01
(1675526018.410981) vcan0 070#00000BF8FEE11500
(1675526018.411125) vcan0 075#0000000000005458
(1675526018.411198) vcan0 080#FD4F8000C2002C00
(1675526018.411272) vcan0 0B0#398313A3DFC139A3
(1675526018.411347) vcan0 145#F9E2D180FC4810A1
(1675526018.411490) vcan0 210#1AE080A0A869C445
(1675526018.411565) vcan0 370#071FC000621BC71F
(1675526018.411983) vcan0 0F5#8598AD987F5F826B
(1675526018.412057) vcan0 120#BF98E0987FF65589
(1675526018.412200) vcan0 130#BFFD1DD0189BFF11
(1675526018.413086) vcan0 150#9818C877D3F7D3C0
(1675526018.413164) vcan0 260#D0FF0055497487B0
(1675526018.414183) vcan0 010#008800002FB031F8
(1675526018.415484) vcan0 072#F000FF3F0078A038
(1675526018.415573) vcan0 1D0#0000000000000061
(1675526018.416949) vcan0 0E0#E2732BC00080B000
(1675526018.418037) vcan0 008#CC808CB300800080
(1675526018.420497) vcan0 1B0#00C0000006B000FC
(1675526018.421513) vcan0 1B5#FF235E268AE0FFEF
(1675526018.422682) vcan0 125#E58A7FE5C1D0D735
(1675526018.422757) vcan0 1D8#363339343234E043
(1675526018.422831) vcan0 1E0#003C034300B917E0
(1675526018.425235) vcan0 010#008800002FB031F8
(1675526018.425310) vcan0 291#0000000000000000
(1675526018.428126) vcan0 330#C600000000000000
(1675526018.428199) vcan0 288#6ADF10EF00000080
(1675526018.428273) vcan0 008#CC809CA300800080
(1675526018.428348) vcan0 055#F3F7FF27B2319C80
(1675526018.429247) vcan0 065#53E6FFF700CEFE01
(1675526018.429321) vcan0 070#00000BF8FEE11500
(1675526018.429415) vcan0 075#0000000000005458
(1675526018.429490) vcan0 080#FD4F8000C2002C00
(1675526018.430318) vcan0 072#F000FF3F00788038
(1675526018.430393) vcan0 0B0#398313A3DFC139A3
(1675526018.430468) vcan0 145#F9D2D280FC4810A1
(1675526018.430610) vcan0 28C#000020000016FEA8
(1675526018.430684) vcan0 290#0000000000000000
(1675526018.431445) vcan0 2B5#4B9C286293A67D1B
(1675526018.431588) vcan0 2C0#468700000000A0F1
(1675526018.432924) vcan0 2C5#00DF87E154E60070
(1675526018.433004) vcan0 340#9800000000000000
(1675526018.433081) vcan0 0F5#8598AD987F63726D
(1675526018.433231) vcan0 120#BD98E0987FFF5589
(1675526018.433311) vcan0 130#C7FD1DCB1890FA11
(1675526018.433388) vcan0 150#9818CC87D3F7C3C0
(1675526018.433466) vcan0 350#A200000000000080
(1675526018.433552) vcan0 3AF#0000000000000020
(1675526018.433629) vcan0 3CA#00000000D10000C8
(1675526018.435586) vcan0 010#008800002FB031F8
(1675526018.435664) vcan0 1D0#0000000000000861
(1675526018.435741) vcan0 210#1AE08020A869C445
(1675526018.436612) vcan0 0E0#E2732AC800809100
(1675526018.437701) vcan0 008#CC80AC9300800080
(1675526018.441528) vcan0 1B0#00C0000004B000FC
(1675526018.441607) vcan0 1B5#FF336E2E92E0FFEF
(1675526018.442697) vcan0 125#E58A7FE5C1D0D735
(1675526018.442772) vcan0 1D8#363339343234E043
(1675526018.442846) vcan0 1E0#0000F34300B917E0
(1675526018.442921) vcan0 260#D0FF0055497487B0
(1675526018.444021) vcan0 2C3#468700FFFF5F5450
(1675526018.445057) vcan0 010#008800002FB031F8
(1675526018.445134) vcan0 072#F000FF3F0078A038
(1675526018.446176) vcan0 2A9#8C26008AC0000084
(1675526018.448720) vcan0 008#CC80BC8300800080
(1675526018.448796) vcan0 055#F3F7FF27B2319C80
(1675526018.448939) vcan0 065#52E6FEF7FFCDFD01
(1675526018.449014) vcan0 070#00000BF8FEE11500
(1675526018.449774) vcan0 075#0000000000005458
(1675526018.449916) vcan0 080#FD4F8000C2002C00
(1675526018.449989) vcan0 0B0#398313A3DFC139A3
(1675526018.450065) vcan0 145#F9C2D380FC4810A1
(1675526018.452607) vcan0 288#5ADF10EF00000080
(1675526018.452733) vcan0 0F5#8D98A8987F67626F
(1675526018.452813) vcan0 120#D398CB987FEF5589
(1675526018.452965) vcan0 130#CFFD1DCB1880FA11
(1675526018.453042) vcan0 150#9A18C897D3F7B1C0
(1675526018.453700) vcan0 010#008800002FB031F9
(1675526018.454861) vcan0 1D0#0000000000000261
(1675526018.455899) vcan0 291#0000000000000000
(1675526018.457060) vcan0 0E0#E27329D000807200
(1675526018.458437) vcan0 008#CC80CC7300800080
(1675526018.458516) vcan0 290#0000000000000000
(1675526018.460111) vcan0 072#F000FF3F00788038
(1675526018.460188) vcan0 210#1AE080A0A869C44D
(1675526018.460338) vcan0 3B0#00D845383EBCC400
(1675526018.461211) vcan0 1B0#00C0000001B000FC
(1675526018.462301) vcan0 1B5#FF437E369AE0FFEF
(1675526018.462378) vcan0 125#E58A7FE5C1D0D735
(1675526018.462528) vcan0 1D8#363339343234E043
(1675526018.462607) vcan0 1E0#0000F30300B917E0
(1675526018.465018) vcan0 010#008800002FB031F8
(1675526018.466191) vcan0 3C8#4687008E882C008E
(1675526018.467362) vcan0 008#CC80DC6300800080
(1675526018.468397) vcan0 055#F3F7FF27B2319C80
(1675526018.468484) vcan0 065#51E6FEF700CEFE01
(1675526018.469520) vcan0 070#00000BF8FEE11500
(1675526018.469594) vcan0 075#0000000000005458
(1675526018.472341) vcan0 080#FD4F8000C2002C00
(1675526018.472414) vcan0 0B0#398313A3DFC139A3
(1675526018.472489) vcan0 145#F9B2D480FC4810A1
(1675526018.472563) vcan0 28C#000020000016FEA8
(1675526018.472710) vcan0 2B5#4B9D286293A67E1B
(1675526018.472789) vcan0 360#498700A7BD64A041
(1675526018.472867) vcan0 0F5#9098AB987F6B5271
(1675526018.472944) vcan0 120#D398BF987FF85589
(1675526018.473022) vcan0 130#D7FD1DCB1870FA11
(1675526018.473101) vcan0 150#9D18C8A7D2F79EC0
(1675526018.473250) vcan0 260#D0FF0055497487B0
(1675526018.475059) vcan0 010#008800002FB031F8
(1675526018.475135) vcan0 072#F000FF3F0078A038
(1675526018.476162) vcan0 1D0#0000000000000061
(1675526018.476241) vcan0 390#80FF05000226564F
(1675526018.476319) vcan0 288#66DF10EF00000080
(1675526018.477262) vcan0 0E0#E27324D800805700
(1675526018.478352) vcan0 008#CC80EC5300800080
(1675526018.482183) vcan0 1B0#00C0000002B000FC
(1675526018.482262) vcan0 1B5#FF538E3EA2E0FFEF
(1675526018.482413) vcan0 125#E58A7FE5C1D0D735
(1675526018.482490) vcan0 1D8#363339343234E043
(1675526018.483266) vcan0 1E0#0004E34300B917E0
(1675526018.483339) vcan0 2C3#468700FFFF5F5450
(1675526018.484579) vcan0 010#008800002FB031F8
(1675526018.485751) vcan0 210#1AE080A0A869C44D
(1675526018.485825) vcan0 291#0000000000000000
(1675526018.485898) vcan0 2A9#8C260093C0000084
(1675526018.488645) vcan0 008#CC80FC4300800080
(1675526018.488676) vcan0 055#F3F7FF27B2319C80
(1675526018.488820) vcan0 065#51E6FEF7FFCDFD01
(1675526018.488893) vcan0 070#00000BF8FEE11500
(1675526018.489655) vcan0 075#0000000000005458
(1675526018.489797) vcan0 080#FD4F8000C2002C00
(1675526018.489872) vcan0 0B0#398313A3DFC139A3
(1675526018.489945) vcan0 072#F000FF3F00788038
(1675526018.490845) vcan0 145#F9A2D580FC4810A1
(1675526018.490919) vcan0 290#0000000000000000
(1675526018.490993) vcan0 2C0#468700000000A0F1
(1675526018.491067) vcan0 2C5#00DF87E152E60070
(1675526018.491895) vcan0 0F5#94989E987F6F4273
(1675526018.491970) vcan0 120#D098C4987FFA5589
(1675526018.493002) vcan0 130#DFFD1DCB1860FA11
(1675526018.494308) vcan0 150#9918CAB7D2F792C0
(1675526018.495827) vcan0 010#008800002FB031F8
(1675526018.495918) vcan0 1D0#0000000000000061
(1675526018.497006) vcan0 0E0#E2731DE000803E00
(1675526018.498020) vcan0 008#CC800C3300800080
(1675526018.500549) vcan0 288#66DF20DF00000080
(1675526018.501713) vcan0 1B0#00C0000002B000FC
(1675526018.502896) vcan0 1B5#FF639E46AAE0FFEF
(1675526018.503039) vcan0 125#E58A7FE5C1D0D735
(1675526018.503113) vcan0 1D8#363339343234E043
(1675526018.503188) vcan0 1E0#0008D34300B917E0
(1675526018.503263) vcan0 260#D0FF00AA497487B0
(1675526018.506007) vcan0 010#008800002FB031F8
(1675526018.506080) vcan0 072#F000FF3F0078A038
(1675526018.506155) vcan0 330#C600000000000000
(1675526018.507053) vcan0 008#CC801C2300800080
(1675526018.508087) vcan0 055#F3F7FF27B2319C80
(1675526018.509258) vcan0 065#51E6FEF700CEFE01
(1675526018.509342) vcan0 070#00000BF8FEE11500
(1675526018.509417) vcan0 075#0000000000005458
(1675526018.509490) vcan0 080#FD4F8000C2002C00
(1675526018.510319) vcan0 0B0#398313A3DFC139A3
(1675526018.510392) vcan0 145#F992D680FC4810A1
(1675526018.510464) vcan0 210#1AE080A0A869C445
(1675526018.510608) vcan0 28C#000020000016FEA8
(1675526018.511710) vcan0 2B5#4B9D286293A67E1B
(1675526018.511784) vcan0 340#9800000000000000
(1675526018.511926) vcan0 370#071FC000621BC71F
(1675526018.512001) vcan0 0F5#90989E987F733275
(1675526018.513363) vcan0 120#A098C4987FFC5589
(1675526018.513443) vcan0 130#E7FD1DC41857FA11
(1675526018.513520) vcan0 150#9618CBC7D2F785C0
(1675526018.514393) vcan0 010#008800002FB031F8
(1675526018.515554) vcan0 1D0#0000000000000861
(1675526018.515644) vcan0 291#0000000000000000
(1675526018.516587) vcan0 0E0#E27317E800802400
(1675526018.519334) vcan0 008#CC802C1300800080
(1675526018.519411) vcan0 290#0000000000000000
(1675526018.519489) vcan0 350#A200000000000080
(1675526018.519639) vcan0 072#F000FF3F00788038
(1675526018.520512) vcan0 1B0#00C0000001B000FC
(1675526018.521602) vcan0 1B5#FF73AE4EB2E0FFEF
(1675526018.522696) vcan0 125#E58D7FE5C1D0D735
(1675526018.522771) vcan0 1D8#363339343234E043
(1675526018.524081) vcan0 1E0#0008D30300B917E0
(1675526018.524155) vcan0 2C3#468700FFFF605450
(1675526018.525119) vcan0 010#008800002FB031F8
(1675526018.525262) vcan0 2A9#8C26008AC0000084
(1675526018.528145) vcan0 288#6ADF20DF00000080
(1675526018.528220) vcan0 008#CC803C0300800080
(1675526018.529197) vcan0 055#F3F7FF27B2319C80
(1675526018.529271) vcan0 065#53E6FEF700CEFE01
(1675526018.529344) vcan0 070#00000BF8FEE11500
(1675526018.529418) vcan0 075#0000000000005458
(1675526018.530315) vcan0 080#FD4F8000C2002C00
(1675526018.530388) vcan0 0B0#398313A3DFC139A3
(1675526018.530531) vcan0 145#F982D780FC4810A1
(1675526018.531497) vcan0 0F5#8398A0987F772277
(1675526018.532529) vcan0 120#9698CE987FF85589
(1675526018.532604) vcan0 130#EFFD1DC41847FA11
(1675526018.532711) vcan0 150#9118CCD7D2F77AC0
(1675526018.533871) vcan0 260#D0FF00AA497487B0
(1675526018.535466) vcan0 010#008800002FB031F9
(1675526018.535543) vcan0 072#F000FF3F0078A038
(1675526018.535620) vcan0 1D0#0000000000000261
(1675526018.535698) vcan0 210#1AE080A0A869C44D
(1675526018.536508) vcan0 0E0#E27311F000800A00
(1675526018.537667) vcan0 008#CC804CF300800080
(1675526018.541420) vcan0 1B0#00C0000004B000FC
(1675526018.542586) vcan0 1B5#FF83BE56BAE0FFEF
(1675526018.542684) vcan0 125#E58F7FE5C1D0D735
(1675526018.542758) vcan0 1D8#363339343234E043
(1675526018.542834) vcan0 1E0#000CC34300B917E0
(1675526018.544965) vcan0 010#008800002FB031F8
(1675526018.545999) vcan0 291#0000000000000000
(1675526018.546141) vcan0 400#010300010100011D
(1675526018.546215) vcan0 405#D5074A9A45186701
(1675526018.546289) vcan0 425#0000000000000000
(1675526018.549033) vcan0 008#CC805CE300800080
(1675526018.549106) vcan0 055#F3F7FF27B2319C80
(1675526018.549181) vcan0 065#52E6FEF701CEFD01
(1675526018.549255) vcan0 070#00000BF8FEE11500
(1675526018.549340) vcan0 075#0000000000005458
(1675526018.550033) vcan0 072#F000FF3F00788038
(1675526018.550175) vcan0 080#FD4F8000C2002C00
(1675526018.550248) vcan0 0B0#398313A3DFC139A3
(1675526018.550323) vcan0 145#F972D880FC4810A1
(1675526018.550396) vcan0 28C#000020000016FEA8
(1675526018.551156) vcan0 290#0000000000000000
(1675526018.551231) vcan0 2B5#4B9D286293A67E1B
(1675526018.551304) vcan0 288#62DF20DF00000080
(1675526018.553975) vcan0 2C0#468700000000A0F1
(1675526018.554054) vcan0 2C5#00DF86E153E60070
(1675526018.554133) vcan0 3AF#0000000000000020
(1675526018.554210) vcan0 0F5#8598A3987F7B1279
(1675526018.554360) vcan0 120#B298C2987FF45589
(1675526018.554439) vcan0 130#F7FD1DC21839FA11
(1675526018.554517) vcan0 150#9318CAE7D2F768C0
(1675526018.554606) vcan0 3CA#00000000D20000C8
(1675526018.555117) vcan0 010#008800002FB031F8
(1675526018.556203) vcan0 1D0#0000000000000061
(1675526018.557365) vcan0 0E0#E27313F80080E800
(1675526018.558379) vcan0 008#CA80645500800080
(1675526018.559682) vcan0 210#1AE080A0A869C445
(1675526018.561347) vcan0 1B0#00C0000000B000FC
(1675526018.562506) vcan0 1B5#FF92CE5EC2E0FFEF
(1675526018.562586) vcan0 125#E5927FE5C1D0D735
(1675526018.562689) vcan0 1D8#363339343234E043
(1675526018.562763) vcan0 1E0#0010B34300B917E0
(1675526018.562839) vcan0 260#D0FF00AA497487B0
(1675526018.563669) vcan0 2C3#468700FFFF605450
(1675526018.564776) vcan0 010#008800002FB031F8
(1675526018.565811) vcan0 072#F000FF3F0078A038
(1675526018.565953) vcan0 2A9#8C260093C0000084
(1675526018.568641) vcan0 008#C880743215800080
(1675526018.568715) vcan0 055#F3F7FF27B2319C80
(1675526018.568790) vcan0 065#53E6FEF700CEFD01
(1675526018.569687) vcan0 070#00000BF8FEE11500
(1675526018.569762) vcan0 075#0000000000005458
(1675526018.569836) vcan0 080#FD4F8000C2002C00
(1675526018.572576) vcan0 0B0#398313A3DFC139A3
(1675526018.572650) vcan0 145#F962D980FC4810A1
(1675526018.572779) vcan0 360#498700A7BD64A041
(1675526018.572858) vcan0 0F5#8898A6987F7F027B
(1675526018.572934) vcan0 120#BA98D3987FF85589
(1675526018.573013) vcan0 130#FFFA1DC21829FA11
(1675526018.573091) vcan0 150#9618C8F7D2F755C0
(1675526018.573676) vcan0 010#008800002FB031F8
(1675526018.574761) vcan0 1D0#0000000000000061
(1675526018.575920) vcan0 291#0000000000000000
(1675526018.576080) vcan0 390#80FF05000226564F
(1675526018.576160) vcan0 288#6ADF20DF00000080
(1675526018.577247) vcan0 0E0#E27311C00080CA00
(1675526018.578334) vcan0 008#C580841723800080
(1675526018.581225) vcan0 290#0000000000000000
(1675526018.581304) vcan0 072#F000FF3F00788038
(1675526018.581454) vcan0 3B0#00D845383EBCC400
(1675526018.582324) vcan0 1B0#00C0000002B000FC
(1675526018.582403) vcan0 1B5#FFA2DE66CAE0FFEF
(1675526018.582480) vcan0 125#E5947FE5C1D0D735
(1675526018.582558) vcan0 1D8#363339343234E043
(1675526018.582635) vcan0 1E0#0010B30300B917E0
(1675526018.583470) vcan0 010#008800002FB031F8
(1675526018.584504) vcan0 210#1AE08020A869C44D
(1675526018.585675) vcan0 330#C600000000000000
(1675526018.585750) vcan0 3D0#8A0F6100661780C3
(1675526018.586932) vcan0 3C8#4687008E882C008E
(1675526018.589950) vcan0 008#C380940923800080
(1675526018.590025) vcan0 055#F3F7FF27B2319C80
(1675526018.590099) vcan0 065#52E6FEF700CEFD01
(1675526018.590241) vcan0 070#00000BF8FEE11500
(1675526018.590317) vcan0 075#0000000000005458
(1675526018.590391) vcan0 080#FD4F8000C2002C00
(1675526018.590464) vcan0 0B0#398313A3DFC139A3
(1675526018.590538) vcan0 145#F952DA80FC4810A1
(1675526018.590681) vcan0 28C#000020000016FEA8
(1675526018.591097) vcan0 2B5#4B9D286293A67E1A
(1675526018.591172) vcan0 340#9800000000000000
(1675526018.591314) vcan0 430#43084300000016A6
(1675526018.592144) vcan0 0F5#7E9899987F43F27D
(1675526018.592286) vcan0 120#B898C9987FFC5589
(1675526018.592360) vcan0 130#87FD1DC21819FA11
(1675526018.593585) vcan0 150#8C18CE07D2F74FC0
(1675526018.593663) vcan0 260#D0FF00AA497487B0
(1675526018.594754) vcan0 010#008800002FB031F8
(1675526018.595845) vcan0 072#F000FF3F0078A038
(1675526018.595922) vcan0 1D0#0000000000000861
(1675526018.597153) vcan0 0E0#E27308C80080B300
(1675526018.598313) vcan0 008#C380A4EA32800080
(1675526018.600984) vcan0 288#6EDF30CF00000080
(1675526018.602072) vcan0 1B0#00C0000002B000FC
(1675526018.602150) vcan0 1B5#FFB3EE6ED2E0FFEF
(1675526018.602300) vcan0 125#E5977FE5C1D0D735
(1675526018.602378) vcan0 1D8#363339343234E043
(1675526018.603156) vcan0 1E0#0014A34300B917E0
(1675526018.603299) vcan0 2C3#468700FFFF605450
(1675526018.605840) vcan0 010#008800002FB031F8
(1675526018.605916) vcan0 291#0000000000000000
(1675526018.606960) vcan0 2A9#8C26008AC0000084
(1675526018.607995) vcan0 008#BF80B4D040800080
(1675526018.609166) vcan0 055#F3F7FF27B2319C80
(1675526018.609241) vcan0 065#53E6FEF700CEFD01
(1675526018.610546) vcan0 070#00000BF8FEE11500
(1675526018.610621) vcan0 075#0000000000005458
(1675526018.610763) vcan0 080#FD4F8000C2002C00
(1675526018.610838) vcan0 0B0#398313A3DFC139A3
(1675526018.610912) vcan0 072#F000FF3F00788038
(1675526018.610986) vcan0 145#F942DB80FC4810A1
(1675526018.611059) vcan0 210#1AE080A0A869C445
(1675526018.611202) vcan0 290#0000000000000000
(1675526018.611277) vcan0 2C0#468700000000A0F1
(1675526018.611694) vcan0 2C5#00DF86E152E60070
(1675526018.614590) vcan0 350#A200000000000080
(1675526018.614668) vcan0 370#071FC000621BC71F
(1675526018.614758) vcan0 0F5#909896987F47E27F
(1675526018.614837) vcan0 120#AD98CE987FF65589
(1675526018.614915) vcan0 130#8FFD1DC21809FD11
(1675526018.615065) vcan0 150#9218CE17D3F739C0
(1675526018.615143) vcan0 3E0#000000D92E808090
(1675526018.615722) vcan0 010#008800002FB031F9
(1675526018.615803) vcan0 1D0#0000000000000261
(1675526018.616815) vcan0 0E0#E27301D000809A00
(1675526018.617901) vcan0 008#BF80C4AA56800080
(1675526018.621730) vcan0 1B0#00C0000003B000FC
(1675526018.621807) vcan0 1B5#FFC3FE76DAE0FFEF
(1675526018.621886) vcan0 125#E59A7FE5C1D0D735
(1675526018.622828) vcan0 1D8#363339343234E043
(1675526018.622971) vcan0 1E0#0018934300B917E0
(1675526018.623044) vcan0 260#D0FF0055497487B0
(1675526018.625315) vcan0 010#008800002FB031F8
(1675526018.625433) vcan0 072#F000FF3F0078A038
(1675526018.626467) vcan0 288#5EDF30CF00000080
(1675526018.629350) vcan0 008#BC80D48F64800080
(1675526018.629424) vcan0 055#F3F7FF27B22F9C80
(1675526018.629498) vcan0 065#52E6FEF700CEFD01
(1675526018.629641) vcan0 070#00000BF8FEE11500
(1675526018.629717) vcan0 075#0000000000005458
(1675526018.629790) vcan0 080#FD4F8000C2002C00
(1675526018.629865) vcan0 0B0#398313A3DFC139A3
(1675526018.630487) vcan0 145#F932DC80FC4810A1
(1675526018.630562) vcan0 28C#000020000016FEA8
(1675526018.630705) vcan0 2B5#4B9D286293A67E1A
(1675526018.631532) vcan0 0F5#6F989E987F4BD281
(1675526018.632718) vcan0 120#A098D6987FFA5589
(1675526018.632797) vcan0 130#97FD1DBA1801FA11
(1675526018.632876) vcan0 150#8718C827D3F734C0
(1675526018.635269) vcan0 010#008800002FB031F8
(1675526018.638156) vcan0 1D0#0000000000000061
(1675526018.638233) vcan0 210#1AE080A0A869C445
(1675526018.638311) vcan0 291#0000000000000000
(1675526018.638390) vcan0 0E0#627304D800807700
(1675526018.638465) vcan0 008#BA80E47273800080
(1675526018.639193) vcan0 290#0000000000000000
(1675526018.640353) vcan0 072#F000FF3F00788038
(1675526018.641368) vcan0 1B0#00C0000005B000FC
(1675526018.642457) vcan0 1B5#FFD20E7DE2E0FFEF
(1675526018.642536) vcan0 125#E59D7FE5C1D0D735
(1675526018.642614) vcan0 1D8#363339343234E043
(1675526018.642764) vcan0 1E0#0018930300B917E0
(1675526018.643866) vcan0 2C3#468700FFFF615450
(1675526018.645445) vcan0 010#008800002FB031F8
(1675526018.645519) vcan0 2A9#8C260082C0000084
(1675526018.646572) vcan0 008#BA80F46273800080
(1675526018.647674) vcan0 055#F3F7FF27B2319C80
(1675526018.648775) vcan0 065#52E6FEF700CEFD01
(1675526018.648851) vcan0 070#00000BF8FEE11500
(1675526018.649815) vcan0 075#0000000000005458
(1675526018.649958) vcan0 080#FD4F8000C2002C00
(1675526018.650031) vcan0 0B0#398313A3DFC139A3
(1675526018.650106) vcan0 145#F922DD80FC4810A1
(1675526018.652576) vcan0 288#7ADF30CF00000080
(1675526018.652649) vcan0 0F5#749890987F4FC283
(1675526018.652712) vcan0 120#B898D0987FF85589
(1675526018.652794) vcan0 130#9FFD1DBA18F1FA11
(1675526018.652944) vcan0 150#8218CF37D4F729C0
(1675526018.653021) vcan0 260#D0FF0055497487B0
(1675526018.655192) vcan0 010#008800002FB031F8
(1675526018.655271) vcan0 072#F000FF3F0078A038
(1675526018.656371) vcan0 1D0#0000000000000061
(1675526018.657389) vcan0 0E0#627302E000805900
(1675526018.658549) vcan0 008#B880044681800080
(1675526018.659851) vcan0 210#1AE080A0A869C44D
(1675526018.661441) vcan0 1B0#00C0000004B000FC
(1675526018.662603) vcan0 1B5#FFE21E85EAE0FFEF
(1675526018.662684) vcan0 125#E5A07FE5C1D0D735
(1675526018.662761) vcan0 1D8#363339343234E043
(1675526018.662835) vcan0 1E0#001C834300B917E0
(1675526018.663732) vcan0 010#008800002FB031F8
(1675526018.664768) vcan0 291#0000000000000000
(1675526018.665942) vcan0 330#C600000000000000
(1675526018.668754) vcan0 008#B880144C6B800080
(1675526018.668828) vcan0 055#F3F7FF27B2319C80
(1675526018.668902) vcan0 065#4FE6FEF7FFCDFD01
(1675526018.668976) vcan0 070#00000BF8FEE11500
(1675526018.669812) vcan0 075#0000000000005458
(1675526018.669887) vcan0 080#FD4F8000C2002C00
(1675526018.672708) vcan0 072#F000FF3F00788038
(1675526018.672787) vcan0 0B0#398312A3DFC139A3
(1675526018.672865) vcan0 145#F912DE80FC4810A1
(1675526018.672942) vcan0 28C#000020000016FEA8
(1675526018.673020) vcan0 290#0000000000000000
(1675526018.673171) vcan0 2B5#4B9D286293A67E1A
(1675526018.673249) vcan0 2C0#468700000000A0F1
(1675526018.673326) vcan0 2C5#00DF86E150E60070
(1675526018.673404) vcan0 340#9800000000000000
(1675526018.673480) vcan0 360#498700A7BD64A041
(1675526018.673559) vcan0 0F5#80989E987F53B285
(1675526018.673709) vcan0 120#B598B5987FF85589
(1675526018.673787) vcan0 130#A7FD1DB518E6F711
(1675526018.673865) vcan0 150#8F18D047D4F70CC0
(1675526018.674311) vcan0 3AF#0000000000000020
(1675526018.674388) vcan0 3CA#00000000D30000C8
(1675526018.675479) vcan0 010#008800002FB031F8
(1675526018.675557) vcan0 1D0#0000000000000861
(1675526018.675635) vcan0 390#80FF05000222574F
(1675526018.676506) vcan0 288#7ADF30CF00000080
(1675526018.676585) vcan0 0E0#E27305E800803600
(1675526018.677673) vcan0 008#B880244A5D800080
(1675526018.681429) vcan0 1B0#00C0000002B000FC
(1675526018.682516) vcan0 1B5#FFF22E8DF2E0FFEF
(1675526018.682677) vcan0 125#E5A37FE5C1D0D735
(1675526018.682750) vcan0 1D8#363339343234E043
(1675526018.682826) vcan0 1E0#0020734300B917E0
(1675526018.682899) vcan0 260#D0FF0055497487B0
(1675526018.683865) vcan0 2C3#468700FFFF615450
(1675526018.684900) vcan0 010#008800002FB031F8
(1675526018.684987) vcan0 072#F000FF3F0078A038
(1675526018.686091) vcan0 210#1AE080A0A869C445
(1675526018.686165) vcan0 2A9#8C26009BC0000084
(1675526018.688842) vcan0 008#B680343C5D800080
(1675526018.688985) vcan0 055#F3F7FF27B2319C80
(1675526018.689058) vcan0 065#50E6FEF700CEFD01
(1675526018.689142) vcan0 070#00000BF8FEE11500
(1675526018.689961) vcan0 075#0000000000005458
(1675526018.690036) vcan0 080#FD4F8000C2002C00
(1675526018.690109) vcan0 0B0#398312A3DFC139A3
(1675526018.690184) vcan0 145#F902DF80FC4810A1
(1675526018.691083) vcan0 0F5#749894987F57A287
(1675526018.692115) vcan0 120#C298C1987FFA5589
(1675526018.692258) vcan0 130#AFFD1DB518D6F711
(1675526018.693220) vcan0 150#8418D557D5F707C0
(1675526018.695755) vcan0 010#008800002FB031F9
(1675526018.698655) vcan0 1D0#0000000000000261
(1675526018.698734) vcan0 291#0000000000000000
(1675526018.698812) vcan0 0E0#E27308F000801300
(1675526018.698890) vcan0 008#B680443A4F800080
(1675526018.698967) vcan0 290#0000000000000000
(1675526018.699697) vcan0 350#A200000000000080
(1675526018.700715) vcan0 072#F000FF3F00788038
(1675526018.700865) vcan0 3B0#00D845383EBCC600
(1675526018.700943) vcan0 288#7ADF40BF00000080
(1675526018.701888) vcan0 1B0#00C0000004B000FC
(1675526018.701966) vcan0 1B5#FF023F95FAE0FFEF
(1675526018.702046) vcan0 125#E5A37FE5C1D0D735
(1675526018.702977) vcan0 1D8#363339343234E043
(1675526018.704353) vcan0 1E0#0020730300B917E0
(1675526018.707304) vcan0 010#008800002FB031F8
(1675526018.707447) vcan0 3C8#4687008E882C008E
(1675526018.708354) vcan0 008#B680543940800080
(1675526018.708497) vcan0 055#F3F7FF27B2319C80
(1675526018.708572) vcan0 065#4FE6FEF7FECDFE01
(1675526018.709539) vcan0 070#00000BF8FEE11500
(1675526018.709614) vcan0 075#0000000000005458
(1675526018.709687) vcan0 080#FD4F8000C2002C00
(1675526018.709831) vcan0 0B0#398312A3DFC139A3
(1675526018.710590) vcan0 145#F9F2D080FC4810A1
(1675526018.710664) vcan0 210#1AE080A0A869C44D
(1675526018.710739) vcan0 28C#000020000016FEA8
(1675526018.710881) vcan0 2B5#4B9D286293A67F1B
(1675526018.710955) vcan0 370#071FC000621BC71F
(1675526018.711646) vcan0 0F5#859891987F5B9289
(1675526018.713150) vcan0 120#BA98B2987FF55589
(1675526018.713229) vcan0 130#B7FD1DB518C6F711
(1675526018.713307) vcan0 150#8B18D267D6F7F0C0
(1675526018.713396) vcan0 260#D0FF00AA497487B0
(1675526018.715707) vcan0 010#008800002FB031F8
(1675526018.715786) vcan0 072#F000FF3F0078A038
(1675526018.715863) vcan0 1D0#0000000000000061
(1675526018.716734) vcan0 0E0#E27308F80080F300
(1675526018.717891) vcan0 008#B680643E2B800080
(1675526018.720348) vcan0 1B0#00C0000005B000FC
(1675526018.723231) vcan0 1B5#FF124F9D02E0FFEF
(1675526018.723305) vcan0 125#E5A37FE5C1D0D735
(1675526018.723380) vcan0 1D8#363339343234E043
(1675526018.723453) vcan0 1E0#0024634300B917E0
(1675526018.723597) vcan0 2C3#468700FFFF615450
(1675526018.724289) vcan0 010#008800002FB031F8
(1675526018.725392) vcan0 291#0000000000000000
(1675526018.725534) vcan0 2A9#8C260082C0000084
(1675526018.726499) vcan0 288#76DF40BF00000080
(1675526018.727885) vcan0 008#B680743D1C800080
(1675526018.728919) vcan0 055#F3F7FF27B22F9C80
(1675526018.728992) vcan0 065#4FE6FFF700CEFE01
(1675526018.729146) vcan0 070#00000BF8FEE11500
(1675526018.731811) vcan0 075#0000000000005458
(1675526018.731886) vcan0 072#F000FF3F00788038
(1675526018.732027) vcan0 080#FD4F8000C2002C00
(1675526018.732101) vcan0 0B0#398312A3DFC139A3
(1675526018.732177) vcan0 145#F9E2D180FC4810A1
(1675526018.732249) vcan0 290#0000000000000000
(1675526018.732392) vcan0 2C0#468700000000A0F1
(1675526018.732466) vcan0 2C5#00DF86E14FE60070
(1675526018.732539) vcan0 0F5#7E988D987F5F828B
(1675526018.732613) vcan0 120#9E98B5987FFA5589
(1675526018.732929) vcan0 130#BFFD1DB518B6FD11
(1675526018.733007) vcan0 150#8518D077D6F7E6C0
(1675526018.734045) vcan0 010#008800002FB031F8
(1675526018.735133) vcan0 1D0#0000000000000061
(1675526018.735211) vcan0 210#1AE08020A869C44D
(1675526018.736441) vcan0 0E0#E27308C00080D300
(1675526018.738031) vcan0 008#B680842623800080
(1675526018.739046) vcan0 1B0#00C0000002B000FC
(1675526018.740132) vcan0 1B5#FF225FA50AE0FFEF
(1675526018.741149) vcan0 125#E5A37FE5C1D0D735
(1675526018.742309) vcan0 1D8#363339343234E043
(1675526018.743714) vcan0 1E0#0028534300B917E0
(1675526018.743789) vcan0 260#D0FF00AA497487B0
(1675526018.746669) vcan0 010#008800002FB031F8
(1675526018.746744) vcan0 072#F000FF3F0078A038
(1675526018.746887) vcan0 330#C600000000000000
(1675526018.747852) vcan0 008#B680941623800080
(1675526018.748886) vcan0 055#F3F7FE27B22F9C80
(1675526018.748970) vcan0 065#4EE6FFF7FFCDFE01
(1675526018.749046) vcan0 070#00000BF8FEE11500
(1675526018.749118) vcan0 075#0000000000005458
(1675526018.750016) vcan0 080#FD4F8000C2002C00
(1675526018.750089) vcan0 0B0#398312A3DFC139A3
(1675526018.750233) vcan0 145#F9D2D280FC4810A1
(1675526018.750306) vcan0 28C#000020000016FEA8
(1675526018.750380) vcan0 2B5#4B9D286293A67F1B
(1675526018.751071) vcan0 340#9800000000000000
(1675526018.751212) vcan0 288#7ADF40BF00000080
(1675526018.752519) vcan0 0F5#6F9885987F63728D
(1675526018.752592) vcan0 120#9B98C6987FF65589
(1675526018.752717) vcan0 130#C7FD1DB518A6FD11
(1675526018.752797) vcan0 150#7A18D387D7F7E1C0
(1675526018.755110) vcan0 010#008800002FB031F8
(1675526018.755261) vcan0 1D0#0000000000000861
(1675526018.756215) vcan0 291#0000000000000000
(1675526018.757304) vcan0 0E0#E2730EC80080AD00
(1675526018.758392) vcan0 008#B680A41415800080
(1675526018.759695) vcan0 290#0000000000000000
(1675526018.759773) vcan0 072#F000FF3F00788038
(1675526018.759850) vcan0 210#1AE080A0A869C445
(1675526018.761369) vcan0 1B0#00C0000002B000FC
(1675526018.762532) vcan0 1B5#FF326FAD12E0FFEF
(1675526018.762611) vcan0 125#E5A57FE5C1D0D735
(1675526018.762761) vcan0 1D8#363339343234E043
(1675526018.762837) vcan0 1E0#0028530300B917E0
(1675526018.762910) vcan0 2C3#468700FFFF625450
(1675526018.763606) vcan0 010#008800002FB031F8
(1675526018.764779) vcan0 2A9#8C26009BC0000084
(1675526018.768550) vcan0 008#B680B40415800080
(1675526018.768623) vcan0 055#F3F7FE27B22F9C80
(1675526018.768722) vcan0 065#4EE6FFF700CEFE01
(1675526018.769688) vcan0 070#00000BF8FEE11500
(1675526018.769763) vcan0 075#0000000000005458
(1675526018.769836) vcan0 080#FD4F8000C2002C00
(1675526018.772512) vcan0 0B0#398312A3DFC139A3
(1675526018.772585) vcan0 145#F9C2D380FC4810A1
(1675526018.772704) vcan0 360#498700A7BD64A041
(1675526018.772784) vcan0 0F5#7E9896987F67628F
(1675526018.772864) vcan0 120#AB98C4987FFB5589
(1675526018.772941) vcan0 130#CFFD1DB51896FF11
(1675526018.773018) vcan0 150#8A18D097D8F7C1C0
(1675526018.773096) vcan0 260#D0FF00AA497487B0
(1675526018.773537) vcan0 010#008800002FB031F9
(1675526018.774626) vcan0 072#F000FF3F0078A038
(1675526018.775788) vcan0 1D0#0000000000000261
(1675526018.775866) vcan0 390#80FF0500021A594F
(1675526018.775954) vcan0 288#6EDF40BF00000080
(1675526018.777114) vcan0 0E0#E2730BD000809000
(1675526018.778202) vcan0 008#B680C4F415800080
(1675526018.780661) vcan0 1B0#00C0000003B000FC
(1675526018.781822) vcan0 1B5#FF427FB51AE0FFEF
(1675526018.781900) vcan0 125#E5A57FE5C1D0D735
(1675526018.782839) vcan0 1D8#363339343234E043
(1675526018.782981) vcan0 1E0#002C434300B917E0
(1675526018.785318) vcan0 010#008800002FB031F8
(1675526018.785392) vcan0 210#1AE080A0A869C44D
(1675526018.785466) vcan0 291#0000000000000000
(1675526018.788210) vcan0 3D0#8A0F6100661780C3
(1675526018.788286) vcan0 008#B380D4D923800080
(1675526018.788359) vcan0 055#F3F7FE27B22F9C80
(1675526018.789325) vcan0 065#4EE6FFF7FFCDFE01
(1675526018.789470) vcan0 070#00000BF8FEE11500
(1675526018.789563) vcan0 075#0000000000005458
(1675526018.789638) vcan0 080#FD4F8000C2002C00
(1675526018.789711) vcan0 072#F000FF3F00788038
(1675526018.790540) vcan0 0B0#398312A3DFC139A3
(1675526018.790614) vcan0 145#F9B2D480FC4810A1
(1675526018.790687) vcan0 28C#000020000016FEA8
(1675526018.790762) vcan0 290#0000000000000000
(1675526018.790906) vcan0 2B5#4B9D286293A67F1B
(1675526018.791598) vcan0 2C0#468700000000A0F1
(1675526018.791671) vcan0 2C5#00DF86E24EE60070
(1675526018.794525) vcan0 350#A200000000000080
(1675526018.794604) vcan0 0F5#8B98AD987F6B5291
(1675526018.794682) vcan0 120#A398B5987FFC5589
(1675526018.794758) vcan0 130#D7FD1DB0188BFD11
(1675526018.794837) vcan0 150#9B18D5A7D9F7A0C0
(1675526018.794914) vcan0 3AF#0000000000000020
(1675526018.795003) vcan0 3CA#00000000D40000C8
(1675526018.795659) vcan0 010#008800002FB031F8
(1675526018.795738) vcan0 1D0#0000000000000061
(1675526018.795815) vcan0 400#0F0102010100011E
(1675526018.795894) vcan0 405#4987003C002D3402
(1675526018.796840) vcan0 0E0#E27301D800807A00
(1675526018.798143) vcan0 008#B180E4BC32800080
(1675526018.800816) vcan0 288#93DF50AF00000080
(1675526018.801904) vcan0 1B0#00C0000005B000FC
(1675526018.801983) vcan0 1B5#FF528FBD22E0FFEF
(1675526018.802059) vcan0 125#E5A87FE5C1D0D735
(1675526018.802922) vcan0 1D8#363339343234E043
(1675526018.802998) vcan0 1E0#0030334300B917E0
(1675526018.803141) vcan0 260#D0FF0055497487B0
(1675526018.803215) vcan0 2C3#468700FFFF625450
(1675526018.805756) vcan0 010#008800002FB031F8
(1675526018.805851) vcan0 072#F000FF3F0078A038
(1675526018.806883) vcan0 2A9#8C260082C0000084
(1675526018.807916) vcan0 008#AF80F4AE32800080
(1675526018.809020) vcan0 055#F3F7FE27B22F9C80
(1675526018.809093) vcan0 065#4FE6FFF701CEFE01
(1675526018.811906) vcan0 070#00000BF8FEE11500
(1675526018.811980) vcan0 075#0000000000005458
(1675526018.812054) vcan0 080#FD4F8000C2002C00
(1675526018.812129) vcan0 0B0#398312A3DFC139A3
(1675526018.812204) vcan0 145#F9A2D580FC4810A1
(1675526018.812346) vcan0 210#1AE080A0A869C445
(1675526018.812418) vcan0 370#071FC000621BC71F
(1675526018.812493) vcan0 0F5#659888987F6F4293
(1675526018.812568) vcan0 120#A698C9987FFF5589
(1675526018.812949) vcan0 130#DFFD1DB0187BFD11
(1675526018.813026) vcan0 150#7618DAB7D9F7B5C0
(1675526018.814127) vcan0 010#008800002FB031F8
(1675526018.815143) vcan0 1D0#0000000000000061
(1675526018.816518) vcan0 291#0000000000000000
(1675526018.816597) vcan0 0E0#627302E000805900
(1675526018.818116) vcan0 008#AF80048947800080
(1675526018.819204) vcan0 290#0000000000000000
(1675526018.820293) vcan0 072#F000FF3F00788038
(1675526018.820370) vcan0 3B0#00FC45383EBCC400
(1675526018.821460) vcan0 1B0#00C0000008B000FC
(1675526018.822548) vcan0 1B5#FF629FC52AE0FFEF
(1675526018.822701) vcan0 125#E5A87FE5C1D0D735
(1675526018.822777) vcan0 1D8#363339343234E043
(1675526018.822850) vcan0 1E0#0030330300B917E0
(1675526018.825321) vcan0 010#008800002FB031F8
(1675526018.825395) vcan0 330#C600000000000000
(1675526018.826434) vcan0 288#72DF50AF00000080
(1675526018.826519) vcan0 3C8#4687008E882C008E
(1675526018.827623) vcan0 008#AF80147947800080
(1675526018.828657) vcan0 055#F3F7FE27B22F9C80
(1675526018.831333) vcan0 065#4FE6FEF700CEFE01
(1675526018.831475) vcan0 070#00000BF8FEE11500
(1675526018.831548) vcan0 075#0000000000005458
(1675526018.831623) vcan0 080#FD4F8000C2002C00
(1675526018.831697) vcan0 0B0#398312A3DFC139A3
(1675526018.831839) vcan0 145#F992D680FC4810A1
(1675526018.831914) vcan0 28C#000020000016FEA8
(1675526018.831987) vcan0 2B5#4B9D286293A67F1B
(1675526018.832060) vcan0 340#9800000000000000
(1675526018.832942) vcan0 0F5#90988B987F733295
(1675526018.833020) vcan0 120#A398BA987FF25589
(1675526018.833099) vcan0 130#E7FD1DB0186BFD11
(1675526018.833175) vcan0 150#8D18CFC7D9F78EC0
(1675526018.833265) vcan0 260#D0FF0055497487B0
(1675526018.834069) vcan0 010#008800002FB031F8
(1675526018.835156) vcan0 072#F000FF3F0078A038
(1675526018.836316) vcan0 1D0#0000000000000861
(1675526018.836393) vcan0 210#1AE080A0A869C445
(1675526018.837336) vcan0 0E0#E27301E800803A00
(1675526018.838714) vcan0 008#AF80247E32800080
(1675526018.841673) vcan0 1B0#00C0000007B000FC
(1675526018.841823) vcan0 1B5#FF72AECD31E0FFEF
(1675526018.842837) vcan0 125#E5A87FE5C1D0D735
(1675526018.842910) vcan0 1D8#363339343234E043
(1675526018.843054) vcan0 1E0#0034234300B917E0
(1675526018.843128) vcan0 2C3#468700FFFF625450
(1675526018.843889) vcan0 010#008800002FB031F8
(1675526018.844992) vcan0 291#0000000000000000
(1675526018.846094) vcan0 2A9#8C26008AC0000084
(1675526018.848576) vcan0 008#AF80346E32800080
(1675526018.851460) vcan0 055#F3F7FE27B22F9C80
(1675526018.851536) vcan0 065#4DE6FEF700CEFE01
(1675526018.851678) vcan0 070#00000BF8FEE11500
(1675526018.851752) vcan0 075#0000000000005458
(1675526018.851826) vcan0 080#FD4F8000C2002C00
(1675526018.851900) vcan0 0B0#398313A3DFC139A3
(1675526018.852043) vcan0 072#F000FF3F00788038
(1675526018.852117) vcan0 145#F982D780FC4810A1
(1675526018.852192) vcan0 290#0000000000000000
(1675526018.852266) vcan0 2C0#468700000000A0F1
(1675526018.852408) vcan0 2C5#00DF86E24FE60070
(1675526018.852483) vcan0 288#8BDF50AF00000080
(1675526018.852557) vcan0 0F5#6F9888987F772297
(1675526018.852632) vcan0 120#9498C4987FF95589
(1675526018.852724) vcan0 130#EFFD1DAB1860FA11
(1675526018.853970) vcan0 150#7B18D3D7DAF790C0
(1675526018.855129) vcan0 010#008800002FB031F9
(1675526018.856148) vcan0 1D0#0000000000000261
(1675526018.857310) vcan0 0E0#E27303F000801800
(1675526018.858686) vcan0 008#AC80446132800080
(1675526018.859848) vcan0 210#1AE080A0A869C44D
(1675526018.862758) vcan0 1B0#00C0000005B000FC
(1675526018.862834) vcan0 1B5#FF82BED539E0FFEF
(1675526018.862907) vcan0 125#E5AB7FE5C1D0D735
(1675526018.863050) vcan0 1D8#363339343234E043
(1675526018.863124) vcan0 1E0#0038134300B917E0
(1675526018.863198) vcan0 260#D0FF0055497487B0
(1675526018.863824) vcan0 010#008800002FB031F8
(1675526018.864925) vcan0 072#F000FF3F0078A038
(1675526018.867396) vcan0 008#AC80545132800080
(1675526018.868570) vcan0 055#F3F7FE27B22F9C80
(1675526018.871325) vcan0 065#4EE6FEF7FFCDFE01
(1675526018.871398) vcan0 070#00000BF8FEE11500
(1675526018.871541) vcan0 075#0000000000005458
(1675526018.871614) vcan0 080#FD4F8000C2002C00
(1675526018.871688) vcan0 0B0#398313A3DFC139A3
(1675526018.871762) vcan0 145#F972D880FC4810A1
(1675526018.871904) vcan0 28C#000020000016FEA8
(1675526018.871978) vcan0 2B5#4B9D286293A67F1B
(1675526018.872052) vcan0 360#498700A7BD64A041
(1675526018.872401) vcan0 0F5#7B9896987F7B1299
(1675526018.872476) vcan0 120#A898BA987FF95589
(1675526018.872618) vcan0 130#F7FD1DAB1850FA11
(1675526018.872711) vcan0 150#8918D7E7DAF772C0
(1675526018.873586) vcan0 010#008800002FB031F8
(1675526018.874603) vcan0 1D0#0000000000000061
(1675526018.875982) vcan0 291#0000000000000000
(1675526018.876071) vcan0 390#80FF0500021A596F
(1675526018.876148) vcan0 288#93DF50AF00000080
(1675526018.877092) vcan0 0E0#E27305F80080F600
(1675526018.879979) vcan0 008#AC80644132800080
(1675526018.880057) vcan0 290#0000000000000000
(1675526018.880135) vcan0 350#A200000000000080
(1675526018.880213) vcan0 072#F000FF3F00788038
(1675526018.881013) vcan0 1B0#00C0000003B000FC
(1675526018.882173) vcan0 1B5#FF92CEDC41E0FFEF
(1675526018.882250) vcan0 125#E5AB7FE5C1D0D735
(1675526018.882327) vcan0 1D8#363339343234E043
(1675526018.883244) vcan0 1E0#0038130300B917E0
(1675526018.883318) vcan0 2C3#468700FFFF635450
(1675526018.884557) vcan0 010#008800002FB031F8
(1675526018.885729) vcan0 210#1AE08020A869C44D
(1675526018.885802) vcan0 2A9#8C260093C0000084
(1675526018.888625) vcan0 008#AC80743132800080
(1675526018.888699) vcan0 055#F3F7FE27B22F9C80
(1675526018.888773) vcan0 065#4CE6FEF700CEFE01
(1675526018.888847) vcan0 070#00000BF8FEE11500
(1675526018.889744) vcan0 075#0000000000005458
(1675526018.889819) vcan0 080#FD4F8000C2002C00
(1675526018.889962) vcan0 0B0#398313A3DFC139A3
(1675526018.890036) vcan0 145#F962D980FC4810A1
(1675526018.890797) vcan0 0F5#749883987F7F029B
(1675526018.891828) vcan0 120#A698B2987FF85589
(1675526018.891971) vcan0 130#FFFD1DAB1840FD11
(1675526018.892993) vcan0 150#7B18DDF7DBF770C0
(1675526018.893071) vcan0 260#D0FF0055497487B0
(1675526018.895455) vcan0 010#008800002FB031F8
(1675526018.896902) vcan0 072#F000FF3F0078A038
(1675526018.896980) vcan0 1D0#0000000000000061
(1675526018.897067) vcan0 0E0#E27306C00080D500
(1675526018.897939) vcan0 008#AC80843023800080
(1675526018.900542) vcan0 288#9FDF609F00000080
(1675526018.901702) vcan0 1B0#00C0000003B000FC
(1675526018.901782) vcan0 1B5#FFA2DEE449E0FFEF
(1675526018.902724) vcan0 125#E5AD7FE5C1D0D735
(1675526018.902868) vcan0 1D8#363339343234E043
(1675526018.902942) vcan0 1E0#003C034300B917E0
(1675526018.905483) vcan0 010#008800002FB031F8
(1675526018.906517) vcan0 291#0000000000000000
(1675526018.906592) vcan0 330#C600000000000000
(1675526018.907625) vcan0 008#AC80942023800080
(1675526018.908728) vcan0 055#F3F7FE27B22F9C80
(1675526018.908803) vcan0 065#4EE6FEF700CEFE01
(1675526018.910245) vcan0 070#00000BF8FEE11500
(1675526018.910319) vcan0 075#0000000000005458
(1675526018.910417) vcan0 080#FD4F8000C2002C00
(1675526018.910492) vcan0 0B0#398313A3DFC139A3
(1675526018.910567) vcan0 072#F000FF3F00788038
(1675526018.910640) vcan0 145#F952DA80FC4810A1
(1675526018.910783) vcan0 210#1AE080A0A869C445
(1675526018.911338) vcan0 28C#000020000016FEA8
(1675526018.911479) vcan0 290#0000000000000000
(1675526018.911553) vcan0 2B5#4B9D286293A67F1B
(1675526018.914159) vcan0 2C0#468700000000A0F1
(1675526018.914237) vcan0 2C5#00DF86E24EE60070
(1675526018.914386) vcan0 0F5#6F9885987F43F29D
(1675526018.914465) vcan0 120#A39896987FEE5589
(1675526018.914544) vcan0 130#87FD1DA31838FA11
(1675526018.914620) vcan0 150#7A18DE07DBF761C0
(1675526018.914698) vcan0 340#9800000000000000
(1675526018.914849) vcan0 370#071FC000621BC71F
(1675526018.914936) vcan0 3AF#0000000000000020
(1675526018.915012) vcan0 3CA#00000000D50000C8
(1675526018.915091) vcan0 3E0#000000D92E808090
(1675526018.915315) vcan0 010#008800002FB031F8
(1675526018.915464) vcan0 1D0#0000000000000861
(1675526018.916407) vcan0 0E0#E27305C80080B600
(1675526018.917425) vcan0 008#AC80A4250E800080
(1675526018.921321) vcan0 1B0#00C0000000B000FC
(1675526018.922481) vcan0 1B5#FFB2EEEC51E0FFEF
(1675526018.922558) vcan0 125#E5AD7FE5C1D0D735
(1675526018.922636) vcan0 1D8#363339343234E043
(1675526018.922784) vcan0 1E0#0000F34300B917E0
(1675526018.922859) vcan0 260#D0FF00AA497487B0
(1675526018.923825) vcan0 2C3#468700FFFF635450
(1675526018.924927) vcan0 010#008800002FB031F8
(1675526018.925068) vcan0 072#F000FF3F0078A038
(1675526018.926045) vcan0 2A9#8C26008AC0000084
(1675526018.926118) vcan0 288#8FDF609F00000080
(1675526018.928862) vcan0 008#AA80B4091C800080
(1675526018.928937) vcan0 055#F3F7FE27B22D9C80
(1675526018.929012) vcan0 065#4CE6FEF700CEFE01
(1675526018.929086) vcan0 070#00000BF8FDE11500
(1675526018.929160) vcan0 075#0000000000005458
(1675526018.929989) vcan0 080#FD4F8000C2002C00
(1675526018.930062) vcan0 0B0#398313A3DFC139A3
(1675526018.930137) vcan0 145#F942DB80FC4810A1
(1675526018.931102) vcan0 0F5#769883987F47E29F
(1675526018.932205) vcan0 120#919891987FF45589
(1675526018.932280) vcan0 130#8FFA1D91183AF411
