(1675526164.565634) vcan0 210#F3DD80A0C269C34D
(1675526164.565689) vcan0 3D0#980F6100250D80C3
(1675526164.565830) vcan0 008#9B83E045318B0080
(1675526164.566659) vcan0 0E0#62746CF800808B00
(1675526164.569199) vcan0 055#E5F7EF27F2009C80
(1675526164.569342) vcan0 065#86E301E8FBFD0202
(1675526164.570303) vcan0 070#000019A8F6E15B00
(1675526164.570378) vcan0 075#0000000000005458
(1675526164.570452) vcan0 080#D44F8000C2002C00
(1675526164.570526) vcan0 0B0#AD83A7A2F5C1ADA3
(1675526164.571354) vcan0 145#FD92D686FCC810A1
(1675526164.571427) vcan0 260#D0FF0055499885B0
(1675526164.571502) vcan0 290#0000000000000000
(1675526164.571654) vcan0 2C0#BB9C00240E00A0F1
(1675526164.575511) vcan0 2C5#00D72E0A8CE30070
(1675526164.575660) vcan0 370#072BC0008D0FC71F
(1675526164.575739) vcan0 125#E52384E5C1D0D735
(1675526164.575817) vcan0 3E0#000000D93680808D
(1675526164.575894) vcan0 288#BCDFD02F00000080
(1675526164.575972) vcan0 0F5#16810D817F43F20A
(1675526164.576049) vcan0 120#1D8112817FFC5589
(1675526164.576200) vcan0 130#87FD1D1401DEFF11
(1675526164.576277) vcan0 010#008000002FB031F8
(1675526164.576355) vcan0 150#1101ED0749F8E1C0
(1675526164.576430) vcan0 1D0#0000000000000061
(1675526164.576510) vcan0 291#0000000000000000
(1675526164.576587) vcan0 008#C483F00C318B0080
(1675526164.576737) vcan0 3CA#00000000D40000C8
(1675526164.576814) vcan0 072#F000FF3F0090A038
(1675526164.577695) vcan0 1B0#00C0000000B000FC
(1675526164.578710) vcan0 1B5#FFE956AE36E0FFEF
(1675526164.579797) vcan0 1D8#363339343234DB43
(1675526164.580813) vcan0 1E0#0000FB4140FB17E0
(1675526164.581901) vcan0 010#008000002FB031F9
(1675526164.584810) vcan0 2A9#8C260082C0000084
(1675526164.585843) vcan0 2C3#BB9C00FFFFB45450
(1675526164.585985) vcan0 008#EB8300E3238B0080
(1675526164.586950) vcan0 0E0#62746AC000806D00
(1675526164.587983) vcan0 210#F3DD80A0C269C345
(1675526164.589017) vcan0 055#E5F7F027F2009C80
(1675526164.590048) vcan0 065#7FE302E8FAFD0202
(1675526164.590191) vcan0 070#000019A8F7E15B00
(1675526164.590264) vcan0 075#0000000000005458
(1675526164.590338) vcan0 080#D84F8000C2002C00
(1675526164.591167) vcan0 0B0#A983A6A2F6C1A9A3
(1675526164.591251) vcan0 145#FD82D786FCC810A1
(1675526164.591325) vcan0 28C#000000000034BE92
(1675526164.591399) vcan0 2B5#4B33006293A63A1B
(1675526164.591473) vcan0 340#5600000000000000
(1675526164.594070) vcan0 125#E57384E5C1D0D735
(1675526164.594146) vcan0 0F5#17810D817F47E20A
(1675526164.594225) vcan0 120#1D810E817FFA5589
(1675526164.594302) vcan0 010#008000002FB031F8
(1675526164.595101) vcan0 072#F000FF3F00908038
(1675526164.595179) vcan0 130#8FFD1D1401CEFF11
(1675526164.595328) vcan0 150#1201E61750F8D0C0
(1675526164.595404) vcan0 1D0#0000000000000261
(1675526164.596204) vcan0 008#1484109B318B0080
(1675526164.597219) vcan0 288#C0DFE01F00000080
(1675526164.598306) vcan0 290#0000000000000000
(1675526164.599318) vcan0 260#D0FF00AA499985B0
(1675526164.600416) vcan0 1B0#00C0000000B000FC
(1675526164.601432) vcan0 1B5#FFEA57AE36E0FFEF
(1675526164.602513) vcan0 010#008000002FB031F8
(1675526164.605396) vcan0 1D8#363339343234DB43
(1675526164.605469) vcan0 1E0#0000FB0140FB17E0
(1675526164.605611) vcan0 291#0000000000000000
(1675526164.605687) vcan0 330#2800000000000000
(1675526164.605761) vcan0 008#3B842064318B0080
(1675526164.606451) vcan0 0E0#62746BC800804C00
(1675526164.607553) vcan0 072#F000FF3F0090A038
(1675526164.608585) vcan0 055#E5F7F127F2009C80
(1675526164.609618) vcan0 065#79E304E8FCFD0502
(1675526164.609693) vcan0 070#000019A8F8E15B00
(1675526164.610655) vcan0 075#0000000000005458
(1675526164.610797) vcan0 080#DB4F8000C2002C00
(1675526164.610871) vcan0 0B0#A583A5A2F7C1A5A3
(1675526164.610954) vcan0 145#FD72D886FCC810A1
(1675526164.611714) vcan0 125#E5C684E5C1D0D735
(1675526164.614647) vcan0 0F5#17810C817F4BD20B
(1675526164.614725) vcan0 120#1D810E817FF85589
(1675526164.614802) vcan0 130#97FD1D1401BEFF11
(1675526164.614955) vcan0 010#008000002FB031F8
(1675526164.615031) vcan0 150#1101EB2756F8C1C0
(1675526164.615686) vcan0 1D0#0000000000000861
(1675526164.615836) vcan0 210#F3DD80A0C269C345
(1675526164.615913) vcan0 008#66843013478B0080
(1675526164.616786) vcan0 288#C0DFE01F00000080
(1675526164.617802) vcan0 1B0#00C0000000B000FC
(1675526164.618889) vcan0 1B5#FFEA58AE37E0FFEF
(1675526164.619904) vcan0 010#008000002FB031F8
(1675526164.620991) vcan0 072#F000FF3F00908038
(1675526164.625040) vcan0 1D8#363339343234DB43
(1675526164.625134) vcan0 1E0#0004EB4140FB17E0
(1675526164.625201) vcan0 2A9#8C26008AC0000084
(1675526164.626098) vcan0 008#8F8440CC558B0080
(1675526164.626172) vcan0 2C3#BB9C00FFFFB45450
(1675526164.626245) vcan0 400#0101030705010207
(1675526164.626319) vcan0 405#0000000000000000
(1675526164.627080) vcan0 0E0#62746DD000802A00
(1675526164.628113) vcan0 350#A200000000000080
(1675526164.629143) vcan0 055#E5F7F227F2009C80
(1675526164.630245) vcan0 065#76E306E8FBFD0502
(1675526164.630318) vcan0 070#000019A8F8E15B00
(1675526164.630393) vcan0 075#0000000000005458
(1675526164.630466) vcan0 080#DE4F8000C2002C00
(1675526164.631293) vcan0 0B0#A283A4A2F8C1A2A3
(1675526164.634139) vcan0 145#FD62D986FCC810A1
(1675526164.634216) vcan0 260#D0FF00AA499785B0
(1675526164.634304) vcan0 28C#000000000034BE94
(1675526164.634381) vcan0 290#0000000000000000
(1675526164.634460) vcan0 2B5#4B33006293A63A23
(1675526164.634609) vcan0 125#E51985E5C1D0D735
(1675526164.634687) vcan0 2C0#BB9C002B0E00A0F1
(1675526164.634763) vcan0 2C5#00D72E0A85E30070
(1675526164.634843) vcan0 3AF#0000000000000020
(1675526164.634919) vcan0 0F5#16810C817F4FC20B
(1675526164.634996) vcan0 120#1D810E817FFA5589
(1675526164.635146) vcan0 130#9FFD1D1401AEFF11
(1675526164.635226) vcan0 010#008000002FB031F8
(1675526164.635303) vcan0 150#1101EB375DF8B1C0
(1675526164.635380) vcan0 1D0#0000000000000061
(1675526164.638201) vcan0 291#0000000000000000
(1675526164.638277) vcan0 008#BA845074728B0080
(1675526164.639221) vcan0 072#F000FF3F0090A038
(1675526164.639307) vcan0 210#F3DD80A0C269C34D
(1675526164.640252) vcan0 3B0#00FC6D3869C0C400
(1675526164.641265) vcan0 1B0#00C0000000B000FC
(1675526164.642303) vcan0 010#008000002FB031F8
(1675526164.643405) vcan0 1B5#FFEB58AF37E0FFEF
(1675526164.644439) vcan0 1D8#363339343234DB43
(1675526164.644512) vcan0 1E0#0008DB4140FB17E0
(1675526164.645479) vcan0 008#E584602B808B0080
(1675526164.646580) vcan0 0E0#62746FD800800800
(1675526164.647616) vcan0 288#C0DFE01F00000080
(1675526164.648650) vcan0 360#CB9C00A7C160A001
(1675526164.649613) vcan0 055#E5F7F327F2009C80
(1675526164.652546) vcan0 065#74E30AE8FEFD0702
(1675526164.652626) vcan0 070#000019A8F8E15B00
(1675526164.652705) vcan0 075#0000000000005458
(1675526164.652854) vcan0 080#DE4F8000C2002C00
(1675526164.652940) vcan0 0B0#9E83A3A2F8C19EA3
(1675526164.653019) vcan0 145#FD52DA86FCC810A1
(1675526164.653096) vcan0 125#E56E85E5C1D0D735
(1675526164.653607) vcan0 0F5#15810C817F53B20B
(1675526164.654695) vcan0 120#188113817FFA5589
(1675526164.654773) vcan0 010#008000002FB031F8
(1675526164.654851) vcan0 072#F000FF3F00908038
(1675526164.654928) vcan0 130#A7FD1D14019EFF11
(1675526164.655726) vcan0 150#1001E84763F8A2C0
(1675526164.655804) vcan0 1D0#0000000000000061
(1675526164.655882) vcan0 008#138570B2BA8B0080
(1675526164.658556) vcan0 390#80FF0500021E584F
(1675526164.659572) vcan0 290#0000000000000000
(1675526164.660660) vcan0 260#D0FF00AA499F85B0
(1675526164.661672) vcan0 1B0#00C0000000B000FC
(1675526164.662744) vcan0 1B5#FFEC59AF37E0FFEF
(1675526164.663796) vcan0 1D8#363339343234DB43
(1675526164.664900) vcan0 010#008000002FB031F8
(1675526164.664973) vcan0 1E0#0008DB0140FB17E0
(1675526164.665046) vcan0 210#0ADE8020C269C34D
(1675526164.665121) vcan0 291#0000000000000000
(1675526164.665949) vcan0 008#40858058D78B0080
(1675526164.666023) vcan0 2A9#8C260093C0000084
(1675526164.666095) vcan0 2C3#BB9C00FFFFB45450
(1675526164.666925) vcan0 0E0#62746FE00080E800
(1675526164.667957) vcan0 072#F000FF3F0090A038
(1675526164.669539) vcan0 055#E5F7F327F2009C80
(1675526164.669614) vcan0 065#74E30AE800FE0602
(1675526164.669687) vcan0 070#000019A8F9E15B00
(1675526164.670582) vcan0 075#0000000000005458
(1675526164.670657) vcan0 080#DF4F8000C2002C00
(1675526164.670799) vcan0 0B0#9B83A3A2F8C19BA3
(1675526164.670883) vcan0 145#FD42DB86FCC810A1
(1675526164.671640) vcan0 28C#000000000034BE94
(1675526164.671713) vcan0 2B5#4B33006293A63A22
(1675526164.671856) vcan0 340#5600000000000000
(1675526164.674571) vcan0 370#072BC0008D0FC71F
(1675526164.674650) vcan0 125#E5CA85E5C1D0D735
(1675526164.674728) vcan0 288#B4DFE01F00000080
(1675526164.674806) vcan0 0F5#15810C817F57A20B
(1675526164.674954) vcan0 120#188113817FF95589
(1675526164.675034) vcan0 010#008000002FB031F9
(1675526164.675110) vcan0 130#AFFF1D14018EFF11
(1675526164.675187) vcan0 150#1001E9576AF892C0
(1675526164.675626) vcan0 1D0#0000000000000261
(1675526164.675704) vcan0 008#6E8590F6FB8B0080
(1675526164.676721) vcan0 3C8#BB9C008E882C008E
(1675526164.677738) vcan0 1B0#00C0000000B000FC
(1675526164.678763) vcan0 1B5#FFEC5AAF38E0FFEF
(1675526164.679850) vcan0 1D8#363339343234DB43
(1675526164.680794) vcan0 1E0#000CCB4140FB17E0
(1675526164.684782) vcan0 010#008000002FB031F8
(1675526164.684855) vcan0 072#F000FF3F00908038
(1675526164.685821) vcan0 330#2800000000000000
(1675526164.685896) vcan0 008#9B85A08D268C0080
(1675526164.686860) vcan0 0E0#62746DE80080CA00
(1675526164.687894) vcan0 210#0ADE80A0C269C345
(1675526164.688998) vcan0 055#E5F7F327F2009C80
(1675526164.689962) vcan0 065#76E30AE801FE0602
(1675526164.690035) vcan0 070#000019A8F8E15B00
(1675526164.690111) vcan0 075#0000000000005458
(1675526164.691008) vcan0 080#DE4F8000C2002C00
(1675526164.691081) vcan0 0B0#9883A3A2F8C198A3
(1675526164.691156) vcan0 145#FD32DC86FCC810A1
(1675526164.691307) vcan0 260#D0FF0055499C85B0
(1675526164.692067) vcan0 290#0000000000000000
(1675526164.696344) vcan0 2C0#BB9C00310E00A0F1
(1675526164.696423) vcan0 2C5#00D72D0A79E30070
(1675526164.696503) vcan0 125#E52886E5C1D0D735
(1675526164.696579) vcan0 0F5#14810C817F5B920B
(1675526164.696656) vcan0 120#188113817FFA5589
(1675526164.696806) vcan0 010#008000002FB031F8
(1675526164.696884) vcan0 130#B7FF1D14017EFF11
(1675526164.696962) vcan0 150#0F01EA6771F883C0
(1675526164.697039) vcan0 1D0#0000000000000861
(1675526164.697117) vcan0 291#0000000000000000
(1675526164.697268) vcan0 008#CB85B0294A8C0080
(1675526164.697346) vcan0 3CA#00000000D50000C8
(1675526164.697422) vcan0 288#BCDFF00F00000080
(1675526164.698366) vcan0 072#F000FF3F0090A038
(1675526164.699463) vcan0 1B0#00C0000000B000FC
(1675526164.700481) vcan0 1B5#FFED5AB038E0FFEF
(1675526164.701568) vcan0 010#008000002FB031F8
(1675526164.702574) vcan0 1D8#363339343234DB43
(1675526164.703609) vcan0 1E0#0010BB4140FB17E0
(1675526164.704711) vcan0 2A9#8C26008AC0000084
(1675526164.706155) vcan0 2C3#BB9C00FFFFB45450
(1675526164.706231) vcan0 008#F985C0B97C8C0080
(1675526164.707263) vcan0 0E0#62746EF00080A900
(1675526164.708227) vcan0 055#E5F7F327F2009C80
(1675526164.709330) vcan0 065#76E308E800FE0402
(1675526164.710362) vcan0 070#000019A8F8E15B00
(1675526164.710435) vcan0 075#0000000000005458
(1675526164.710509) vcan0 080#DE4F8000C2002C00
(1675526164.710584) vcan0 0B0#9583A3A2F8C195A3
(1675526164.710726) vcan0 145#FD22DD86FCC810A1
(1675526164.714526) vcan0 28C#000000000034BE94
(1675526164.714606) vcan0 2B5#4B33006293A63A1E
(1675526164.714681) vcan0 125#E58386E5C1D0D735
(1675526164.714760) vcan0 0F5#15810C817F5F820B
(1675526164.714838) vcan0 120#188111817FF95589
(1675526164.714915) vcan0 130#BFFD1D14016EFF11
(1675526164.715065) vcan0 010#008000002FB031F8
(1675526164.715142) vcan0 072#F000FF3F00908038
(1675526164.715580) vcan0 150#1001EA7778F872C0
(1675526164.715658) vcan0 1D0#0000000000000061
(1675526164.715735) vcan0 008#2886D04EA78C0080
(1675526164.715814) vcan0 210#0ADE80A0C269C34D
(1675526164.716613) vcan0 350#A200000000000080
(1675526164.717702) vcan0 290#0000000000000000
(1675526164.718718) vcan0 260#D0FF0055499E85B0
(1675526164.719804) vcan0 288#B0DFF00F00000080
(1675526164.720828) vcan0 1B0#00C0000000B000FC
(1675526164.721916) vcan0 1B5#FFEE5BB038E0FFEF
(1675526164.722975) vcan0 010#008000002FB031F8
(1675526164.724010) vcan0 1D8#363339343234DB43
(1675526164.726962) vcan0 1E0#0010BB0140FB17E0
(1675526164.727038) vcan0 291#0000000000000000
(1675526164.727111) vcan0 425#0000000000000000
(1675526164.727186) vcan0 008#5886E0EACB8C0080
(1675526164.727327) vcan0 0E0#62746EF800808900
(1675526164.728018) vcan0 072#F000FF3F0090A038
(1675526164.729050) vcan0 055#E5F7F227F2009C80
(1675526164.730013) vcan0 065#75E306E800FE0402
(1675526164.730087) vcan0 070#000019A8F8E15B00
(1675526164.730231) vcan0 075#0000000000005458
(1675526164.731055) vcan0 080#DD4F8000C2002C00
(1675526164.731198) vcan0 0B0#9983A3A2F8C199A3
(1675526164.731283) vcan0 145#FD12DE86FCC810A1
(1675526164.732176) vcan0 125#E5DF86E5C1D0D735
(1675526164.733201) vcan0 0F5#15810C817F63720B
(1675526164.736081) vcan0 120#188112817FF75589
(1675526164.736155) vcan0 130#C7FD1D14015EFF11
(1675526164.736229) vcan0 010#008000002FB031F8
(1675526164.736371) vcan0 150#1001E68780F862C0
(1675526164.736444) vcan0 1D0#0000000000000061
(1675526164.736519) vcan0 008#8686F088EF8C0080
(1675526164.737141) vcan0 210#0ADE80A0C269C345
(1675526164.738171) vcan0 1B0#00C0000000B000FC
(1675526164.739271) vcan0 1B5#FFEE5CB039E0FFEF
(1675526164.740238) vcan0 010#008000002FB031F9
(1675526164.741270) vcan0 072#F000FF3F00908038
(1675526164.742334) vcan0 1D8#363339343234DB43
(1675526164.745010) vcan0 1E0#0014AB4140FB17E0
(1675526164.745097) vcan0 2A9#8C260093C0000084
(1675526164.746062) vcan0 008#B586003AFE8C0080
(1675526164.746137) vcan0 2C3#BB9C00FFFFB45450
(1675526164.747032) vcan0 0E0#62746EC000806900
(1675526164.748063) vcan0 288#A3DFF00F00000080
(1675526164.749163) vcan0 360#CB9C00A7C160A001
(1675526164.749236) vcan0 055#E5F7F327F2009C80
(1675526164.750201) vcan0 065#74E304E8FEFD0302
(1675526164.750275) vcan0 070#000019A8F9E15B00
(1675526164.754384) vcan0 075#0000000000005458
(1675526164.754528) vcan0 080#DF4F8000C2002C00
(1675526164.754601) vcan0 0B0#C183A3A2F8C1C1A3
(1675526164.754675) vcan0 145#FD02DF86FCC810A1
(1675526164.754750) vcan0 260#D0FF005549A285B0
(1675526164.754891) vcan0 28C#000000000034BE94
(1675526164.754967) vcan0 290#0000000000000000
(1675526164.755048) vcan0 2B5#4B33006293A63A1C
(1675526164.755121) vcan0 125#E53A87E5C1D0D735
(1675526164.755196) vcan0 2C0#BB9C00320E00A0F1
(1675526164.755339) vcan0 2C5#00D72D0A78E30070
(1675526164.755414) vcan0 340#5600000000000000
(1675526164.755487) vcan0 3AF#0000000000000020
(1675526164.755560) vcan0 0F5#17810B817F67620B
(1675526164.755703) vcan0 120#148112817FF65589
(1675526164.755778) vcan0 130#CFFD1D14014EFF11
(1675526164.755852) vcan0 010#008000002FB031F8
(1675526164.755925) vcan0 150#1001E09788F852C0
(1675526164.756068) vcan0 1D0#0000000000000261
(1675526164.756143) vcan0 291#0000000000000000
(1675526164.758411) vcan0 008#E58610EB0C8D0080
(1675526164.758484) vcan0 390#80FF0500021A594F
(1675526164.759516) vcan0 072#F000FF3F0090A038
(1675526164.759599) vcan0 3B0#00D86D3869C0C600
(1675526164.760562) vcan0 1B0#00C0000000B000FC
(1675526164.761596) vcan0 1B5#FFEF5CB139E0FFEF
(1675526164.762637) vcan0 010#008000002FB031F8
(1675526164.763740) vcan0 1D8#363339343234DB43
(1675526164.764773) vcan0 1E0#00189B4140FB17E0
(1675526164.764846) vcan0 210#0ADE80A0C269C34D
(1675526164.765811) vcan0 330#2800000000000000
(1675526164.765885) vcan0 008#13872096228D0080
(1675526164.766028) vcan0 3D0#980F6100250D80C3
(1675526164.766788) vcan0 0E0#62746CC800804B00
(1675526164.767957) vcan0 430#85087D00000034E6
(1675526164.770769) vcan0 055#E4F7F327F2009C80
(1675526164.770842) vcan0 065#73E311E800FE1302
(1675526164.770916) vcan0 070#000019A8F9E15B00
(1675526164.770991) vcan0 075#0000000000005458
(1675526164.771142) vcan0 080#DF4F8000C2002C00
(1675526164.771215) vcan0 0B0#CB83A3A2F8C1CBA3
(1675526164.771289) vcan0 145#FDF2D086FCC810A1
(1675526164.771362) vcan0 370#072BC0008D0FC71F
(1675526164.771848) vcan0 125#E59587E5C1D0D735
(1675526164.772930) vcan0 288#B8DFF00F00000080
(1675526164.773963) vcan0 0F5#17810B817F6B520B
(1675526164.774036) vcan0 120#108113817FF55589
(1675526164.774110) vcan0 130#D7FF1D14013EFF11
(1675526164.775006) vcan0 010#008000002FB031F8
(1675526164.775149) vcan0 072#F000FF3F00908038
(1675526164.777896) vcan0 150#1001E6A791F842C0
(1675526164.778038) vcan0 1D0#0000000000000861
(1675526164.778113) vcan0 008#4287305E1B8D0080
(1675526164.779010) vcan0 290#0000000000000000
(1675526164.780042) vcan0 260#D0FF00AA49A085B0
(1675526164.781083) vcan0 1B0#00C0000000B000FC
(1675526164.782184) vcan0 1B5#FFF05DB139E0FFEF
(1675526164.783160) vcan0 1D8#363339343234DB43
(1675526164.784262) vcan0 1E0#00189B0140FB17E0
(1675526164.785295) vcan0 010#008000002FB031F8
(1675526164.785369) vcan0 291#0000000000000000
(1675526164.785441) vcan0 2A9#8C26008AC0000084
(1675526164.785584) vcan0 008#778740F53F8D0080
(1675526164.786344) vcan0 2C3#BB9C00FFFFB45450
(1675526164.787377) vcan0 0E0#627474D000802300
(1675526164.790321) vcan0 072#F000FF3F0090A038
(1675526164.790397) vcan0 055#E4F7F427F2009C80
(1675526164.790470) vcan0 065#70E31BE8FEFD1302
(1675526164.790544) vcan0 070#00001AA8F9E15B00
(1675526164.790686) vcan0 075#0000000000005458
(1675526164.790759) vcan0 080#E14F8000C2002C00
(1675526164.790844) vcan0 0B0#CE83A3A2F8C1CEA3
(1675526164.791396) vcan0 145#FDE2D186FCC810A1
(1675526164.791472) vcan0 210#0ADE80A0C269C345
(1675526164.791545) vcan0 28C#000000000034BE94
(1675526164.791620) vcan0 2B5#4B33006293A63A34
(1675526164.792380) vcan0 125#E5F087E5C1D0D735
(1675526164.793413) vcan0 0F5#16810A817F6F420B
(1675526164.794513) vcan0 120#108112817FF85589
(1675526164.794588) vcan0 130#DFFF1D14012EFF11
(1675526164.796099) vcan0 010#008000002FB031F8
(1675526164.796172) vcan0 150#0F01E8B799F833C0
(1675526164.796246) vcan0 1D0#0000000000000061
(1675526164.796321) vcan0 008#AB8750717F8D0080
(1675526164.797078) vcan0 288#C0DF00FF00000080
(1675526164.798112) vcan0 3C8#BB9C008E882C008E
(1675526164.799144) vcan0 1B0#00C0000000B000FC
(1675526164.800200) vcan0 1B5#FFF15EB23AE0FFEF
(1675526164.801233) vcan0 010#008000002FB031F8
(1675526164.802333) vcan0 072#F000FF3F00908038
(1675526164.806523) vcan0 1D8#363339343234DB43
(1675526164.806601) vcan0 1E0#001C8B4140FB17E0
(1675526164.806680) vcan0 008#E68760E5C08D0080
(1675526164.806828) vcan0 0E0#62747AD80080FD00
(1675526164.807628) vcan0 055#E4F7F227F2009C80
(1675526164.808644) vcan0 065#7CE322E807FE1902
(1675526164.809586) vcan0 070#00001AA8F8E15B00
(1675526164.809734) vcan0 075#0000000000005458
(1675526164.810676) vcan0 080#DD4F8000C2002C00
(1675526164.810754) vcan0 0B0#CE83A3A2F9C1CEA3
(1675526164.810832) vcan0 145#FDD2D286FCC810A1
(1675526164.810982) vcan0 260#D0FF00AA499F85B0
(1675526164.811710) vcan0 290#0000000000000000
(1675526164.811794) vcan0 2C0#BB9C00320E00A0F1
(1675526164.811945) vcan0 2C5#00D72D0A74E30070
(1675526164.812022) vcan0 350#A200000000000080
(1675526164.812727) vcan0 125#E55C88E5C1D0D735
(1675526164.813761) vcan0 0F5#168109817F73320B
(1675526164.813834) vcan0 120#108111817FFC5589
(1675526164.814798) vcan0 130#E7FF1D14011EFF11
(1675526164.816310) vcan0 010#008000002FB031F8
(1675526164.816385) vcan0 150#0F01EBC7A2F823C0
(1675526164.816527) vcan0 1D0#0000000000000061
(1675526164.816601) vcan0 210#0ADE8020C269C345
(1675526164.816675) vcan0 008#1F887052088E0080
(1675526164.816748) vcan0 291#0000000000000000
(1675526164.816890) vcan0 3CA#00000000D60000C8
(1675526164.817305) vcan0 072#F000FF3F0090A038
(1675526164.818339) vcan0 288#A8DF00FF00000080
(1675526164.823701) vcan0 1B0#00C0000000B000FC
(1675526164.823779) vcan0 1B5#FFF15EB23AE0FFEF
(1675526164.824795) vcan0 1D8#363339343234DB43
(1675526164.824871) vcan0 010#008000002FB031F9
(1675526164.824951) vcan0 1E0#00207B4140FB17E0
(1675526164.825027) vcan0 2A9#8C260082C0000084
(1675526164.825827) vcan0 2C3#BB9C00FFFFB45450
(1675526164.825905) vcan0 008#5D888098748E0080
(1675526164.826776) vcan0 0E0#627477E00080E000
(1675526164.827862) vcan0 055#E4F7EF27F2009C80
(1675526164.828950) vcan0 065#88E326E808FE1902
(1675526164.829967) vcan0 070#00001AA8F6E15B00
(1675526164.830908) vcan0 075#0000000000005458
(1675526164.831058) vcan0 080#D54F8000C2002C00
(1675526164.831137) vcan0 0B0#D083A6A2F7C1D0A3
(1675526164.831212) vcan0 145#FDC2D386FCC810A1
(1675526164.832020) vcan0 28C#000000000034BE94
(1675526164.832101) vcan0 2B5#4B33006293A63A33
(1675526164.832179) vcan0 340#5600000000000000
(1675526164.832258) vcan0 125#E5CD88E5C1D0D735
(1675526164.834938) vcan0 0F5#158109817F77220B
(1675526164.835012) vcan0 120#1B810E817FFE5589
(1675526164.835087) vcan0 130#EFFF1D14010EFF11
(1675526164.835160) vcan0 010#008000002FB031F8
(1675526164.835302) vcan0 072#F000FF3F00908038
(1675526164.835376) vcan0 150#0E01E4D7AAF814C0
(1675526164.835451) vcan0 1D0#0000000000000261
(1675526164.836005) vcan0 008#9A8890E6D98E0080
(1675526164.837040) vcan0 210#0ADE80A0C269C34D
(1675526164.838002) vcan0 290#0000000000000000
(1675526164.839039) vcan0 260#D0FF00AA49A585B0
(1675526164.840141) vcan0 1B0#00C0000000B000FC
(1675526164.841183) vcan0 1B5#FFF25FB23AE0FFEF
(1675526164.843697) vcan0 010#008000002FB031F8
(1675526164.844782) vcan0 1D8#363339343234DB43
(1675526164.844860) vcan0 1E0#00207B0140FB17E0
(1675526164.844937) vcan0 291#0000000000000000
(1675526164.845808) vcan0 330#2800000000000000
(1675526164.845957) vcan0 008#D888A0244C8F0080
(1675526164.846827) vcan0 0E0#627476E80080C100
(1675526164.847844) vcan0 288#7ADF00FF00000080
(1675526164.848929) vcan0 072#F000FF3F0090A038
(1675526164.849943) vcan0 055#E4F7EB27F2009C80
(1675526164.852806) vcan0 065#90E31FE80AFE1302
(1675526164.852880) vcan0 070#00001AA8F4E15B00
(1675526164.852952) vcan0 075#0000000000005458
(1675526164.853096) vcan0 080#CB4F8000C2002C00
(1675526164.853170) vcan0 0B0#D183A8A2F5C1D1A3
(1675526164.853254) vcan0 145#FDB2D486FCC810A1
(1675526164.853328) vcan0 360#CB9C00A7C160A001
(1675526164.853471) vcan0 125#E54489E5C1D0D735
(1675526164.853889) vcan0 0F5#158105817F7B120C
(1675526164.853962) vcan0 120#24810B817FFE5589
(1675526164.854928) vcan0 010#008000002FB031F8
(1675526164.855002) vcan0 130#F7FF1D1401FEFF11
(1675526164.855144) vcan0 150#0C01D9E7B3F806C0
(1675526164.855217) vcan0 1D0#0000000000000861
(1675526164.855291) vcan0 390#80FF050002165A4F
(1675526164.859130) vcan0 008#1789B061BF8F0080
(1675526164.860231) vcan0 1B0#00C0000000B000FC
(1675526164.861262) vcan0 1B5#FFF360B33BE0FFEF
(1675526164.862313) vcan0 010#008000002FB031F8
(1675526164.863277) vcan0 072#F000FF3F00908038
(1675526164.864378) vcan0 1D8#363339343234DB43
(1675526164.865421) vcan0 1E0#00246B4140FB17E0
(1675526164.865495) vcan0 210#0ADE80A0C269C34D
(1675526164.865569) vcan0 008#5589C0A62B900080
(1675526164.865710) vcan0 2A9#8C26009BC0000084
(1675526164.866469) vcan0 2C3#BB9C00FFFFB45450
(1675526164.866542) vcan0 0E0#627478F000809F00
(1675526164.867505) vcan0 055#E4F7E927F2009C80
(1675526164.868606) vcan0 065#99E317E808FE0A02
(1675526164.869639) vcan0 070#00001AA8F2E15B00
(1675526164.869712) vcan0 075#0000000000005458
(1675526164.870677) vcan0 080#C54F8000C2002C00
(1675526164.870819) vcan0 0B0#D183ABA2F3C1D1A3
(1675526164.870893) vcan0 145#FDA2D586FCC810A1
(1675526164.870966) vcan0 260#D0FF00AA49A585B0
(1675526164.873697) vcan0 28C#000000000034BE96
(1675526164.873775) vcan0 290#0000000000000000
(1675526164.873861) vcan0 2B5#4B33006293A63A26
(1675526164.873939) vcan0 125#E5BB89E5C1D0D735
(1675526164.874091) vcan0 2C0#BB9C00310E00A0F1
(1675526164.874167) vcan0 2C5#00D72D0B80E30070
(1675526164.874245) vcan0 288#5EDF00FF00000080
(1675526164.874322) vcan0 370#072BC0008D0FC71F
(1675526164.874400) vcan0 3AF#0000000000000020
(1675526164.874549) vcan0 3E0#000000D936808090
(1675526164.874626) vcan0 0F5#158102817F7F020C
(1675526164.874777) vcan0 120#24810B817FFC5589
(1675526164.874854) vcan0 130#FFFF1D1401EEFF11
(1675526164.874933) vcan0 150#0C01D3F7BCF8F6C0
(1675526164.875877) vcan0 581#FFFFFFFFFFFF0081
(1675526164.877252) vcan0 008#9789D0CBB4900080
(1675526164.877330) vcan0 010#008000002FB031F8
(1675526164.877408) vcan0 1D0#0000000000000061
(1675526164.877493) vcan0 291#0000000000000000
(1675526164.877643) vcan0 400#0101010101590108
(1675526164.877720) vcan0 405#0000000000000000
(1675526164.878302) vcan0 072#F000FF3F0090A038
(1675526164.879461) vcan0 3B0#00D86D3869C0C400
(1675526164.880548) vcan0 1B0#00C0000000B000FC
(1675526164.881563) vcan0 1B5#FFF360B33BE0FFEF
(1675526164.885786) vcan0 1D8#363339343234DB43
(1675526164.885862) vcan0 1E0#00285B4140FB17E0
(1675526164.885936) vcan0 008#D489E01819910080
(1675526164.886077) vcan0 010#008000002FB031F8
(1675526164.886836) vcan0 0E0#627477F800808000
(1675526164.887937) vcan0 055#E5F7E727F2009C80
(1675526164.888969) vcan0 065#A1E311E807FE0A02
(1675526164.890003) vcan0 070#00001AA8F1E15B00
(1675526164.890077) vcan0 075#0000000000005458
(1675526164.891051) vcan0 080#BF4F8000C2002C00
(1675526164.891192) vcan0 0B0#D183ACA2F1C1D1A3
(1675526164.891266) vcan0 145#FD92D686FCC810A1
(1675526164.891340) vcan0 210#0ADE80A0C269C345
(1675526164.892166) vcan0 125#E5358AE5C1D0D735
(1675526164.893201) vcan0 0F5#168102817F43F20C
(1675526164.894232) vcan0 120#228104817FF95589
(1675526164.894307) vcan0 010#008000002FB031F8
(1675526164.894449) vcan0 072#F000FF3F008C8038
(1675526164.895277) vcan0 130#87FF1D1401DEFF11
(1675526164.895420) vcan0 150#0C01C807C6F8E6C0
(1675526164.896794) vcan0 1D0#0000000000000061
(1675526164.896869) vcan0 008#148AF09C44910080
(1675526164.897833) vcan0 288#5ADF10EF00000080
(1675526164.898933) vcan0 350#A200000000000080
(1675526164.899966) vcan0 290#0000000000000000
(1675526164.900940) vcan0 260#D0FF005549A585B0
(1675526164.905151) vcan0 1B0#00C0000000B000FC
(1675526164.905301) vcan0 1B5#FFF461B33BE0FFEF
(1675526164.905378) vcan0 1D8#363339343234DB43
(1675526164.905455) vcan0 010#008000002FB031F9
(1675526164.905533) vcan0 1E0#00285B0140FB17E0
(1675526164.905612) vcan0 291#0000000000000000
(1675526164.905761) vcan0 2A9#8C260082C0000084
(1675526164.905838) vcan0 008#548A000B85910080
(1675526164.906279) vcan0 2C3#BB9C00FFFFB45450
(1675526164.907296) vcan0 0E0#627477C000806000
(1675526164.908384) vcan0 072#F000FF3F008CA038
(1675526164.909398) vcan0 055#E5F7E627F2009C80
(1675526164.909549) vcan0 065#A1E309E803FE0202
(1675526164.910491) vcan0 070#00001AA8F1E15B00
(1675526164.910569) vcan0 075#0000000000005458
(1675526164.910655) vcan0 080#BE4F8000C2002C00
(1675526164.910735) vcan0 0B0#D283AEA2F0C1D2A3
(1675526164.910811) vcan0 145#FD82D786FCC810A1
(1675526164.911538) vcan0 28C#000000000034BE96
(1675526164.911615) vcan0 2B5#4B34006293A63A1A
(1675526164.913096) vcan0 340#5600000000000000
(1675526164.913170) vcan0 125#E5AE8AE5C1D0D735
(1675526164.914137) vcan0 0F5#168101817F47E20C
(1675526164.914212) vcan0 120#2181FE807FF85589
(1675526164.914285) vcan0 130#8FFF1D1401CEFF11
(1675526164.915184) vcan0 010#008000002FB031F8
(1675526164.915257) vcan0 150#0C01CA17D0F8D6C0
(1675526164.915400) vcan0 1D0#0000000000000261
(1675526164.915474) vcan0 210#0ADE80A0C269C34D
(1675526164.915547) vcan0 008#958A1088B7910080
(1675526164.920483) vcan0 288#45DF10EF00000080
(1675526164.921525) vcan0 3C8#BB9C008E882C008E
(1675526164.922575) vcan0 1B0#00C0000000B000FC
(1675526164.923605) vcan0 1B5#FFF562B43CE0FFEF
(1675526164.924707) vcan0 1D8#363339343234DB43
(1675526164.924783) vcan0 010#008000002FB031F8
(1675526164.924857) vcan0 072#F000FF3F008C8038
(1675526164.924930) vcan0 1E0#002C4B4140FB17E0
(1675526164.925756) vcan0 330#2800000000000000
(1675526164.925831) vcan0 008#D58A2014DB910080
(1675526164.926794) vcan0 0E0#62747AC800803D00
(1675526164.927894) vcan0 055#E5F7E527F2009C80
(1675526164.928927) vcan0 065#A6E304E804FE0202
(1675526164.929959) vcan0 070#000019A8F0E15B00
(1675526164.930032) vcan0 075#0000000000005458
(1675526164.930175) vcan0 080#BA4F8000C2002C00
(1675526164.931002) vcan0 0B0#D283AFA2F0C1D2A3
(1675526164.931153) vcan0 145#FD72D886FCC810A1
(1675526164.931227) vcan0 260#D0FF005549A685B0
(1675526164.931301) vcan0 290#0000000000000000
(1675526164.933920) vcan0 2C0#BB9C002E0E00A0F1
(1675526164.934071) vcan0 2C5#00D72E0B98E30070
(1675526164.934149) vcan0 125#E52B8BE5C1D0D735
(1675526164.934227) vcan0 0F5#1781FF807F4BD20C
(1675526164.934304) vcan0 120#1A81FE807FF65589
(1675526164.935032) vcan0 130#97FF1D1401BEFF11
(1675526164.935109) vcan0 010#008000002FB031F8
(1675526164.935186) vcan0 150#0B01C327DAF8C7C0
(1675526164.935264) vcan0 1D0#0000000000000861
(1675526164.935341) vcan0 291#0000000000000000
(1675526164.936069) vcan0 008#178B30A4F8910080
(1675526164.936147) vcan0 3CA#00000000C00000C8
(1675526164.937162) vcan0 072#F000FF3F008CA038
(1675526164.938199) vcan0 210#2BDE80A0C269C345
(1675526164.939286) vcan0 1B0#00C0000000B000FC
(1675526164.943082) vcan0 1B5#FFF662B43CE0FFEF
(1675526164.944184) vcan0 010#008000002FB031F8
(1675526164.944258) vcan0 1D8#363339343234DB43
(1675526164.945222) vcan0 1E0#00303B4140FB17E0
(1675526164.945297) vcan0 2A9#8C26009BC0000084
(1675526164.945441) vcan0 2C3#BB9C00FFFFB45450
(1675526164.945514) vcan0 008#578B403D0E920080
(1675526164.946271) vcan0 0E0#62747CD000801B00
(1675526164.947374) vcan0 288#39DF10EF00000080
(1675526164.948407) vcan0 360#CB9C00A7C160A001
(1675526164.949371) vcan0 055#E5F7E627F2009C80
(1675526164.949445) vcan0 065#A1E301E8FFFD0102
(1675526164.950407) vcan0 070#000019A8F0E15B00
(1675526164.950551) vcan0 075#0000000000005458
(1675526164.950634) vcan0 080#BC4F8000C2002C00
(1675526164.951942) vcan0 0B0#D283AFA2EFC1D2A3
(1675526164.952017) vcan0 145#FD62D986FCC810A1
(1675526164.952090) vcan0 28C#000000000034BE97
(1675526164.952262) vcan0 2B5#4B34006293A63A18
(1675526164.952266) vcan0 125#E5A78BE5C1D0D735
(1675526164.952999) vcan0 0F5#1781FF807F4FC20C
(1675526164.953944) vcan0 120#1A81FB807FF55589
(1675526164.954094) vcan0 130#9FFF1D1401AEFF11
(1675526164.955036) vcan0 010#008000002FB031F8
(1675526164.955115) vcan0 072#F000FF3F008C8038
(1675526164.959233) vcan0 150#0B01C337E5F8B7C0
(1675526164.959310) vcan0 1D0#0000000000000061
(1675526164.959459) vcan0 008#978B50DF1C920080
(1675526164.959536) vcan0 390#80FF050002125B4F
(1675526164.959615) vcan0 290#0000000000000000
(1675526164.960280) vcan0 260#D0FF0055499D85B0
(1675526164.961368) vcan0 1B0#00C0000000B000FC
(1675526164.962455) vcan0 1B5#FFF663B43CE0FFEF
(1675526164.963488) vcan0 010#008000002FB031F8
(1675526164.964450) vcan0 1D8#363339343234DB43
(1675526164.964593) vcan0 1E0#00303B0140FB17E0
(1675526164.965559) vcan0 210#2BDE8020C269C34D
(1675526164.965634) vcan0 291#0000000000000000
(1675526164.965708) vcan0 008#D68B607A32920080
(1675526164.965780) vcan0 3D0#980F6100250D80C3
(1675526164.966607) vcan0 0E0#62747DD80080FA00
(1675526164.967641) vcan0 055#E5F7E727F2009C80
(1675526164.968671) vcan0 065#9DE300E8FEFD0102
(1675526164.969771) vcan0 070#000019A8F1E15B00
(1675526164.969846) vcan0 072#F000FF3F008CA038
(1675526164.971288) vcan0 075#0000000000005458
(1675526164.971372) vcan0 080#C04F8000C2002C00
(1675526164.971446) vcan0 0B0#D283AEA2F0C1D2A3
(1675526164.971520) vcan0 145#FD52DA86FCC810A1
(1675526164.971594) vcan0 370#072BC0008D0FC71F
(1675526164.972302) vcan0 125#E5248CE5C1D0D735
(1675526164.972444) vcan0 288#56DF10EF00000080
(1675526164.973408) vcan0 0F5#1881FE807F53B20C
(1675526164.974441) vcan0 120#1581FD807FF25589
(1675526164.974514) vcan0 130#A7FF1D14019EFF11
(1675526164.978628) vcan0 010#008000002FB031F8
(1675526164.978769) vcan0 150#0B01C447F0F8A7C0
(1675526164.978842) vcan0 1D0#0000000000000061
(1675526164.978916) vcan0 008#188C702E2B920080
(1675526164.979743) vcan0 1B0#00C0000000B000FC
(1675526164.980776) vcan0 1B5#FFF764B53DE0FFEF
(1675526164.981809) vcan0 1D8#363339343234DB43
(1675526164.982913) vcan0 1E0#00342B4140FB17E0
(1675526164.983856) vcan0 010#008000002FB031F9
(1675526164.984944) vcan0 072#F000FF3F008C8038
(1675526164.985021) vcan0 2A9#8C260082C0000084
(1675526164.985967) vcan0 008#568C80EF1C920080
(1675526164.986044) vcan0 2C3#BB9C00FFFFB45450
(1675526164.987059) vcan0 0E0#62747DE00080DA00
(1675526164.988073) vcan0 210#2BDE80A0C269C345
(1675526164.989161) vcan0 055#E5F7E827F2009C80
(1675526164.990105) vcan0 065#9BE300E8FDFD0102
(1675526164.990181) vcan0 070#000019A8F2E15B00
(1675526164.990259) vcan0 075#0000000000005458
(1675526164.990408) vcan0 080#C24F8000C2002C00
(1675526164.992982) vcan0 0B0#D283ADA2F1C1D2A3
(1675526164.993132) vcan0 145#FD42DB86FCC810A1
(1675526164.993198) vcan0 260#D0FF00AA49A385B0
(1675526164.993280) vcan0 28C#000000000034BE94
(1675526164.993355) vcan0 290#0000000000000000
(1675526164.993431) vcan0 2B5#4B34006293A63A1D
(1675526164.993571) vcan0 125#E5A38CE5C1D0D735
(1675526164.993645) vcan0 2C0#BB9C002D0E00A0F1
(1675526164.993720) vcan0 2C5#00D72E0B9CE30070
(1675526164.993793) vcan0 340#5600000000000000
(1675526164.993935) vcan0 350#A200000000000080
(1675526164.994009) vcan0 3AF#0000000000000020
(1675526164.994083) vcan0 0F5#1681FE807F57A20C
(1675526164.994156) vcan0 120#1381FD807FF45589
(1675526164.994299) vcan0 130#AFFF1D14018EFF11
(1675526164.996972) vcan0 010#008000002FB031F8
(1675526164.997114) vcan0 150#0A01C857FCF898C0
(1675526164.997188) vcan0 1D0#0000000000000261
(1675526164.997262) vcan0 008#958C907C40920080
(1675526164.997345) vcan0 291#0000000000000000
(1675526164.998035) vcan0 288#62DF20DF00000080
(1675526164.999134) vcan0 072#F000FF3F008CA038
(1675526164.999207) vcan0 3B0#00D86D3869C0C400
(1675526165.000170) vcan0 1B0#00C0000000B000FC
(1675526165.001202) vcan0 1B5#FFF864B53DE0FFEF
(1675526165.002261) vcan0 010#008000002FB031F8
(1675526165.003363) vcan0 1D8#363339343234DB43
(1675526165.004396) vcan0 1E0#00381B4140FB17E0
(1675526165.005363) vcan0 330#2800000000000000
(1675526165.005435) vcan0 008#D78CA02A40920080
(1675526165.008246) vcan0 0E0#62747DE80080BA00
(1675526165.009346) vcan0 055#E5F7E927F2009C80
(1675526165.009422) vcan0 065#97E304E8FCFD0402
(1675526165.010385) vcan0 070#00001AA8F2E15B00
(1675526165.010458) vcan0 075#0000000000005458
(1675526165.010542) vcan0 080#C54F8000C2002C00
(1675526165.010616) vcan0 0B0#D283ACA2F2C1D2A3
(1675526165.011444) vcan0 145#FD32DC86FCC810A1
(1675526165.012505) vcan0 125#E5258DE5C1D0D735
(1675526165.013469) vcan0 0F5#1681FE807F5B920C
(1675526165.014502) vcan0 120#1381FE807FF65589
(1675526165.014644) vcan0 010#008000002FB031F8
(1675526165.014719) vcan0 072#F000FF3F008C8038
(1675526165.014793) vcan0 130#B7FF1D14017EFF11
(1675526165.017402) vcan0 150#0A01CC6708F988C0
(1675526165.017545) vcan0 1D0#0000000000000861
(1675526165.017618) vcan0 008#1C8DB0C54F920080
(1675526165.017691) vcan0 210#2BDE80A0C269C345
(1675526165.018519) vcan0 290#0000000000000000
(1675526165.019551) vcan0 260#D0FF00AA49A885B0
(1675526165.020583) vcan0 288#52DF20DF00000080
(1675526165.021624) vcan0 1B0#00C0000000B000FC
(1675526165.022694) vcan0 1B5#FFF865B53DE0FFEF
(1675526165.023712) vcan0 1D8#363339343234DB43
(1675526165.024728) vcan0 010#008000002FB031F8
(1675526165.024804) vcan0 1E0#00381B0140FB17E0
(1675526165.024953) vcan0 291#0000000000000000
(1675526165.025826) vcan0 2A9#8C26008AC0000084
(1675526165.025904) vcan0 008#5B8DC0764F920080
(1675526165.028722) vcan0 2C3#BB9C00FFFFB45450
(1675526165.028800) vcan0 0E0#62747FF000809800
(1675526165.029742) vcan0 072#F000FF3F008CA038
(1675526165.029819) vcan0 055#E5F7EA27F2009C80
(1675526165.029969) vcan0 065#94E305E8FEFD0402
(1675526165.030046) vcan0 070#000019A8F3E15B00
(1675526165.030123) vcan0 075#0000000000005458
(1675526165.030849) vcan0 080#C84F8000C2002C00
(1675526165.030937) vcan0 0B0#D283ABA2F2C1D2A3
(1675526165.031013) vcan0 145#FD22DD86FCC810A1
(1675526165.031092) vcan0 28C#000000000034BE92
(1675526165.031890) vcan0 2B5#4B34006293A63A23
(1675526165.031968) vcan0 125#E5A78DE5C1D0D735
(1675526165.032886) vcan0 0F5#1481FF807F5F820C
(1675526165.033921) vcan0 120#1081FC807FF85589
(1675526165.036741) vcan0 010#008000002FB031F8
(1675526165.036813) vcan0 130#BFFF1D14016EFF11
(1675526165.036958) vcan0 150#0A01C77714F978C0
(1675526165.037030) vcan0 1D0#0000000000000061
(1675526165.037105) vcan0 008#9B8DD03C39920080
(1675526165.037930) vcan0 210#2BDE80A0C269C34D
(1675526165.038963) vcan0 3C8#BB9C008E882C008E
(1675526165.039997) vcan0 1B0#00C0000000B000FC
(1675526165.041097) vcan0 1B5#FFF966B63EE0FFEF
(1675526165.042143) vcan0 1D8#363339343234DB43
(1675526165.043125) vcan0 010#008000002FB031F8
(1675526165.044159) vcan0 072#F000FF3F008C8038
(1675526165.045191) vcan0 1E0#003C0B4140FB17E0
(1675526165.045334) vcan0 008#DD8DE0EA39920080
(1675526165.046297) vcan0 0E0#62747DF800807A00
(1675526165.049178) vcan0 288#52DF20DF00000080
(1675526165.049252) vcan0 360#CB9C00A7C160A001
(1675526165.049326) vcan0 055#E5F7EA27F2009C80
(1675526165.050219) vcan0 065#93E30AE8FFFD0802
(1675526165.050295) vcan0 070#00001AA8F3E15B00
(1675526165.050436) vcan0 075#0000000000005458
(1675526165.050511) vcan0 080#C94F8000C2002C00
(1675526165.051268) vcan0 0B0#D283ABA2F3C1D2A3
(1675526165.051411) vcan0 145#FD12DE86FCC810A1
(1675526165.051485) vcan0 260#D0FF00AA49A785B0
(1675526165.051569) vcan0 290#0000000000000000
(1675526165.051642) vcan0 2C0#BB9C002D0E00A0F1
(1675526165.052345) vcan0 125#E5298EE5C1D0D735
(1675526165.052497) vcan0 2C5#00D72E0B98E30070
(1675526165.053439) vcan0 0F5#1281FD807F63720C
(1675526165.054961) vcan0 120#0F81FC807FF65589
(1675526165.055038) vcan0 010#008000002FB031F8
(1675526165.055117) vcan0 130#C7FF1D120160FF11
(1675526165.055196) vcan0 150#0801C18720F96AC0
(1675526165.055271) vcan0 1D0#0000000000000061
(1675526165.055349) vcan0 291#0000000000000000
(1675526165.056004) vcan0 008#1B8EF0A92B920080
(1675526165.056082) vcan0 390#80FF0500020E5C4F
(1675526165.056160) vcan0 3CA#00000000D10000C8
(1675526165.057032) vcan0 072#F000FF3F008CA038
(1675526165.061007) vcan0 1B0#00C0000000B000FC
(1675526165.062103) vcan0 1B5#FFFA66B63EE0FFEF
(1675526165.063084) vcan0 010#008000002FB031F8
(1675526165.064119) vcan0 1D8#363339343234DB43
(1675526165.065150) vcan0 1E0#0000FB4140FB17E0
(1675526165.065294) vcan0 210#2BDE80A0C269C34D
(1675526165.065368) vcan0 2A9#8C260093C0000084
(1675526165.065441) vcan0 008#5D8E00572B920080
(1675526165.066269) vcan0 2C3#BB9C00FFFFB45450
(1675526165.066343) vcan0 0E0#62747CC000805B00
(1675526165.067308) vcan0 055#E5F7EA27F2009C80
(1675526165.068341) vcan0 065#95E30CE801FE0902
(1675526165.069442) vcan0 070#00001AA8F3E15B00
(1675526165.070475) vcan0 075#0000000000005458
(1675526165.070547) vcan0 080#C84F8000C2002C00
(1675526165.074788) vcan0 0B0#D283AAA2F3C1D2A3
(1675526165.074865) vcan0 145#FD02DF86FCC810A1
(1675526165.074953) vcan0 28C#000000000034BE91
(1675526165.075030) vcan0 2B5#4B34006293A63A24
(1675526165.075109) vcan0 340#5600000000000000
(1675526165.075257) vcan0 370#072BC0008D0FC71F
(1675526165.075336) vcan0 125#E5AD8EE5C1D0D735
(1675526165.075413) vcan0 288#39DF20DF00000080
(1675526165.075491) vcan0 0F5#1281FD807F67620C
(1675526165.075568) vcan0 120#0F81FC807FF65589
(1675526165.075718) vcan0 010#008000002FB031F9
(1675526165.075796) vcan0 072#F000FF3F008C8038
(1675526165.075872) vcan0 130#CFFF1D120150FF11
(1675526165.075951) vcan0 150#0801C5972CF95AC0
(1675526165.076028) vcan0 1D0#0000000000000261
(1675526165.076105) vcan0 008#9F8E10FE32920080
(1675526165.076905) vcan0 290#0000000000000000
(1675526165.077993) vcan0 350#A200000000000080
(1675526165.079029) vcan0 260#D0FF005549A985B0
(1675526165.080119) vcan0 1B0#00C0000000B000FC
(1675526165.083941) vcan0 1B5#FFFA67B63EE0FFEF
(1675526165.084014) vcan0 1D8#363339343234DB43
(1675526165.084978) vcan0 1E0#0000FB0140FB17E0
(1675526165.085120) vcan0 010#008000002FB031F8
(1675526165.085195) vcan0 291#0000000000000000
(1675526165.085269) vcan0 330#2800000000000000
(1675526165.086097) vcan0 008#DE8E20924F920080
(1675526165.087129) vcan0 0E0#62747CC800803B00
(1675526165.088162) vcan0 072#F000FF3F008CA038
(1675526165.089263) vcan0 210#2BDE80A0C269C345
(1675526165.089337) vcan0 055#E5F7EA27F2009C80
(1675526165.090302) vcan0 065#97E30DE801FE0902
(1675526165.090375) vcan0 070#00001AA8F3E15B00
(1675526165.090449) vcan0 075#0000000000005458
(1675526165.090533) vcan0 080#C64F8000C2002C00
(1675526165.093142) vcan0 0B0#D283ABA2F2C1D2A3
(1675526165.093210) vcan0 145#FDF2D086FCC810A1
(1675526165.093287) vcan0 125#E5328FE5C1D0D735
(1675526165.094229) vcan0 0F5#1281FB807F6B520C
(1675526165.094380) vcan0 120#1281FC807FF65589
(1675526165.094458) vcan0 010#008000002FB031F8
(1675526165.094534) vcan0 130#D7FF1D120140FF11
(1675526165.095332) vcan0 150#0701BFA738F94BC0
(1675526165.095410) vcan0 1D0#0000000000000861
(1675526165.095487) vcan0 008#208F305539920080
(1675526165.096359) vcan0 288#3DDF30CF00000080
(1675526165.097447) vcan0 1B0#00C0000000B000FC
(1675526165.098462) vcan0 1B5#FFFB67B73FE0FFEF
(1675526165.099550) vcan0 1D8#363339343234DB43
(1675526165.100493) vcan0 010#008000002FB031F8
(1675526165.104433) vcan0 072#F000FF3F008C8038
(1675526165.105535) vcan0 1E0#0004EB4140FB17E0
(1675526165.105608) vcan0 2A9#8C26008AC0000084
(1675526165.105683) vcan0 008#608F40132B920080
(1675526165.105824) vcan0 2C3#BB9C00FFFFB45450
(1675526165.106583) vcan0 0E0#62747CD000801B00
(1675526165.107615) vcan0 055#E5F7E927F2009C80
(1675526165.108718) vcan0 065#99E30CE801FE0802
(1675526165.109752) vcan0 070#000019A8F2E15B00
(1675526165.109826) vcan0 075#0000000000005458
(1675526165.110791) vcan0 080#C54F8000C2002C00
(1675526165.110933) vcan0 0B0#D283ACA2F2C1D2A3
(1675526165.111008) vcan0 145#FDE2D186FCC810A1
(1675526165.113629) vcan0 260#D0FF005549AB85B0
(1675526165.113707) vcan0 28C#000000000034BE93
(1675526165.113785) vcan0 290#0000000000000000
(1675526165.113872) vcan0 2B5#4B34006293A63A22
(1675526165.114023) vcan0 125#E5B78FE5C1D0D735
(1675526165.114100) vcan0 2C0#BB9C002E0E00A0F1
(1675526165.114178) vcan0 2C5#00D72F0B97E30070
(1675526165.114256) vcan0 3AF#0000000000000020
(1675526165.114334) vcan0 0F5#1281FB807F6F420D
(1675526165.114700) vcan0 120#1381FB807FF45589
(1675526165.114778) vcan0 130#DFFF1D120130FF11
(1675526165.114854) vcan0 010#008000002FB031F8
(1675526165.115004) vcan0 150#0701C0B744F93BC0
(1675526165.115080) vcan0 1D0#0000000000000061
(1675526165.115808) vcan0 210#2BDE8020C269C34D
(1675526165.117259) vcan0 008#9D8F50D51C920080
(1675526165.117336) vcan0 291#0000000000000000
(1675526165.118351) vcan0 072#F000FF3F008CA038
(1675526165.119368) vcan0 3B0#00D86D3C69C0C402
(1675526165.120463) vcan0 288#24DF30CF00000080
(1675526165.121479) vcan0 1B0#00C0000000B000FC
(1675526165.122518) vcan0 1B5#FFFC68B73FE0FFEF
(1675526165.123621) vcan0 1D8#363339343234DB43
(1675526165.124655) vcan0 010#008000002FB031F8
(1675526165.124730) vcan0 1E0#0008DB4140FB17E0
(1675526165.128843) vcan0 400#2401100101010309
(1675526165.128984) vcan0 405#D507E782271B6701
(1675526165.129059) vcan0 008#DF8F60A8F8910080
(1675526165.129143) vcan0 0E0#62747BD80080FC00
(1675526165.130028) vcan0 055#E5F7E927F2009C80
(1675526165.130102) vcan0 065#99E30AE800FE0602
(1675526165.130176) vcan0 070#000019A8F2E15B00
(1675526165.130318) vcan0 075#0000000000005458
(1675526165.130393) vcan0 080#C44F8000C2002C00
(1675526165.131084) vcan0 0B0#D283ACA2F2C1D2A3
(1675526165.131175) vcan0 145#FDD2D286FCC810A1
(1675526165.132071) vcan0 125#E53990E5C1D0D735
(1675526165.133116) vcan0 0F5#1381FA807F73320D
(1675526165.134146) vcan0 120#1481F9807FF55589
(1675526165.134291) vcan0 130#E7FF1D120120FF11
(1675526165.134365) vcan0 010#008000002FB031F8
(1675526165.135260) vcan0 072#F000FF3F008C8038
(1675526165.135335) vcan0 150#0701B8C750F92BC0
(1675526165.135409) vcan0 1D0#0000000000000061
(1675526165.135483) vcan0 008#1B907054FF910080
(1675526165.139255) vcan0 210#2BDE80A0C269C345
(1675526165.139329) vcan0 290#0000000000000000
(1675526165.140293) vcan0 260#D0FF005549B085B0
(1675526165.141395) vcan0 1B0#00C0000000B000FC
(1675526165.142401) vcan0 1B5#FFFD69B83FE0FFEF
(1675526165.143436) vcan0 010#008000002FB031F9
(1675526165.144480) vcan0 1D8#363339343234DB43
(1675526165.144554) vcan0 1E0#0008DB0140FB17E0
(1675526165.145519) vcan0 291#0000000000000000
(1675526165.145664) vcan0 008#5890802BDB910080
(1675526165.145737) vcan0 2A9#8C260093C0000084
(1675526165.145811) vcan0 2C3#BB9C00FFFFB45450
(1675526165.146638) vcan0 0E0#62747AE00080DD00
(1675526165.147670) vcan0 288#1CDF30CF00000080
(1675526165.148705) vcan0 072#F000FF3F008CA038
(1675526165.151587) vcan0 360#CB9C00A7C160A001
(1675526165.151731) vcan0 055#E5F7E827F2009C80
(1675526165.151804) vcan0 065#9CE309E802FE0602
(1675526165.151879) vcan0 070#000019A8F2E15B00
(1675526165.151953) vcan0 075#0000000000005458
(1675526165.152095) vcan0 080#C24F8000C2002C00
(1675526165.152169) vcan0 0B0#D183ACA2F2C1D1A3
(1675526165.152242) vcan0 145#FDC2D386FCC810A1
(1675526165.152387) vcan0 28C#000000000034BE97
(1675526165.152461) vcan0 2B5#4B34006293A63A20
(1675526165.152534) vcan0 125#E5B590E5C1D0D735
(1675526165.152747) vcan0 340#5600000000000000
(1675526165.153780) vcan0 0F5#1381FA807F77220D
(1675526165.153853) vcan0 120#1481F9807FF55589
(1675526165.154818) vcan0 130#EFFF1D120110FF11
(1675526165.157838) vcan0 010#008000002FB031F8
(1675526165.157911) vcan0 150#0701B9D75BF91BC0
(1675526165.157985) vcan0 1D0#0000000000000261
(1675526165.158060) vcan0 390#80FF0500020A5D6F
(1675526165.158202) vcan0 008#93909004B7910080
(1675526165.158892) vcan0 3C8#BB9C008E882C008E
(1675526165.159924) vcan0 1B0#00C0000000B000FC
(1675526165.161025) vcan0 1B5#FFFD69B840E0FFEF
(1675526165.161930) vcan0 1D8#363339343234DB43
(1675526165.163007) vcan0 010#008000002FB031F8
(1675526165.164095) vcan0 072#F000FF3F008C8038
(1675526165.165110) vcan0 1E0#000CCB4140FB17E0
(1675526165.165260) vcan0 210#2BDE80A0C269C34D
(1675526165.165337) vcan0 008#CC90A0FB77910080
(1675526165.166207) vcan0 330#2800000000000000
(1675526165.167655) vcan0 3D0#980F6100250D80C3
(1675526165.167804) vcan0 0E0#627478E80080BF00
(1675526165.168746) vcan0 055#E5F7E827F2009C80
(1675526165.169689) vcan0 065#9CE307E800FE0402
(1675526165.169767) vcan0 070#000019A8F2E15B00
(1675526165.169918) vcan0 075#0000000000005458
(1675526165.170789) vcan0 080#C24F8000C2002C00
(1675526165.170867) vcan0 0B0#D183ADA2F1C1D1A3
(1675526165.170944) vcan0 145#FDB2D486FCC810A1
(1675526165.171030) vcan0 260#D0FF005549AF85B0
(1675526165.175006) vcan0 290#0000000000000000
(1675526165.175080) vcan0 2C0#BB9C002D0E00A0F1
(1675526165.175154) vcan0 2C5#00D72F0B9AE30070
(1675526165.175298) vcan0 125#E52D91E5C1D0D735
(1675526165.175371) vcan0 350#A200000000000080
(1675526165.175445) vcan0 370#072BC0008D0FC71F
(1675526165.175518) vcan0 288#00DF30CF00000080
(1675526165.175662) vcan0 3E0#000000D936808090
(1675526165.175736) vcan0 0F5#1581FA807F7B120D
(1675526165.175809) vcan0 120#1581F8807FF55589
(1675526165.175883) vcan0 130#F7FF1D120100FF11
(1675526165.176025) vcan0 010#008000002FB031F8
(1675526165.176100) vcan0 150#0801B1E767F90AC0
(1675526165.176172) vcan0 1D0#0000000000000861
(1675526165.176247) vcan0 291#0000000000000000
(1675526165.176328) vcan0 008#0091B00D20910080
(1675526165.176473) vcan0 3CA#00000000D20000C8
(1675526165.177164) vcan0 072#F000FF3F008CA038
(1675526165.178196) vcan0 1B0#00C0000000B000FC
(1675526165.179297) vcan0 1B5#FFFE6AB840E0FFEF
(1675526165.183270) vcan0 1D8#363339343234DB43
(1675526165.184303) vcan0 1E0#0010BB4140FB17E0
(1675526165.185267) vcan0 010#008000002FB031F8
(1675526165.185341) vcan0 2A9#8C26008AC0000084
(1675526165.185415) vcan0 2C3#BB9C00FFFFB45450
