(1675526315.041566) vcan0 0F5#619361937F6F42A0
(1675526315.041628) vcan0 120#89937D937F095689
(1675526315.041713) vcan0 130#DFFD1D7B13B5F411
(1675526315.041791) vcan0 150#681318B817F8C8C0
(1675526315.042590) vcan0 330#2800000000000000
(1675526315.043966) vcan0 290#0000000000000000
(1675526315.046930) vcan0 072#F000FF3F0078A038
(1675526315.047009) vcan0 210#19E080A0A869D14D
(1675526315.047158) vcan0 0E0#627336C00080A500
(1675526315.047236) vcan0 3C8#6B87008E886C008E
(1675526315.047315) vcan0 008#0D8030C200800080
(1675526315.048114) vcan0 010#000000002FB031F8
(1675526315.049136) vcan0 1D0#0000000000000061
(1675526315.050212) vcan0 125#E54680E4C1D0D735
(1675526315.051316) vcan0 1B0#00C0000002B000FC
(1675526315.051459) vcan0 1B5#FFED117687E0FFEF
(1675526315.051533) vcan0 1D8#363339343234E043
(1675526315.052361) vcan0 1E0#001C830300B917E0
(1675526315.054841) vcan0 055#F4F70128B25C9C80
(1675526315.054916) vcan0 065#0EE5FFF7FFCD0002
(1675526315.057662) vcan0 070#00000AF806E21500
(1675526315.057736) vcan0 075#0000000000005458
(1675526315.057810) vcan0 080#15508000C2002C00
(1675526315.057885) vcan0 0B0#3983FFA2E2C139A3
(1675526315.058028) vcan0 145#F992D680FC4810A1
(1675526315.058101) vcan0 288#47E0D02F00000080
(1675526315.058176) vcan0 008#0D8040B200800080
(1675526315.058730) vcan0 010#000000002FB031F8
(1675526315.059762) vcan0 072#F000FF3F00788038
(1675526315.059837) vcan0 2A9#8C26009BC0000084
(1675526315.060845) vcan0 0F5#619363937F7332A2
(1675526315.060923) vcan0 120#89937D937F095689
(1675526315.061939) vcan0 130#E7FD1D7B13A5F711
(1675526315.062018) vcan0 150#611314C817F8BFC0
(1675526315.062177) vcan0 3CA#00000000520000C8
(1675526315.064347) vcan0 0E0#627336C800808500
(1675526315.067093) vcan0 008#0D8050A200800080
(1675526315.068179) vcan0 260#D0FF0055497487B0
(1675526315.069268) vcan0 010#000000002FB031F8
(1675526315.069417) vcan0 1D0#0000000000000861
(1675526315.069494) vcan0 210#1AE080A0A869D145
(1675526315.070286) vcan0 291#0000000000000000
(1675526315.070428) vcan0 125#E54680E4C1D0D735
(1675526315.071463) vcan0 1B0#00C0000001B000FC
(1675526315.071536) vcan0 1B5#FFFA1D7C8DE0FFEF
(1675526315.071610) vcan0 1D8#363339343234E043
(1675526315.071755) vcan0 1E0#0020734300B917E0
(1675526315.072513) vcan0 2C3#6B8700FFFF605450
(1675526315.073821) vcan0 072#F000FF3F0078A038
(1675526315.073894) vcan0 3B0#00D8383839A4C400
(1675526315.073977) vcan0 055#F4F70128B25C9C80
(1675526315.074941) vcan0 065#11E500F801CE0302
(1675526315.075084) vcan0 070#00000AF807E21500
(1675526315.077828) vcan0 075#0000000000005458
(1675526315.077972) vcan0 080#15508000C2002C00
(1675526315.078045) vcan0 0B0#3983FFA2E2C139A3
(1675526315.078119) vcan0 145#F982D780FC4810A1
(1675526315.078193) vcan0 28C#000000000012FEA3
(1675526315.078336) vcan0 290#0000000000000000
(1675526315.078409) vcan0 2B5#4BC12C6293A67424
(1675526315.078484) vcan0 2C0#6B8700000000A0F1
(1675526315.078557) vcan0 008#0D80609200800080
(1675526315.078630) vcan0 2C5#05E763E20FE50070
(1675526315.078774) vcan0 340#8600000000000000
(1675526315.078849) vcan0 350#A200000000000080
(1675526315.078922) vcan0 3AF#0000000000000020
(1675526315.079005) vcan0 010#000000002FB031F8
(1675526315.080039) vcan0 0F5#689361937F7722A3
(1675526315.081399) vcan0 120#89937C937F045689
(1675526315.081478) vcan0 130#EFFD1D7B1395FD11
(1675526315.081556) vcan0 150#671318D817F8A9C0
(1675526315.082427) vcan0 288#33E0E01F00000080
(1675526315.084958) vcan0 0E0#627336D000806500
(1675526315.086046) vcan0 008#0D80708200800080
(1675526315.088791) vcan0 010#000000002FB031F8
(1675526315.089950) vcan0 072#F000FF3F00788038
(1675526315.090028) vcan0 1D0#0000000000000061
(1675526315.090999) vcan0 125#E54680E4C1D0D735
(1675526315.091075) vcan0 1B0#00C0000001B000FC
(1675526315.091218) vcan0 1B5#FF062A8393E0FFEF
(1675526315.092182) vcan0 1D8#363339343234E043
(1675526315.092256) vcan0 1E0#0024634300B917E0
(1675526315.093233) vcan0 210#1AE08020A869D145
(1675526315.094267) vcan0 055#F4F70228B25E9C80
(1675526315.094340) vcan0 065#0DE500F8FECD0602
(1675526315.094415) vcan0 070#00000AF809E21500
(1675526315.095381) vcan0 075#0000000000005458
(1675526315.096689) vcan0 080#16508000C2002C00
(1675526315.096831) vcan0 0B0#3983FFA2E2C139A3
(1675526315.096906) vcan0 145#F972D880FC4810A1
(1675526315.099789) vcan0 008#0D80807200800080
(1675526315.099864) vcan0 260#D0FF0055497487B0
(1675526315.099937) vcan0 010#000000002FB031F8
(1675526315.100011) vcan0 291#0000000000000000
(1675526315.100172) vcan0 2A9#8C260082C0000084
(1675526315.100829) vcan0 0F5#65935C937F7B12A5
(1675526315.100906) vcan0 120#819385937F0C5689
(1675526315.101923) vcan0 130#F7FD1D791387FF11
(1675526315.102009) vcan0 150#601312E817F8A0C0
