(1675526179.624466) vcan0 2B5#4BEE2C6293A63B38
(1675526179.624539) vcan0 2C3#BB9C00FFFF2C5450
(1675526179.624617) vcan0 340#6700000000000000
(1675526179.624766) vcan0 370#072CC0008E03C71F
(1675526179.625144) vcan0 008#DC9000B44F900080
(1675526179.625220) vcan0 125#E50E91E5C1D0D735
(1675526179.626162) vcan0 010#008000002FB031F8
(1675526179.627247) vcan0 1D0#0000000000000261
(1675526179.627326) vcan0 3C8#BB9C008E882C008E
(1675526179.628340) vcan0 0F5#5D886F877F67624A
(1675526179.629786) vcan0 120#618860877F505689
(1675526179.630871) vcan0 130#CFF71D0D084EFF11
(1675526179.630948) vcan0 150#E607729A85FA76C0
(1675526179.631026) vcan0 350#A200000000000080
(1675526179.631896) vcan0 008#1591108633900080
(1675526179.632984) vcan0 010#008000002FB031F8
(1675526179.634068) vcan0 072#F000FF3F00788038
(1675526179.635171) vcan0 330#2800000000000000
(1675526179.636260) vcan0 055#EEF7FF27B2009C80
(1675526179.637273) vcan0 065#0EE304F8FEBD090E
(1675526179.640160) vcan0 070#000010F800E22000
(1675526179.640310) vcan0 075#0000000000005458
(1675526179.640388) vcan0 080#FF4F8000C2002C00
(1675526179.640464) vcan0 0B0#568381A200C256A3
(1675526179.640543) vcan0 0E0#6273AFC000802C00
(1675526179.640619) vcan0 145#FDF2D080FCC810A1
(1675526179.641274) vcan0 1B0#00C0000003B001FC
(1675526179.641351) vcan0 1B5#FFF9572F23E0FFEF
(1675526179.641428) vcan0 1D8#363339343234D943
(1675526179.641504) vcan0 1E0#002C434300B917E0
(1675526179.641654) vcan0 210#93E080A0C069BE45
(1675526179.642309) vcan0 288#A7E730CF00000080
(1675526179.642386) vcan0 290#0000000000000000
(1675526179.642472) vcan0 2C0#BB9C00410100A0F1
(1675526179.642623) vcan0 2C5#00DF21AC12E30070
(1675526179.645174) vcan0 008#4E91204C24900080
(1675526179.645250) vcan0 125#E58891E5C1D0D735
(1675526179.646264) vcan0 010#008000002FB031F8
(1675526179.646342) vcan0 1D0#0000000000000861
(1675526179.647283) vcan0 291#0000000000000000
(1675526179.648369) vcan0 0F5#5A8873877F6B524B
(1675526179.649455) vcan0 120#668864877F575689
(1675526179.650468) vcan0 130#D7F71D0D083EFF11
(1675526179.650546) vcan0 150#E60783AA97FA66C0
(1675526179.650622) vcan0 260#D0FF0055497487B0
(1675526179.651564) vcan0 3CA#00000000D10000C8
(1675526179.651642) vcan0 072#F000FF3F0078A038
(1675526179.652582) vcan0 008#8791301116900080
(1675526179.653669) vcan0 010#008000002FB031F8
(1675526179.654692) vcan0 2A9#8C26008AC0000084
(1675526179.659039) vcan0 055#EEF7FF27B2009C80
(1675526179.659112) vcan0 065#0EE304F800BE090E
(1675526179.659254) vcan0 070#000010F800E22000
(1675526179.660081) vcan0 075#0000000000005458
(1675526179.660155) vcan0 080#FF4F8000C2002C00
(1675526179.660299) vcan0 0B0#558381A200C255A3
(1675526179.660373) vcan0 0E0#6273B3C800800800
(1675526179.660446) vcan0 145#FDE2D180FCC810A1
(1675526179.661137) vcan0 1B0#00C0000002B001FC
(1675526179.661280) vcan0 1B5#FFFE5B3125E0FFEF
(1675526179.661352) vcan0 1D8#363339343234D943
(1675526179.661427) vcan0 1E0#0030334300B917E0
(1675526179.662254) vcan0 28C#000000000034BE8B
(1675526179.662328) vcan0 2B5#4BEE2B6293A63B39
(1675526179.662402) vcan0 2C3#BB9C00FFFF2C5450
(1675526179.663308) vcan0 008#BF9140BB24900080
(1675526179.664340) vcan0 125#E50192E5C1D0D735
(1675526179.665398) vcan0 010#008000002FB031F8
(1675526179.666413) vcan0 072#F000FF3F00788038
(1675526179.667501) vcan0 1D0#0000000000000061
(1675526179.669020) vcan0 210#93E080A0C069BE4D
(1675526179.669099) vcan0 288#EDE730CF00000080
(1675526179.669175) vcan0 290#0000000000000000
(1675526179.670116) vcan0 0F5#61887C877F6F424C
(1675526179.670194) vcan0 120#49884E877F5C5689
(1675526179.670272) vcan0 130#DFF71D0D082EFF11
(1675526179.670348) vcan0 150#EE0799BAA8FA4EC0
(1675526179.671146) vcan0 008#FD91506D24900080
(1675526179.676484) vcan0 010#008000002FB031F8
(1675526179.676559) vcan0 291#0000000000000000
(1675526179.677575) vcan0 425#0000000000000000
(1675526179.678603) vcan0 055#EEF7FF27B2009C80
(1675526179.679690) vcan0 065#0EE304F800BE090E
(1675526179.679767) vcan0 070#000010F800E22000
(1675526179.679843) vcan0 075#0000000000005458
(1675526179.679920) vcan0 080#FF4F8000C2002C00
(1675526179.679998) vcan0 0B0#558381A200C255A3
(1675526179.680725) vcan0 0E0#6273B7D00080E400
(1675526179.680802) vcan0 145#FDD2D280FCC810A1
(1675526179.680878) vcan0 1B0#00C0000002B001FC
(1675526179.681029) vcan0 1B5#FF03603427E0FFEF
(1675526179.681681) vcan0 1D8#363339343234D943
(1675526179.681830) vcan0 072#F000FF3F0078A038
(1675526179.681909) vcan0 1E0#0030330300B917E0
(1675526179.681986) vcan0 260#D0FF0055497487B0
(1675526179.682783) vcan0 008#3892602124900080
(1675526179.683798) vcan0 125#E57B92E5C1D0D735
(1675526179.684891) vcan0 010#008000002FB031F8
(1675526179.687348) vcan0 1D0#0000000000000061
