(1675525645.364410) vcan0 1E0#0010B30300B917E0
(1675525645.365593) vcan0 125#E51780E4C1D0D735
(1675525645.365618) vcan0 055#F5F71028B2A19C80
(1675525645.365764) vcan0 065#34E610F8FFDD4102
(1675525645.368282) vcan0 070#000009F840E20F00
(1675525645.368287) vcan0 075#0000000000005458
(1675525645.368291) vcan0 080#2D508000C2002C00
(1675525645.368296) vcan0 0B0#52830FA3DBC152A3
(1675525645.368300) vcan0 145#F942DB80FC4810A1
(1675525645.368304) vcan0 28C#000000000016FEA8
(1675525645.368309) vcan0 008#1F80ECF20E800080
(1675525645.368312) vcan0 2B5#4BAD456293A67E5B
(1675525645.368317) vcan0 288#1EE020DF00000080
(1675525645.370845) vcan0 010#008800002FB031F8
(1675525645.370920) vcan0 291#0000000000000000
(1675525645.370995) vcan0 2A9#8C260082C0000084
(1675525645.371069) vcan0 260#D0FF00AA497487B0
(1675525645.375882) vcan0 0F5#B3A0B3A07F63724B
(1675525645.375897) vcan0 120#E5A0EEA07F0F5689
(1675525645.375902) vcan0 130#C7FF1DE9206AFF11
(1675525645.375906) vcan0 150#B320058809F8A0C0
(1675525645.375910) vcan0 072#F000FF3F0078A038
(1675525645.375914) vcan0 350#A200000000000080
(1675525645.377203) vcan0 290#0000000000000000
(1675525645.377284) vcan0 008#2480FCC823800080
(1675525645.379858) vcan0 010#008800002FB031F8
(1675525645.379940) vcan0 1D0#0000000000000061
(1675525645.380017) vcan0 0E0#E27301D000809A00
(1675525645.380095) vcan0 210#7CE080A0A869D845
(1675525645.382295) vcan0 1B0#00C0000002B000FC
(1675525645.384818) vcan0 1B5#FF105D09DDE0FFEF
(1675525645.384823) vcan0 1D8#363339343234E043
(1675525645.384827) vcan0 1E0#0014A34300B917E0
(1675525645.384832) vcan0 2C3#528700FFFF055450
(1675525645.384992) vcan0 125#E51180E4C1D0D735
(1675525645.389886) vcan0 055#F5F71028B2A09C80
(1675525645.389891) vcan0 065#33E610F801DE4102
(1675525645.389895) vcan0 070#000009F840E20F00
(1675525645.389899) vcan0 075#0000000000005458
(1675525645.389903) vcan0 080#2D508000C2002C00
(1675525645.389907) vcan0 0B0#52830FA3DBC152A3
(1675525645.389912) vcan0 145#F932DC80FC4810A1
(1675525645.389916) vcan0 008#26800CA732800080
(1675525645.389920) vcan0 010#008800002FB031F8
(1675525645.389985) vcan0 072#F000FF3F00788038
(1675525645.392439) vcan0 0F5#ACA0B0A07F67624E
(1675525645.394877) vcan0 120#E8A0FAA07F125689
(1675525645.394882) vcan0 130#CFFF1DE9205AFF11
(1675525645.394886) vcan0 150#AE20099809F895C0
(1675525645.394961) vcan0 288#16E020DF00000080
(1675525645.397376) vcan0 008#28801C784F800080
(1675525645.399891) vcan0 010#008800002FB031F8
(1675525645.400037) vcan0 1D0#0000000000000061
(1675525645.400111) vcan0 0E0#E27305D800807600
(1675525645.401287) vcan0 291#0000000000000000
(1675525645.401444) vcan0 260#D0FF0055497487B0
(1675525645.406580) vcan0 1B0#00C0000003B000FC
(1675525645.406586) vcan0 1B5#FF257214E8E0FFEF
(1675525645.406590) vcan0 1D8#363339343234E043
(1675525645.406595) vcan0 1E0#0018934300B917E0
(1675525645.406599) vcan0 072#F000FF3F0078A038
(1675525645.406603) vcan0 210#7CE080A0A869D84D
(1675525645.406607) vcan0 125#E50E80E4C1D0D735
(1675525645.406611) vcan0 055#F5F71028B2A19C80
(1675525645.406616) vcan0 065#2FE610F8FEDD4002
(1675525645.406620) vcan0 070#000009F840E20F00
(1675525645.406624) vcan0 075#0000000000005458
(1675525645.406700) vcan0 080#2D508000C2002C00
(1675525645.408119) vcan0 0B0#52830FA3DBC152A3
(1675525645.408195) vcan0 145#F922DD80FC4810A1
(1675525645.408269) vcan0 008#2B802C654F800080
(1675525645.408413) vcan0 28C#000000000016FEA8
(1675525645.408486) vcan0 290#0000000000000000
(1675525645.408562) vcan0 2B5#4BAD456293A67E5A
(1675525645.408635) vcan0 2C0#528700000000A0F1
(1675525645.409622) vcan0 2C5#1FDF82E035E60070
(1675525645.409698) vcan0 340#9900000000000000
(1675525645.409771) vcan0 3AF#0000000000000020
(1675525645.409915) vcan0 010#008800002FB031F8
(1675525645.409989) vcan0 2A9#8C26008AC0000084
(1675525645.414679) vcan0 0F5#B6A0A9A07F6B5251
(1675525645.414684) vcan0 120#E9A0EBA07F0C5689
(1675525645.414696) vcan0 130#D7FF1DE9204AFF11
(1675525645.414700) vcan0 150#AF2005A808F884C0
(1675525645.414773) vcan0 360#538700B4B964A041
(1675525645.417239) vcan0 008#2D803C3E64800080
(1675525645.419743) vcan0 288#1EE020DF00000080
(1675525645.419823) vcan0 010#008800002FB031F8
(1675525645.419900) vcan0 072#F000FF3F00788038
(1675525645.421111) vcan0 0E0#E27309E000805200
(1675525645.421192) vcan0 1D0#0000000000000861
(1675525645.421270) vcan0 390#80FF051D0226564F
(1675525645.424751) vcan0 1B0#00C0000001B000FC
(1675525645.424756) vcan0 1B5#FF3A881FF2E0FFEF
(1675525645.424759) vcan0 1D8#363339343234E043
(1675525645.424764) vcan0 1E0#0018930300B917E0
(1675525645.424768) vcan0 2C3#528700FFFF065450
(1675525645.426359) vcan0 125#E50B80E4C1D0D735
(1675525645.426446) vcan0 055#F5F71028B2A19C80
(1675525645.426522) vcan0 065#2FE610F8FFDD4002
(1675525645.426664) vcan0 070#000009F840E20F00
(1675525645.426739) vcan0 075#0000000000005458
(1675525645.426813) vcan0 080#2D508000C2002C00
(1675525645.426887) vcan0 0B0#52830FA3DBC152A3
(1675525645.429974) vcan0 145#F912DE80FC4810A1
(1675525645.429979) vcan0 008#2F804C1D73800080
(1675525645.429983) vcan0 010#008800002FB031F8
(1675525645.430059) vcan0 210#7CE08020A869D84D
(1675525645.435052) vcan0 291#0000000000000000
(1675525645.435056) vcan0 330#C500000000000000
(1675525645.435061) vcan0 3D0#8C0F6100C50580C3
(1675525645.435065) vcan0 260#D0FF0055497487B0
(1675525645.435069) vcan0 0F5#B6A0C1A07F6F4253
(1675525645.435073) vcan0 120#00A1EEA07F0C5689
(1675525645.435080) vcan0 130#DFFF1DE9203AFF11
(1675525645.435084) vcan0 150#BC2008B808F867C0
(1675525645.435088) vcan0 072#F000FF3F0078A038
(1675525645.436486) vcan0 290#0000000000000000
(1675525645.440147) vcan0 008#2F805CFF81800080
(1675525645.440152) vcan0 010#008800002FB031F9
(1675525645.440157) vcan0 1D0#0000000000000261
(1675525645.440236) vcan0 0E0#E2730BE800803000
(1675525645.442678) vcan0 1B0#00C0000004B000FC
(1675525645.445203) vcan0 1B5#FF509D29FDE0FFEF
(1675525645.445208) vcan0 1D8#363339343234E043
(1675525645.445213) vcan0 1E0#001C834300B917E0
(1675525645.445217) vcan0 288#0EE030CF00000080
(1675525645.445221) vcan0 125#E50880E4C1D0D735
(1675525645.450276) vcan0 055#F5F71028B2A19C80
(1675525645.450283) vcan0 065#33E610F801DE4002
(1675525645.450299) vcan0 070#000009F840E20F00
(1675525645.450303) vcan0 075#0000000000005458
(1675525645.450306) vcan0 080#2D508000C2002C00
(1675525645.450310) vcan0 0B0#52830FA3DBC152A3
(1675525645.450315) vcan0 145#F902DF80FC4810A1
(1675525645.450319) vcan0 28C#000000000016FEA8
(1675525645.450323) vcan0 008#32806CD697800080
(1675525645.450327) vcan0 2B5#4BAD456293A67E5A
(1675525645.450331) vcan0 370#0721C000681BC71F
(1675525645.450335) vcan0 010#008800002FB031F8
(1675525645.450339) vcan0 072#F000FF3F00788038
(1675525645.450401) vcan0 2A9#8C260093C0000084
(1675525645.452851) vcan0 0F5#BCA0C4A07F733256
(1675525645.455339) vcan0 120#03A1E5A07F0A5689
(1675525645.455344) vcan0 130#E7FF1DE9202AFF11
(1675525645.455348) vcan0 150#C02004C808F853C0
(1675525645.455359) vcan0 210#7CE080A0A869D845
(1675525645.455362) vcan0 3CA#00000000540000C8
(1675525645.456733) vcan0 008#34807CC497800080
(1675525645.460382) vcan0 010#008800002FB031F8
(1675525645.460387) vcan0 0E0#E27313F000800800
(1675525645.460465) vcan0 1D0#0000000000000061
(1675525645.460615) vcan0 291#0000000000000000
(1675525645.461828) vcan0 405#5387003B002D3502
(1675525645.461910) vcan0 260#D0FF0055497487B0
(1675525645.467069) vcan0 1B0#00C0000003B000FC
(1675525645.467075) vcan0 1B5#FF65B23408E0FFEF
(1675525645.467079) vcan0 1D8#363339343234E043
(1675525645.467083) vcan0 1E0#0020734300B917E0
(1675525645.467088) vcan0 2C3#528700FFFF065450
(1675525645.467091) vcan0 072#F000FF3F0078A038
(1675525645.467095) vcan0 3B0#00D83D383CB8C400
(1675525645.467101) vcan0 125#E50880E4C1D0D735
(1675525645.467105) vcan0 055#F5F71028B2A19C80
(1675525645.467109) vcan0 065#34E610F803DE4002
(1675525645.467113) vcan0 070#000009F840E20F00
(1675525645.467117) vcan0 075#0000000000005458
(1675525645.467121) vcan0 080#2C508000C2002C00
(1675525645.467125) vcan0 0B0#52830FA3DBC152A3
(1675525645.467193) vcan0 145#F9F2D080FC4810A1
(1675525645.468615) vcan0 290#0000000000000000
(1675525645.468760) vcan0 008#34808CC388800080
(1675525645.468835) vcan0 2C0#528700000000A0F1
(1675525645.468912) vcan0 2C5#1FDF82E035E60070
(1675525645.468987) vcan0 350#A200000000000080
(1675525645.471023) vcan0 288#0AE030CF00000080
(1675525645.471028) vcan0 3C8#5287008E882C008E
(1675525645.471102) vcan0 010#008800002FB031F8
(1675525645.473570) vcan0 0F5#BCA0C7A07F772259
(1675525645.474982) vcan0 120#F0A000A17F0A5689
(1675525645.475057) vcan0 130#EFFF1DE9201AFF11
(1675525645.475175) vcan0 150#C12001D807F842C0
(1675525645.477618) vcan0 008#34809CC873800080
(1675525645.480031) vcan0 010#008800002FB031F8
(1675525645.480037) vcan0 072#F000FF3F00788038
(1675525645.480115) vcan0 0E0#E27310F80080EB00
(1675525645.480194) vcan0 1D0#0000000000000061
(1675525645.481482) vcan0 210#7CE080A0A869D84D
(1675525645.485119) vcan0 1B0#00C0000001B000FC
(1675525645.485134) vcan0 1B5#FF7AC83E12E0FFEF
(1675525645.485143) vcan0 1D8#363339343234E043
(1675525645.485152) vcan0 1E0#0020730300B917E0
(1675525645.485156) vcan0 125#E50880E4C1D0D735
(1675525645.489148) vcan0 055#F5F71028B2A19C80
(1675525645.489163) vcan0 065#34E610F801DE4002
(1675525645.489168) vcan0 070#000009F840E20F00
(1675525645.489172) vcan0 075#0000000000005458
(1675525645.489177) vcan0 080#2C508000C2002C00
(1675525645.489180) vcan0 0B0#52830FA3DBC152A3
(1675525645.489185) vcan0 145#F9E2D180FC4810A1
(1675525645.489189) vcan0 28C#000000000016FEA8
(1675525645.489193) vcan0 008#3480ACC764800080
(1675525645.489198) vcan0 2B5#4BAD456293A67E5A
(1675525645.489202) vcan0 340#9900000000000000
(1675525645.489206) vcan0 010#008800002FB031F8
(1675525645.490592) vcan0 291#0000000000000000
(1675525645.490685) vcan0 2A9#8C26008AC0000084
(1675525645.490761) vcan0 260#D0FF0055497487B0
(1675525645.494204) vcan0 0F5#CFA0C1A07F7B125B
(1675525645.494280) vcan0 120#FAA0DFA07F035689
(1675525645.494374) vcan0 130#F7FF1DE9200AFF11
(1675525645.494449) vcan0 150#C82001E806F82BC0
(1675525645.495592) vcan0 072#F000FF3F0078A038
(1675525645.495680) vcan0 288#0AE030CF00000080
(1675525645.495755) vcan0 290#0000000000000000
(1675525645.497024) vcan0 008#3680BCC356800080
(1675525645.499706) vcan0 010#008800002FB031F8
(1675525645.499782) vcan0 1D0#0000000000000861
(1675525645.499855) vcan0 0E0#E27308C00080D300
(1675525645.502119) vcan0 1B0#00C0000003B000FC
(1675525645.504635) vcan0 1B5#FF90DD491DE0FFEF
(1675525645.504640) vcan0 1D8#363339343234E043
(1675525645.504645) vcan0 1E0#0024634300B917E0
(1675525645.504788) vcan0 2C3#528700FFFF075450
(1675525645.504862) vcan0 210#7CE080A0A869D845
(1675525645.509797) vcan0 125#E50880E4C1D0D735
(1675525645.509824) vcan0 055#F5F71028B2A19C80
(1675525645.509829) vcan0 065#35E610F801DE4002
(1675525645.509833) vcan0 070#000009F840E20F00
(1675525645.509837) vcan0 075#0000000000005458
(1675525645.509842) vcan0 080#2C508000C2002C00
(1675525645.509845) vcan0 0B0#52830FA3DBC152A3
(1675525645.509850) vcan0 145#F9D2D280FC4810A1
(1675525645.509854) vcan0 008#3680CCB356800080
(1675525645.509858) vcan0 010#008800002FB031F8
(1675525645.509862) vcan0 072#F000FF3F00788038
(1675525645.511213) vcan0 330#C500000000000000
(1675525645.514880) vcan0 0F5#BEA0CCA07F7F025E
(1675525645.514886) vcan0 120#FAA0F7A07F055689
(1675525645.514890) vcan0 130#FFFF1DE920FAFF11
(1675525645.514894) vcan0 150#C42001F805F81FC0
(1675525645.514971) vcan0 360#538700B4B964A041
(1675525645.517390) vcan0 008#3680DCB940800080
(1675525645.519898) vcan0 288#22E030CF00000080
(1675525645.519976) vcan0 010#008800002FB031F9
(1675525645.520049) vcan0 0E0#E27304C80080B700
(1675525645.520125) vcan0 1D0#0000000000000261
(1675525645.521337) vcan0 291#0000000000000000
(1675525645.521428) vcan0 390#80FF051D0226566F
(1675525645.521502) vcan0 260#D0FF00AA497487B0
(1675525645.526599) vcan0 1B0#00C0000003B000FC
(1675525645.526604) vcan0 1B5#FFA5F25327E0FFEF
(1675525645.526608) vcan0 1D8#363339343234E043
(1675525645.526613) vcan0 1E0#0028534300B917E0
(1675525645.526617) vcan0 072#F000FF3F0078A038
(1675525645.526621) vcan0 125#E50880E4C1D0D735
(1675525645.526625) vcan0 055#F5F71028B2A19C80
(1675525645.526629) vcan0 065#38E610F801DE4002
(1675525645.526633) vcan0 070#000009F840E20F00
(1675525645.526637) vcan0 075#0000000000005458
(1675525645.526717) vcan0 080#2C508000C2002C00
(1675525645.530522) vcan0 0B0#52830FA3DBC152A3
(1675525645.530528) vcan0 145#F9C2D380FC4810A1
(1675525645.530532) vcan0 008#3680ECB732800080
(1675525645.530536) vcan0 28C#000000000016FEA8
(1675525645.530540) vcan0 290#0000000000000000
(1675525645.530545) vcan0 2B5#4BAE456293A67E5A
(1675525645.530548) vcan0 2C0#528700000000A0F1
(1675525645.530552) vcan0 2C5#1FDF82E035E60070
(1675525645.530557) vcan0 3AF#0000000000000020
(1675525645.530561) vcan0 010#008800002FB031F8
(1675525645.530565) vcan0 210#7CE080A0A869D845
(1675525645.530705) vcan0 2A9#8C260093C0000084
(1675525645.533001) vcan0 0F5#CAA0C4A07F43F260
(1675525645.534416) vcan0 120#05A1CFA07F055689
(1675525645.534504) vcan0 130#87FF1DE920EAFF11
(1675525645.534583) vcan0 150#C720090804F80CC0
(1675525645.537089) vcan0 008#3680FCB623800080
(1675525645.539569) vcan0 010#008800002FB031F8
(1675525645.540981) vcan0 072#F000FF3F00788038
(1675525645.541055) vcan0 0E0#E27301D000809A00
(1675525645.541137) vcan0 1D0#0000000000000061
(1675525645.546208) vcan0 1B0#00C0000002B000FC
(1675525645.546214) vcan0 1B5#FFBA075E32E0FFEF
(1675525645.546219) vcan0 1D8#363339343234E043
(1675525645.546223) vcan0 1E0#0028530300B917E0
(1675525645.546227) vcan0 288#16E040BF00000080
(1675525645.546231) vcan0 2C3#528700FFFF075450
(1675525645.546235) vcan0 125#E50880E4C1D0D735
(1675525645.546239) vcan0 055#F5F71028B2A19C80
(1675525645.546245) vcan0 065#36E610F800DE4002
(1675525645.551273) vcan0 070#000009F840E20F00
(1675525645.551278) vcan0 075#0000000000005458
(1675525645.551282) vcan0 080#2C508000C2002C00
(1675525645.551286) vcan0 0B0#52830FA3DBC152A3
(1675525645.551291) vcan0 008#36800CBB0E800080
(1675525645.551295) vcan0 145#F9B2D480FC4810A1
(1675525645.551299) vcan0 370#0721C000681BC71F
(1675525645.551303) vcan0 010#008800002FB031F8
(1675525645.551308) vcan0 291#0000000000000000
(1675525645.551377) vcan0 260#D0FF00AA497487B0
(1675525645.553865) vcan0 0F5#B3A0BFA07F47E263
(1675525645.556657) vcan0 120#C7A0D9A07F055689
(1675525645.556744) vcan0 130#8FFF1DD920EAFD11
(1675525645.556888) vcan0 150#B920041803F80AC0
(1675525645.556962) vcan0 072#F000FF3F0078A038
(1675525645.557046) vcan0 210#7CE080A0A869D84D
(1675525645.557122) vcan0 290#0000000000000000
(1675525645.557198) vcan0 350#A200000000000080
(1675525645.557340) vcan0 008#36801CAB0E800080
(1675525645.560354) vcan0 010#008800002FB031F8
(1675525645.560359) vcan0 0E0#627302D800807900
(1675525645.560435) vcan0 1D0#0000000000000061
(1675525645.562819) vcan0 1B0#00C0000004B000FC
(1675525645.565322) vcan0 1B5#FFD01D693DE0FFEF
(1675525645.565327) vcan0 1D8#363339343234E043
(1675525645.565331) vcan0 1E0#002C434300B917E0
(1675525645.565336) vcan0 125#E50880E4C1D0D735
(1675525645.565411) vcan0 055#F5F71028B2A19C80
(1675525645.570408) vcan0 065#33E610F8FEDD4002
(1675525645.570413) vcan0 070#000009F840E20F00
(1675525645.570418) vcan0 075#0000000000005458
(1675525645.570426) vcan0 080#2C508000C2002C00
(1675525645.570430) vcan0 0B0#528310A3DBC152A3
(1675525645.570434) vcan0 145#F9A2D580FC4810A1
(1675525645.570438) vcan0 008#36802C9B0E800080
(1675525645.570442) vcan0 28C#000000000016FEA8
(1675525645.570447) vcan0 2B5#4BAE456293A67E5A
(1675525645.570451) vcan0 340#9900000000000000
(1675525645.570455) vcan0 288#2FE040BF00000080
(1675525645.570525) vcan0 010#008800002FB031F8
(1675525645.571788) vcan0 072#F000FF3F00788038
(1675525645.571881) vcan0 2A9#8C26008AC0000084
(1675525645.574429) vcan0 0F5#BCA0BFA07F4BD266
(1675525645.574434) vcan0 120#DFA0D3A07F035689
(1675525645.574438) vcan0 130#97FF1DC820EBF711
(1675525645.574515) vcan0 150#BD20082801F8F6C0
(1675525645.574668) vcan0 3CA#00000000550000C8
(1675525645.576999) vcan0 008#36803C8B0E800080
(1675525645.579483) vcan0 010#008800002FB031F8
(1675525645.580838) vcan0 1D0#0000000000000861
(1675525645.580981) vcan0 0E0#62730AE000805100
(1675525645.581056) vcan0 210#7CE08020A869D845
(1675525645.581135) vcan0 291#0000000000000000
(1675525645.581204) vcan0 260#D0FF00AA497487B0
(1675525645.586132) vcan0 1B0#00C0000001B000FC
(1675525645.586136) vcan0 1B5#FFE5327347E0FFEF
(1675525645.586140) vcan0 1D8#363339343234E043
(1675525645.586145) vcan0 1E0#0030334300B917E0
(1675525645.586149) vcan0 2C3#528700FFFF085450
(1675525645.586153) vcan0 072#F000FF3F0078A038
(1675525645.586158) vcan0 3B0#00D83D3C3CB8C400
(1675525645.586162) vcan0 125#E50880E4C1D0D735
(1675525645.586166) vcan0 055#F5F71028B2A09C80
(1675525645.586173) vcan0 065#30E610F8FDDD3F02
(1675525645.586252) vcan0 070#000009F83FE20F00
(1675525645.586332) vcan0 075#0000000000005458
(1675525645.590010) vcan0 080#2C508000C2002C00
(1675525645.590016) vcan0 0B0#52830FA3DBC152A3
(1675525645.590020) vcan0 145#F992D680FC4810A1
(1675525645.590024) vcan0 290#0000000000000000
(1675525645.590029) vcan0 008#36804C7B0E800080
(1675525645.590032) vcan0 2C0#528700000000A0F1
(1675525645.590037) vcan0 2C5#1FDF82E031E60070
(1675525645.590041) vcan0 3C8#5287008E882C008E
(1675525645.590045) vcan0 010#008800002FB031F8
(1675525645.590114) vcan0 330#C500000000000000
(1675525645.590194) vcan0 400#000300030301001C
(1675525645.592571) vcan0 0F5#B0A0BBA07F4FC268
(1675525645.594996) vcan0 120#D9A0E5A07F095689
(1675525645.595009) vcan0 130#9FFF1DC820DBF111
(1675525645.595013) vcan0 150#B5200B3800F8EEC0
(1675525645.595018) vcan0 288#2BE040BF00000080
(1675525645.597638) vcan0 008#36805C7900800080
(1675525645.600022) vcan0 581#FFFFFFFFFFFF0081
(1675525645.600027) vcan0 010#008800002FB031F9
(1675525645.600101) vcan0 072#F000FF3F00788038
(1675525645.600245) vcan0 0E0#62730EE800802D00
(1675525645.600318) vcan0 1D0#0000000000000261
(1675525645.602573) vcan0 1B0#00C0000003B000FC
(1675525645.605007) vcan0 1B5#FFFA477E52E0FFEF
(1675525645.605012) vcan0 1D8#363339343234E043
(1675525645.605016) vcan0 1E0#0030330300B917E0
(1675525645.605020) vcan0 210#7CE080A0A869D84D
(1675525645.605024) vcan0 125#E50880E4C1D0D735
(1675525645.610185) vcan0 055#F5F71028B2A09C80
(1675525645.610202) vcan0 065#32E610F8FFDD3F02
(1675525645.610206) vcan0 070#000009F83FE20F00
(1675525645.610211) vcan0 075#0000000000005458
(1675525645.610215) vcan0 080#2C508000C2002C00
(1675525645.610219) vcan0 0B0#52830FA3DBC152A3
(1675525645.610224) vcan0 145#F982D780FC4810A1
(1675525645.610228) vcan0 28C#000000000016FEA8
(1675525645.610231) vcan0 008#36806C6900800080
(1675525645.610234) vcan0 2B5#4BAE446293A67E59
(1675525645.610239) vcan0 010#008800002FB031F8
(1675525645.610243) vcan0 291#0000000000000000
(1675525645.610306) vcan0 2A9#8C260082C0000084
(1675525645.611585) vcan0 260#D0FF0055497487B0
(1675525645.615452) vcan0 0F5#B7A0ACA07F53B26B
(1675525645.615457) vcan0 120#0DA1F7A07F065689
(1675525645.615461) vcan0 130#A7FF1DC820CBEC11
(1675525645.615472) vcan0 150#B1200C4800F8E2C0
(1675525645.615475) vcan0 072#F000FF3F0078A038
(1675525645.615480) vcan0 360#538700B4B964A041
(1675525645.615484) vcan0 290#0000000000000000
(1675525645.620446) vcan0 008#36807C5900800080
(1675525645.620451) vcan0 288#26E040BF00000080
(1675525645.620455) vcan0 010#008800002FB031F8
(1675525645.620460) vcan0 1D0#0000000000000061
(1675525645.620464) vcan0 0E0#62730DF000800E00
(1675525645.620535) vcan0 390#80FF051D021E584F
(1675525645.622900) vcan0 1B0#00C0000002B000FC
(1675525645.626908) vcan0 1B5#FF0F5C885CE0FFEF
(1675525645.626913) vcan0 1D8#363339343234E043
(1675525645.626917) vcan0 1E0#0034234300B917E0
(1675525645.626922) vcan0 2C3#528700FFFF085450
(1675525645.626926) vcan0 125#E50880E4C1D0D735
(1675525645.626932) vcan0 055#F5F71028B29E9C80
(1675525645.626937) vcan0 065#2FE610F800DE3F02
(1675525645.626941) vcan0 070#000009F83EE20F00
(1675525645.626944) vcan0 075#0000000000005458
(1675525645.627020) vcan0 080#2B508000C2002C00
(1675525645.627101) vcan0 0B0#52830FA3DCC152A3
(1675525645.627178) vcan0 145#F972D880FC4810A1
(1675525645.627257) vcan0 008#36808C4900800080
(1675525645.629437) vcan0 010#008800002FB031F8
(1675525645.630865) vcan0 072#F000FF3F00788038
(1675525645.630944) vcan0 210#7CE080A0A869D84D
(1675525645.631023) vcan0 3D0#8C0F6100C50580C3
(1675525645.634479) vcan0 0F5#A1A0B0A07F57A26E
(1675525645.634484) vcan0 120#E8A0F4A07F025689
(1675525645.634488) vcan0 130#AFFF1DC820BBE611
(1675525645.634638) vcan0 150#A8200B58FFF7DBC0
(1675525645.636966) vcan0 008#36809C3900800080
(1675525645.639387) vcan0 010#008800002FB031F8
(1675525645.640866) vcan0 0E0#627308F80080F300
(1675525645.640942) vcan0 1D0#0000000000000061
(1675525645.641015) vcan0 291#0000000000000000
(1675525645.641090) vcan0 260#D0FF0055497487B0
(1675525645.646116) vcan0 1B0#00C0000003B000FC
(1675525645.646121) vcan0 1B5#FF25729367E0FFEF
(1675525645.646125) vcan0 1D8#363339343234E043
(1675525645.646130) vcan0 072#F000FF3F0078A038
(1675525645.646134) vcan0 1E0#0038134300B917E0
(1675525645.646138) vcan0 288#1AE050AF00000080
(1675525645.646142) vcan0 125#E50880E4C1D0D735
(1675525645.646146) vcan0 055#F5F71028B29E9C80
(1675525645.646217) vcan0 065#30E610F8FFDD3E02
(1675525645.646298) vcan0 070#000009F83EE20F00
(1675525645.649005) vcan0 075#0000000000005458
(1675525645.649085) vcan0 080#2B508000C2002C00
(1675525645.649163) vcan0 0B0#52830FA3DBC152A3
(1675525645.649243) vcan0 145#F962D980FC4810A1
(1675525645.649320) vcan0 28C#000000000016FEA8
(1675525645.649470) vcan0 008#3680AC2900800080
(1675525645.649548) vcan0 290#0000000000000000
(1675525645.649626) vcan0 2B5#4BAE446293A67E59
(1675525645.649704) vcan0 2C0#528700000000A0F1
(1675525645.649782) vcan0 2C5#1FDF82E030E60070
(1675525645.649861) vcan0 340#9900000000000000
(1675525645.650011) vcan0 350#A200000000000080
(1675525645.650102) vcan0 370#0721C000681BC71F
(1675525645.650407) vcan0 3AF#0000000000000020
(1675525645.650501) vcan0 3E0#000000D930808092
(1675525645.650580) vcan0 010#008800002FB031F8
(1675525645.650667) vcan0 2A9#8C26009BC0000084
(1675525645.654136) vcan0 0F5#ACA0B9A07F5B9270
(1675525645.654218) vcan0 120#E8A0EEA07F065689
(1675525645.654296) vcan0 130#B7FF1DC820ABE911
(1675525645.654374) vcan0 150#B2200768FFF7C1C0
(1675525645.655576) vcan0 210#7CE080A0A869D845
(1675525645.657033) vcan0 008#3680BC1900800080
(1675525645.660744) vcan0 010#008800002FB031F8
(1675525645.660749) vcan0 072#F000FF3F00788038
(1675525645.660753) vcan0 0E0#62730AC00080D100
(1675525645.660828) vcan0 1D0#0000000000000861
(1675525645.663478) vcan0 1B0#00C0000002B000FC
(1675525645.667312) vcan0 1B5#FF3A879D72E0FFEF
(1675525645.667317) vcan0 1D8#363339343234E043
(1675525645.667321) vcan0 1E0#0038130300B917E0
(1675525645.667325) vcan0 2C3#528700FFFF095450
(1675525645.667338) vcan0 125#E50880E4C1D0D735
(1675525645.667342) vcan0 055#F5F71028B29E9C80
(1675525645.667346) vcan0 065#30E610F800DE3E02
(1675525645.667350) vcan0 070#000009F83EE20F00
(1675525645.667355) vcan0 075#0000000000005458
(1675525645.667359) vcan0 080#2B508000C2002C00
(1675525645.667363) vcan0 0B0#52830FA3DBC152A3
(1675525645.667367) vcan0 145#F952DA80FC4810A1
(1675525645.667438) vcan0 008#3680CC0900800080
(1675525645.669853) vcan0 288#26E050AF00000080
(1675525645.671144) vcan0 010#008800002FB031F8
(1675525645.671236) vcan0 291#0000000000000000
(1675525645.671388) vcan0 330#C500000000000000
(1675525645.671467) vcan0 260#D0FF0055497487B0
(1675525645.674910) vcan0 0F5#ADA0B6A07F5F8273
(1675525645.674915) vcan0 120#F0A0E2A07F025689
(1675525645.674925) vcan0 130#BFFF1DC8209BEF11
(1675525645.674930) vcan0 150#B1200C78FFF7B2C0
(1675525645.674933) vcan0 072#F000FF3F0078A038
(1675525645.676355) vcan0 290#0000000000000000
(1675525645.680065) vcan0 008#3680DCF900800080
(1675525645.680069) vcan0 010#008800002FB031F9
(1675525645.680144) vcan0 1D0#0000000000000261
(1675525645.680219) vcan0 0E0#62730DC80080AE00
(1675525645.680292) vcan0 210#7CE080A0A869D84D
(1675525645.682614) vcan0 1B0#00C0000002B000FC
(1675525645.685066) vcan0 1B5#FF4F9CA87CE0FFEF
(1675525645.685070) vcan0 1D8#363339343234E043
(1675525645.685075) vcan0 1E0#003C034300B917E0
(1675525645.685184) vcan0 125#E50880E4C1D0D735
(1675525645.687674) vcan0 055#F5F71028B29E9C80
(1675525645.687680) vcan0 065#32E610F802DE3E02
(1675525645.687691) vcan0 070#000009F83DE20F00
(1675525645.687695) vcan0 075#0000000000005458
(1675525645.687699) vcan0 080#2B508000C2002C00
(1675525645.687704) vcan0 0B0#52830FA3DBC152A3
(1675525645.687707) vcan0 145#F942DB80FC4810A1
(1675525645.687712) vcan0 28C#000000000016FEA8
(1675525645.687785) vcan0 008#3680ECE900800080
(1675525645.687865) vcan0 2B5#4BAF446293A67D58
(1675525645.690219) vcan0 010#008800002FB031F8
(1675525645.690299) vcan0 072#F000FF3F00788038
(1675525645.690451) vcan0 2A9#8C260082C0000084
(1675525645.695122) vcan0 0F5#BCA0B9A07F637276
(1675525645.695145) vcan0 120#09A1E5A07F085689
(1675525645.695149) vcan0 130#C7FF1DC8208BF411
(1675525645.695153) vcan0 150#BA200488FEF799C0
(1675525645.695157) vcan0 288#12E050AF00000080
(1675525645.695168) vcan0 3CA#00000000560000C8
(1675525645.697705) vcan0 008#3680FCD900800080
(1675525645.700159) vcan0 010#008800002FB031F8
(1675525645.700236) vcan0 0E0#62730DD000808E00
(1675525645.700310) vcan0 1D0#0000000000000061
(1675525645.700383) vcan0 291#0000000000000000
(1675525645.701655) vcan0 260#D0FF00AA497487B0
(1675525645.706863) vcan0 1B0#00C0000003B000FC
(1675525645.706868) vcan0 1B5#FF65B2B387E0FFEF
(1675525645.706872) vcan0 1D8#363339343234E043
(1675525645.706876) vcan0 1E0#0000F34300B917E0
(1675525645.706881) vcan0 2C3#528700FFFF095450
(1675525645.706885) vcan0 072#F000FF3F0078A038
(1675525645.706889) vcan0 210#7CE080A0A869D845
(1675525645.706893) vcan0 125#E50880E4C1D0D735
(1675525645.706897) vcan0 3B0#00D83D383CB8C400
(1675525645.706904) vcan0 055#F5F70F28B29E9C80
(1675525645.706908) vcan0 065#34E610F800DE3E02
(1675525645.706913) vcan0 070#000009F83DE20F00
(1675525645.706917) vcan0 075#0000000000005458
(1675525645.706991) vcan0 080#2B508000C2002C00
(1675525645.707072) vcan0 0B0#52830FA3DBC152A3
(1675525645.708237) vcan0 145#F932DC80FC4810A1
(1675525645.708318) vcan0 290#0000000000000000
(1675525645.708397) vcan0 008#36800CC900800080
(1675525645.708473) vcan0 2C0#528700000000A0F1
(1675525645.708551) vcan0 2C5#1EDF82E033E60070
(1675525645.709756) vcan0 3C8#5287008E882C008E
(1675525645.709834) vcan0 010#008800002FB031F8
(1675525645.709911) vcan0 405#0000000000000000
(1675525645.712355) vcan0 0F5#AAA0B3A07F676278
(1675525645.714782) vcan0 120#E2A0F4A07F095689
(1675525645.714798) vcan0 130#CFFF1DC8207BFA11
(1675525645.714878) vcan0 150#AE200498FEF795C0
(1675525645.714957) vcan0 360#538700B4B964A041
(1675525645.717364) vcan0 008#36801CB900800080
(1675525645.719864) vcan0 288#0AE050AF00000080
(1675525645.719938) vcan0 010#008800002FB031F8
(1675525645.720013) vcan0 072#F000FF3F00788038
(1675525645.721150) vcan0 0E0#62730BD800807000
(1675525645.721309) vcan0 1D0#0000000000000061
(1675525645.721384) vcan0 390#80FF051D021A594F
(1675525645.724886) vcan0 1B0#00C0000003B000FC
(1675525645.724891) vcan0 1B5#FF7AC7BD91E0FFEF
(1675525645.724895) vcan0 1D8#363339343234E043
(1675525645.724900) vcan0 1E0#0000F30300B917E0
(1675525645.724972) vcan0 125#E50880E4C1D0D735
(1675525645.726381) vcan0 055#F5F70F28B29E9C80
(1675525645.726470) vcan0 065#34E610F802DE3D02
(1675525645.726549) vcan0 070#000009F83DE20F00
(1675525645.726627) vcan0 075#0000000000005458
(1675525645.726704) vcan0 080#2B508000C2002C00
(1675525645.730130) vcan0 0B0#52830FA3DBC152A3
(1675525645.730135) vcan0 145#F922DD80FC4810A1
(1675525645.730140) vcan0 28C#000000000016FEA8
(1675525645.730144) vcan0 008#36802CA900800080
(1675525645.730148) vcan0 2B5#4BAF446293A67D58
(1675525645.730152) vcan0 340#9900000000000000
(1675525645.730156) vcan0 010#008800002FB031F8
(1675525645.730160) vcan0 210#7CE08020A869D845
(1675525645.730231) vcan0 291#0000000000000000
(1675525645.730309) vcan0 2A9#8C26009BC0000084
(1675525645.734026) vcan0 260#D0FF00AA497487B0
(1675525645.734107) vcan0 0F5#B0A0BEA07F6B527B
(1675525645.734195) vcan0 120#DEA0F0A07F035689
(1675525645.734274) vcan0 130#D7FF1DC8206BFF11
(1675525645.734353) vcan0 150#B72001A8FEF77CC0
(1675525645.734431) vcan0 072#F000FF3F0078A038
(1675525645.735466) vcan0 290#0000000000000000
(1675525645.735693) vcan0 350#A200000000000080
(1675525645.736966) vcan0 008#36803C9900800080
(1675525645.740630) vcan0 010#008800002FB031F8
(1675525645.740635) vcan0 0E0#627308E000805300
(1675525645.740639) vcan0 1D0#0000000000000861
(1675525645.743169) vcan0 1B0#00C0000001B000FC
(1675525645.747192) vcan0 1B5#FF8FDCC89CE0FFEF
(1675525645.747197) vcan0 1D8#363339343234E043
(1675525645.747201) vcan0 1E0#0004E34300B917E0
(1675525645.747205) vcan0 288#0AE0609F00000080
(1675525645.747209) vcan0 2C3#528700FFFF095450
(1675525645.747220) vcan0 125#E50880E4C1D0D735
(1675525645.747224) vcan0 055#F5F70F28B29E9C80
(1675525645.747228) vcan0 065#34E60FF800DE3D02
(1675525645.747233) vcan0 070#000009F83DE20F00
(1675525645.747237) vcan0 075#0000000000005458
(1675525645.747241) vcan0 080#2A508000C2002C00
(1675525645.747245) vcan0 0B0#52830FA3DBC152A3
(1675525645.747317) vcan0 145#F912DE80FC4810A1
(1675525645.747397) vcan0 370#0721C000681BC71F
(1675525645.747548) vcan0 008#36804C8900800080
(1675525645.749727) vcan0 010#008800002FB031F8
(1675525645.751091) vcan0 072#F000FF3F00788038
(1675525645.751185) vcan0 330#C500000000000000
(1675525645.754785) vcan0 0F5#ACA0B3A07F6F427E
(1675525645.754790) vcan0 120#E5A0DEA07F075689
(1675525645.754794) vcan0 130#DFFF1DC8205BFF11
(1675525645.754881) vcan0 150#AF2001B8FDF774C0
(1675525645.754959) vcan0 210#7CE080A0A869D84D
(1675525645.757340) vcan0 008#36805C7900800080
(1675525645.759826) vcan0 010#008800002FB031F9
(1675525645.759903) vcan0 0E0#627300E800803B00
(1675525645.761241) vcan0 1D0#0000000000000261
(1675525645.761318) vcan0 291#0000000000000000
(1675525645.761460) vcan0 260#D0FF00AA497487B0
(1675525645.766457) vcan0 1B0#00C0000002B000FC
(1675525645.766464) vcan0 1B5#FFA5F1D2A6E0FFEF
(1675525645.766468) vcan0 1D8#363339343234E043
(1675525645.766472) vcan0 1E0#0008D34300B917E0
(1675525645.766477) vcan0 072#F000FF3F0078A038
(1675525645.766480) vcan0 125#E50880E4C1D0D735
(1675525645.766485) vcan0 055#F5F70F28B29E9C80
(1675525645.766488) vcan0 065#32E60FF800DE3D02
(1675525645.766493) vcan0 070#000009F83DE20F00
(1675525645.766497) vcan0 075#0000000000005458
(1675525645.766649) vcan0 080#2B508000C2002C00
(1675525645.770424) vcan0 0B0#52830FA3DBC152A3
(1675525645.770430) vcan0 145#F902DF80FC4810A1
(1675525645.770434) vcan0 28C#000000000016FEA8
(1675525645.770439) vcan0 008#36806C6900800080
(1675525645.770443) vcan0 290#0000000000000000
(1675525645.770447) vcan0 2B5#4BAF446293A67D58
(1675525645.770451) vcan0 2C0#528700000000A0F1
(1675525645.770455) vcan0 2C5#1EDF82E034E60070
(1675525645.770460) vcan0 3AF#0000000000000020
(1675525645.770463) vcan0 288#1AE0609F00000080
(1675525645.770468) vcan0 010#008800002FB031F8
(1675525645.770534) vcan0 2A9#8C260082C0000084
(1675525645.772870) vcan0 0F5#BBA0B0A07F733280
(1675525645.774331) vcan0 120#F4A0DCA07F025689
(1675525645.774411) vcan0 130#E7FF1DC8204BFF11
(1675525645.774489) vcan0 150#B52005C8FDF75EC0
(1675525645.776988) vcan0 008#36807C5900800080
(1675525645.779394) vcan0 010#008800002FB031F8
(1675525645.779472) vcan0 072#F000FF3F00788038
(1675525645.780787) vcan0 0E0#E27306F000801500
(1675525645.780875) vcan0 1D0#0000000000000061
(1675525645.781018) vcan0 210#7CE080A0A869D845
(1675525645.784504) vcan0 1B0#00C0000002B000FC
(1675525645.784509) vcan0 1B5#FFBA07DDB1E0FFEF
(1675525645.784513) vcan0 1D8#363339343234E043
(1675525645.784588) vcan0 1E0#0008D30300B917E0
(1675525645.784663) vcan0 2C3#528700FFFF0A5450
(1675525645.785968) vcan0 125#E50680E4C1D0D735
(1675525645.786059) vcan0 055#F5F70F28B29E9C80
(1675525645.786148) vcan0 065#32E60FF8FEDD3D02
(1675525645.786300) vcan0 070#000009F83DE20F00
(1675525645.786380) vcan0 075#0000000000005458
(1675525645.788497) vcan0 080#2B508000C2002C00
(1675525645.788501) vcan0 0B0#52830FA3DBC152A3
(1675525645.788506) vcan0 145#F9F2D080FC4810A1
(1675525645.788510) vcan0 008#36808C4900800080
(1675525645.788586) vcan0 010#008800002FB031F8
(1675525645.791004) vcan0 291#0000000000000000
(1675525645.791009) vcan0 425#0000000000000000
(1675525645.791088) vcan0 260#D0FF00AA497487B0
(1675525645.793566) vcan0 0F5#AAA0ADA07F772283
(1675525645.797523) vcan0 120#F4A0E8A07F005689
(1675525645.797528) vcan0 130#EFFF1DC8203BFF11
(1675525645.797532) vcan0 150#AB2007D8FDF758C0
(1675525645.797537) vcan0 072#F000FF3F0078A038
(1675525645.797545) vcan0 288#12E0609F00000080
(1675525645.797549) vcan0 290#0000000000000000
(1675525645.797553) vcan0 008#36809C3900800080
(1675525645.800015) vcan0 010#008800002FB031F8
(1675525645.800091) vcan0 0E0#E27311F80080EA00
(1675525645.800234) vcan0 1D0#0000000000000061
(1675525645.802677) vcan0 1B0#00C0000002B000FC
(1675525645.805010) vcan0 1B5#FFCF1CE8BCE0FFEF
(1675525645.805014) vcan0 1D8#363339343234E043
(1675525645.805019) vcan0 1E0#000CC34300B917E0
(1675525645.805023) vcan0 210#7CE080A0A869D84D
(1675525645.805027) vcan0 125#E50680E4C1D0D735
(1675525645.810192) vcan0 055#F5F70F28B29E9C80
(1675525645.810197) vcan0 065#32E60FF800DE3D02
(1675525645.810202) vcan0 070#000009F83DE20F00
(1675525645.810206) vcan0 075#0000000000005458
(1675525645.810215) vcan0 080#2A508000C2002C00
(1675525645.810218) vcan0 0B0#52830FA3DBC152A3
(1675525645.810223) vcan0 145#F9E2D180FC4810A1
(1675525645.810227) vcan0 28C#000000000016FEA8
(1675525645.810231) vcan0 008#3880AC190E800080
(1675525645.810236) vcan0 2B5#4BAF446293A67D58
(1675525645.810239) vcan0 340#9900000000000000
(1675525645.810243) vcan0 010#008800002FB031F8
(1675525645.810248) vcan0 072#F000FF3F00788038
(1675525645.810317) vcan0 2A9#8C26008AC0000084
(1675525645.812656) vcan0 0F5#AAA0B9A07F7B1286
(1675525645.815162) vcan0 120#D3A0DEA07F025689
(1675525645.815167) vcan0 130#F7FF1DC8202BFF11
(1675525645.815171) vcan0 150#B12004E8FCF742C0
(1675525645.815175) vcan0 3CA#00000000400000C8
(1675525645.815248) vcan0 360#538700B4B964A041
(1675525645.817648) vcan0 008#3880BC090E800080
(1675525645.820159) vcan0 288#12E0609F00000080
(1675525645.820237) vcan0 010#008800002FB031F8
(1675525645.820311) vcan0 0E0#E27312C00080C900
(1675525645.820385) vcan0 1D0#0000000000000861
(1675525645.820458) vcan0 291#0000000000000000
(1675525645.821661) vcan0 390#80FF051D021A594F
(1675525645.821737) vcan0 260#D0FF0055497487B0
(1675525645.825465) vcan0 1B0#00C0000002B000FC
(1675525645.825470) vcan0 1B5#FFE431F2C6E0FFEF
(1675525645.825474) vcan0 1D8#363339343234E043
(1675525645.825478) vcan0 1E0#0010B34300B917E0
(1675525645.825483) vcan0 072#F000FF3F0078A038
(1675525645.825487) vcan0 2C3#528700FFFF0A5450
(1675525645.825491) vcan0 3B0#00FC41383CB8C400
(1675525645.825495) vcan0 125#E50380E4C1D0D735
(1675525645.825499) vcan0 055#F5F70F28B29C9C80
(1675525645.825578) vcan0 065#30E60FF8FEDD3D02
(1675525645.828254) vcan0 070#000009F83DE20F00
(1675525645.828333) vcan0 075#0000000000005458
(1675525645.828412) vcan0 080#2A508000C2002C00
(1675525645.828491) vcan0 0B0#52830FA3DBC152A3
(1675525645.828568) vcan0 145#F9D2D280FC4810A1
(1675525645.828647) vcan0 290#0000000000000000
(1675525645.828724) vcan0 008#3B80CCE81C800080
(1675525645.828804) vcan0 2C0#528700000000A0F1
(1675525645.828956) vcan0 2C5#1EDF82E031E60070
(1675525645.829034) vcan0 350#A200000000000080
(1675525645.830772) vcan0 3C8#5287008E882C008E
(1675525645.830778) vcan0 010#008800002FB031F8
(1675525645.830782) vcan0 210#7CE080A0A869D84D
(1675525645.830786) vcan0 330#C500000000000000
(1675525645.830794) vcan0 3D0#8C0F6100C50580C3
(1675525645.833346) vcan0 0F5#9BA0B0A07F7F0288
(1675525645.834708) vcan0 120#F1A0DFA07F075689
(1675525645.834789) vcan0 130#FFFF1DC8201BFF11
(1675525645.834869) vcan0 150#A52004F8FCF73EC0
(1675525645.834945) vcan0 430#3F083F00000016A6
(1675525645.837417) vcan0 008#3B80DCD81C800080
(1675525645.839829) vcan0 010#008800002FB031F9
(1675525645.839905) vcan0 072#F000FF3F00788038
(1675525645.840048) vcan0 0E0#E27311C80080AA00
(1675525645.841242) vcan0 1D0#0000000000000261
(1675525645.841319) vcan0 400#010300010100011D
(1675525645.845063) vcan0 1B0#00C0000003B000FC
(1675525645.845067) vcan0 1B5#FFFA47FDD1E0FFEF
(1675525645.845071) vcan0 1D8#363339343234E043
(1675525645.845075) vcan0 1E0#0010B30300B917E0
(1675525645.845090) vcan0 288#1AE0708F00000080
(1675525645.845095) vcan0 125#E50180E4C1D0D735
(1675525645.847786) vcan0 055#F5F70F28B29A9C80
(1675525645.847881) vcan0 065#2FE60FF8FFDD3D02
(1675525645.848033) vcan0 070#000009F83CE20F00
(1675525645.848113) vcan0 075#0000000000005458
(1675525645.848190) vcan0 080#2A508000C2002C00
(1675525645.848268) vcan0 0B0#52830FA3DCC152A3
(1675525645.848346) vcan0 145#F9C2D380FC4810A1
(1675525645.848423) vcan0 008#3B80ECC81C800080
(1675525645.848575) vcan0 28C#000000000016FEA8
(1675525645.848653) vcan0 2B5#4BAF446293A67D57
(1675525645.851577) vcan0 370#0721C000681BC71F
(1675525645.851582) vcan0 010#008800002FB031F8
(1675525645.851586) vcan0 291#0000000000000000
(1675525645.851590) vcan0 2A9#8C260093C0000084
(1675525645.851616) vcan0 260#D0FF0055497487B0
(1675525645.854035) vcan0 0F5#ADA0B7A07F43F28B
(1675525645.856984) vcan0 120#FAA0D9A07F125689
(1675525645.857060) vcan0 130#87FF1DC8200BFF11
(1675525645.857136) vcan0 150#B2200508FCF721C0
(1675525645.857209) vcan0 072#F000FF3F0078A038
(1675525645.857283) vcan0 210#7CE080A0A869D845
(1675525645.857426) vcan0 290#0000000000000000
(1675525645.857501) vcan0 008#3D80FCA032800080
(1675525645.859583) vcan0 010#008800002FB031F8
(1675525645.859659) vcan0 0E0#E2730BD000809000
(1675525645.859802) vcan0 1D0#0000000000000061
(1675525645.862073) vcan0 1B0#00C0000005B000FC
(1675525645.864516) vcan0 1B5#FF0F5C07DBE0FFEF
(1675525645.864522) vcan0 1D8#363339343234E043
(1675525645.864597) vcan0 1E0#0014A34300B917E0
(1675525645.864682) vcan0 2C3#528700FFFF0B5450
(1675525645.868546) vcan0 125#E50180E4C1D0D735
(1675525645.868550) vcan0 055#F5F70F28B2989C80
(1675525645.868554) vcan0 065#31E60FF800DE3C02
(1675525645.868558) vcan0 070#000009F83BE20F00
(1675525645.868562) vcan0 075#0000000000005458
(1675525645.868566) vcan0 080#29508000C2002C00
(1675525645.868570) vcan0 0B0#52830FA3DCC152A3
(1675525645.868574) vcan0 145#F9B2D480FC4810A1
(1675525645.868578) vcan0 008#3D800C9032800080
(1675525645.868581) vcan0 288#06E0708F00000080
(1675525645.869995) vcan0 010#008800002FB031F8
(1675525645.870073) vcan0 072#F000FF3F00788038
(1675525645.873616) vcan0 0F5#B6A0C1A07F47E28E
(1675525645.873620) vcan0 120#E9A0F1A07F085689
(1675525645.875025) vcan0 130#8FFF1DC820FBFF11
(1675525645.875158) vcan0 150#BC200318FBF707C0
(1675525645.877733) vcan0 008#3D801C8032800080
(1675525645.880139) vcan0 010#008800002FB031F8
(1675525645.880215) vcan0 1D0#0000000000000061
(1675525645.880291) vcan0 0E0#E27310D800806B00
(1675525645.880366) vcan0 210#7CE08020A869D84D
(1675525645.880508) vcan0 291#0000000000000000
(1675525645.881649) vcan0 260#D0FF0055497487B0
(1675525645.886860) vcan0 1B0#00C0000004B000FC
(1675525645.886865) vcan0 1B5#FF247112E6E0FFEF
(1675525645.886870) vcan0 1D8#363339343234E043
(1675525645.886874) vcan0 1E0#0018934300B917E0
(1675525645.886878) vcan0 072#F000FF3F0078A038
(1675525645.886882) vcan0 125#E5FE7FE4C1D0D735
(1675525645.886886) vcan0 055#F5F70F28B2989C80
(1675525645.886890) vcan0 065#33E60FF802DE3B02
(1675525645.886894) vcan0 070#000009F83AE20F00
(1675525645.886898) vcan0 075#0000000000005458
(1675525645.886902) vcan0 080#28508000C2002C00
(1675525645.886978) vcan0 0B0#52830FA3DCC152A3
(1675525645.888284) vcan0 145#F9A2D580FC4810A1
(1675525645.888380) vcan0 28C#000000000016FEA8
(1675525645.888531) vcan0 008#3F802C6040800080
(1675525645.888610) vcan0 290#0000000000000000
(1675525645.888688) vcan0 2B5#4BAF446293A67D56
(1675525645.888767) vcan0 2C0#528700000000A0F1
(1675525645.888845) vcan0 2C5#1EDF82E130E60070
(1675525645.888923) vcan0 340#9900000000000000
(1675525645.889864) vcan0 3AF#0000000000000020
(1675525645.889943) vcan0 010#008800002FB031F8
(1675525645.890021) vcan0 2A9#8C26008AC0000084
(1675525645.892464) vcan0 0F5#ACA0BFA07F4BD290
(1675525645.894867) vcan0 120#D9A0DEA07F045689
(1675525645.894872) vcan0 130#97FF1DC820EBFF11
(1675525645.894877) vcan0 150#B520FF27FBF7FEC0
(1675525645.894881) vcan0 288#02E0708F00000080
(1675525645.896140) vcan0 008#41803C3F4F800080
(1675525645.900089) vcan0 010#008800002FB031F8
(1675525645.900164) vcan0 072#F000FF3F00788038
(1675525645.900308) vcan0 0E0#E2731AE000804100
(1675525645.900384) vcan0 1D0#0000000000000861
(1675525645.902658) vcan0 1B0#00C0000002B000FC
(1675525645.905180) vcan0 1B5#FF3A861CF1E0FFEF
(1675525645.905187) vcan0 1D8#363339343234E043
(1675525645.905191) vcan0 1E0#0018930300B917E0
(1675525645.905195) vcan0 2C3#528700FFFF0B5450
(1675525645.905198) vcan0 210#7CE080A0A869D845
(1675525645.905202) vcan0 125#E5FE7FE4C1D0D735
(1675525645.905291) vcan0 055#F5F70F28B2989C80
(1675525645.911698) vcan0 065#33E60FF802DE3A02
(1675525645.911704) vcan0 070#000009F83AE20F00
(1675525645.911708) vcan0 075#0000000000005458
(1675525645.911712) vcan0 080#28508000C2002C00
(1675525645.911716) vcan0 0B0#52830FA3DCC152A3
(1675525645.911719) vcan0 145#F992D680FC4810A1
(1675525645.911723) vcan0 008#44804C3B40800080
(1675525645.911727) vcan0 010#008800002FB031F8
(1675525645.911731) vcan0 291#0000000000000000
(1675525645.911735) vcan0 330#C500000000000000
(1675525645.911806) vcan0 260#D0FF00AA497487B0
(1675525645.913107) vcan0 0F5#B7A0B6A07F4FC293
(1675525645.916912) vcan0 120#EEA0D9A07FFF5589
(1675525645.916917) vcan0 130#9FFF1DC820DBFF11
(1675525645.916920) vcan0 150#B620FF37FBF7EDC0
(1675525645.916946) vcan0 072#F000FF3F0078A038
(1675525645.916949) vcan0 360#538700B4B964A041
(1675525645.916953) vcan0 290#0000000000000000
(1675525645.916956) vcan0 350#A200000000000080
(1675525645.916959) vcan0 008#44805C1C4F800080
(1675525645.920794) vcan0 288#0EE0708F00000080
(1675525645.920798) vcan0 010#008800002FB031F9
(1675525645.920802) vcan0 0E0#E2731FE800801C00
(1675525645.920806) vcan0 1D0#0000000000000261
(1675525645.920810) vcan0 390#80FF051D02125B4F
(1675525645.923261) vcan0 1B0#00C0000001B000FC
(1675525645.927288) vcan0 1B5#FF4F9C27FBE0FFEF
(1675525645.927293) vcan0 1D8#363339343234E043
(1675525645.927297) vcan0 1E0#001C834300B917E0
(1675525645.927301) vcan0 125#E5FB7FE4C1D0D735
(1675525645.927304) vcan0 055#F5F70F28B2989C80
(1675525645.927315) vcan0 065#30E60FF8FFDD3A02
(1675525645.927319) vcan0 070#000009F83AE20F00
(1675525645.927322) vcan0 075#0000000000005458
(1675525645.927326) vcan0 080#28508000C2002C00
(1675525645.927330) vcan0 0B0#52830FA3DCC152A3
(1675525645.927405) vcan0 145#F982D780FC4810A1
(1675525645.927484) vcan0 008#46806C0356800080
(1675525645.927561) vcan0 28C#000000000016FEA8
(1675525645.929752) vcan0 2B5#4BB0446293A67D55
(1675525645.929758) vcan0 010#008800002FB031F8
(1675525645.929911) vcan0 072#F000FF3F00788038
(1675525645.931204) vcan0 210#7CE080A0A869D845
(1675525645.931283) vcan0 2A9#8C260093C0000084
(1675525645.934894) vcan0 0F5#B7A0C4A07F53B296
(1675525645.934899) vcan0 120#06A1E2A07F085689
(1675525645.934902) vcan0 130#A7FF1DC820CBFF11
(1675525645.934914) vcan0 150#BE200348FAF7D5C0
(1675525645.934992) vcan0 3CA#00000000510000C8
(1675525645.937477) vcan0 008#48807CE364800080
(1675525645.939883) vcan0 010#008800002FB031F8
(1675525645.940031) vcan0 0E0#E27311F000800A00
(1675525645.940104) vcan0 1D0#0000000000000061
(1675525645.941367) vcan0 291#0000000000000000
(1675525645.941442) vcan0 260#D0FF00AA497487B0
(1675525645.946634) vcan0 1B0#00C0000002B000FC
(1675525645.946639) vcan0 1B5#FF64B13106E0FFEF
(1675525645.946642) vcan0 1D8#363339343234E043
(1675525645.946647) vcan0 1E0#0020734300B917E0
(1675525645.946651) vcan0 2C3#528700FFFF0C5450
(1675525645.946654) vcan0 072#F000FF3F0078A038
(1675525645.946658) vcan0 288#0EE0807F00000080
(1675525645.946662) vcan0 125#E5F57FE4C1D0D735
(1675525645.946669) vcan0 3B0#00D841383CB8C600
(1675525645.946673) vcan0 055#F5F70E28B2989C80
(1675525645.946677) vcan0 065#33E60FF800DE3A02
(1675525645.946681) vcan0 070#000009F839E20F00
(1675525645.946685) vcan0 075#0000000000005458
(1675525645.946761) vcan0 080#28508000C2002C00
(1675525645.946915) vcan0 0B0#52830FA3DCC152A3
(1675525645.949488) vcan0 145#F972D880FC4810A1
(1675525645.949568) vcan0 008#48808CD364800080
(1675525645.949719) vcan0 290#0000000000000000
(1675525645.949798) vcan0 2C0#528700000000A0F1
(1675525645.949874) vcan0 2C5#1DDF82E133E60070
(1675525645.949952) vcan0 370#0721C000681BC71F
(1675525645.950030) vcan0 3E0#000000D930808092
(1675525645.950108) vcan0 3C8#5287008E882C008E
(1675525645.950260) vcan0 010#008800002FB031F8
(1675525645.952159) vcan0 0F5#C4A0C4A07F57A298
(1675525645.954593) vcan0 120#00A1CFA07FFF5589
(1675525645.954598) vcan0 130#AFFF1DC820BBFF11
(1675525645.954676) vcan0 150#C420FF57FAF7BFC0
(1675525645.957030) vcan0 210#7CE080A0A869D84D
(1675525645.957036) vcan0 008#48809CD84F800080
(1675525645.959573) vcan0 0E0#E27306F80080F500
(1675525645.962019) vcan0 010#008800002FB031F8
(1675525645.962024) vcan0 072#F000FF3F00788038
(1675525645.962027) vcan0 1D0#0000000000000061
(1675525645.962170) vcan0 405#3156590000000010
(1675525645.964508) vcan0 1B0#00C0000005B000FC
(1675525645.964512) vcan0 1B5#FF7AC63C10E0FFEF
(1675525645.964516) vcan0 1D8#363339343234E043
(1675525645.964591) vcan0 1E0#0020730300B917E0
(1675525645.968545) vcan0 125#E5F27FE4C1D0D735
(1675525645.968563) vcan0 055#F5F70E28B2989C80
(1675525645.968567) vcan0 065#34E60EF801DE3902
(1675525645.968570) vcan0 070#000009F839E20F00
(1675525645.968575) vcan0 075#0000000000005458
(1675525645.968579) vcan0 080#28508000C2002C00
(1675525645.968581) vcan0 0B0#52830FA3DCC152A3
(1675525645.968586) vcan0 145#F962D980FC4810A1
(1675525645.968589) vcan0 28C#000000000016FEA8
(1675525645.968592) vcan0 008#4880ACC84F800080
(1675525645.968597) vcan0 2B5#4BB0446293A67D54
(1675525645.968600) vcan0 340#9900000000000000
(1675525645.968604) vcan0 288#02E0807F00000080
(1675525645.971079) vcan0 260#D0FF00AA497487B0
(1675525645.973529) vcan0 010#008800002FB031F8
(1675525645.973533) vcan0 291#0000000000000000
(1675525645.973537) vcan0 2A9#8C26008AC0000084
(1675525645.973547) vcan0 0F5#B6A0C8A07F5B929B
(1675525645.973626) vcan0 120#C1A0DEA07F0D5689
(1675525645.976048) vcan0 130#B7FF1DC820ABFF11
(1675525645.976053) vcan0 150#BF200468F9F7B4C0
(1675525645.976057) vcan0 290#0000000000000000
(1675525645.976131) vcan0 072#F000FF3F0078A038
(1675525645.977395) vcan0 008#4880BCB84F800080
(1675525645.981120) vcan0 0E0#E27301C00080DA00
(1675525645.981131) vcan0 010#008800002FB031F8
(1675525645.981200) vcan0 1D0#0000000000000861
(1675525645.981275) vcan0 210#7CE080A0A869D845
(1675525645.983708) vcan0 1B0#00C0000002B000FC
(1675525645.987670) vcan0 1B5#FF8FDB471BE0FFEF
(1675525645.987674) vcan0 1D8#363339343234E043
(1675525645.987679) vcan0 1E0#0024634300B917E0
(1675525645.987683) vcan0 2C3#528700FFFF0C5450
(1675525645.987691) vcan0 125#E5F27FE4C1D0D735
(1675525645.987695) vcan0 055#F5F70E28B2989C80
(1675525645.987699) vcan0 065#33E60EF800DE3902
(1675525645.987703) vcan0 070#000009F839E20F00
(1675525645.987707) vcan0 075#0000000000005458
(1675525645.987711) vcan0 080#28508000C2002C00
(1675525645.987715) vcan0 0B0#52830FA3DCC152A3
(1675525645.987718) vcan0 145#F952DA80FC4810A1
(1675525645.987723) vcan0 008#4880CCB740800080
(1675525645.990199) vcan0 010#008800002FB031F8
(1675525645.990279) vcan0 072#F000FF3F00788038
(1675525645.990358) vcan0 330#C500000000000000
(1675525645.992705) vcan0 0F5#BFA0B7A07F5F829E
(1675525645.994129) vcan0 120#DCA0D9A07FFF5589
(1675525645.994209) vcan0 130#BFFF1DC8209BFF11
(1675525645.994288) vcan0 150#BB20FF77F8F7A8C0
(1675525645.994380) vcan0 288#06E0807F00000080
(1675525645.996688) vcan0 008#4880DCB532800080
(1675525645.999132) vcan0 010#008800002FB031F9
(1675525646.001655) vcan0 0E0#627305C80080B600
(1675525646.001661) vcan0 1D0#0000000000000261
(1675525646.001665) vcan0 291#0000000000000000
(1675525646.001739) vcan0 260#D0FF0055497487B0
(1675525646.004176) vcan0 1B0#00C0000003B000FC
(1675525646.004255) vcan0 1B5#FFA4F15125E0FFEF
(1675525646.004401) vcan0 1D8#363339343234E043
(1675525646.004476) vcan0 1E0#0028534300B917E0
(1675525646.004550) vcan0 072#F000FF3F0078A038
(1675525646.006793) vcan0 210#7CE080A0A869D84D
(1675525646.006798) vcan0 125#E5F27FE4C1D0D735
(1675525646.006802) vcan0 055#F5F70E28B2989C80
(1675525646.006806) vcan0 065#32E60EF8FFDD3902
(1675525646.006824) vcan0 070#000009F839E20F00
(1675525646.006828) vcan0 075#0000000000005458
(1675525646.006906) vcan0 080#28508000C2002C00
(1675525646.006986) vcan0 0B0#52830FA3DCC152A3
(1675525646.007063) vcan0 145#F942DB80FC4810A1
(1675525646.009631) vcan0 008#4880ECA532800080
(1675525646.009708) vcan0 28C#000000000016FEA8
(1675525646.009787) vcan0 290#0000000000000000
(1675525646.009865) vcan0 2B5#4BB0456293A67D54
(1675525646.009945) vcan0 2C0#528700000000A0F1
(1675525646.010023) vcan0 2C5#1DDF82E134E60070
(1675525646.010173) vcan0 350#A200000000000080
(1675525646.010253) vcan0 3AF#0000000000000020
(1675525646.010330) vcan0 010#008800002FB031F8
(1675525646.010409) vcan0 2A9#8C260082C0000084
(1675525646.012157) vcan0 0F5#ACA0C1A07F6372A0
(1675525646.014645) vcan0 120#0DA1F1A07F075689
(1675525646.014651) vcan0 130#C7FF1DC8208BFF11
(1675525646.014731) vcan0 150#B7200088F8F79CC0
(1675525646.014808) vcan0 360#538700B4B964A041
(1675525646.017144) vcan0 008#4880FCA423800080
(1675525646.019733) vcan0 288#02E0807F00000080
(1675525646.019810) vcan0 010#008800002FB031F8
(1675525646.019886) vcan0 072#F000FF3F00788038
(1675525646.021088) vcan0 0E0#E27305D000809600
(1675525646.021176) vcan0 1D0#0000000000000061
(1675525646.021320) vcan0 390#80FF051D02125B4F
(1675525646.026284) vcan0 1B0#00C0000003B000FC
(1675525646.026289) vcan0 1B5#FFB9065C30E0FFEF
(1675525646.026293) vcan0 1D8#363339343234E043
(1675525646.026297) vcan0 1E0#0028530300B917E0
(1675525646.026301) vcan0 2C3#528700FFFF0D5450
(1675525646.026309) vcan0 125#E5F27FE4C1D0D735
(1675525646.026313) vcan0 055#F5F70E28B2989C80
(1675525646.026317) vcan0 065#35E60EF800DE3902
(1675525646.026391) vcan0 070#000009F839E20F00
(1675525646.026466) vcan0 075#0000000000005458
(1675525646.026540) vcan0 080#28508000C2002C00
(1675525646.027743) vcan0 0B0#52830FA3DCC152A3
(1675525646.027818) vcan0 145#F932DC80FC4810A1
(1675525646.027893) vcan0 008#48800CA90E800080
(1675525646.031339) vcan0 010#008800002FB031F8
(1675525646.031345) vcan0 210#7CE08020A869D84D
(1675525646.031348) vcan0 291#0000000000000000
(1675525646.031352) vcan0 3D0#8C0F6100C50580C3
(1675525646.031357) vcan0 260#D0FF0055497487B0
(1675525646.033819) vcan0 0F5#E5A0B9A07F6762A3
(1675525646.035218) vcan0 120#F4A0D7A07FF95589
(1675525646.035321) vcan0 130#CFFF1DD7206C0412
(1675525646.035395) vcan0 150#CE20FF97F7F775C0
(1675525646.035470) vcan0 072#F000FF3F0078A038
(1675525646.035612) vcan0 290#0000000000000000
(1675525646.036740) vcan0 008#48801CA700800080
(1675525646.040359) vcan0 010#008800002FB031F8
(1675525646.040504) vcan0 0E0#627308D800807300
(1675525646.040580) vcan0 1D0#0000000000000061
(1675525646.042910) vcan0 1B0#00C000000AB000FC
(1675525646.046914) vcan0 1B5#FFCF1B663BE0FFEF
(1675525646.046918) vcan0 1D8#363339343234E043
(1675525646.046922) vcan0 1E0#002C434300B917E0
(1675525646.046926) vcan0 288#02E0906F00000080
(1675525646.046930) vcan0 125#E5F27FE4C1D0D735
(1675525646.046933) vcan0 055#F5F70E28B2989C80
(1675525646.046937) vcan0 065#36E60EF801DE3902
(1675525646.046949) vcan0 070#000009F839E20F00
(1675525646.046953) vcan0 075#0000000000005458
(1675525646.046957) vcan0 080#28508000C2002C00
(1675525646.047099) vcan0 0B0#52830FA3DCC152A3
(1675525646.047174) vcan0 145#F922DD80FC4810A1
(1675525646.048284) vcan0 28C#000000000016FEA8
(1675525646.048374) vcan0 008#48802C9700800080
(1675525646.048519) vcan0 2B5#4BB0456293A67D54
(1675525646.048594) vcan0 340#9900000000000000
(1675525646.048667) vcan0 370#0721C000681BC71F
(1675525646.049782) vcan0 010#008800002FB031F8
(1675525646.049871) vcan0 072#F000FF3F00788038
(1675525646.050014) vcan0 2A9#8C26009BC0000084
(1675525646.052434) vcan0 0F5#BFA0C1A07F6B52A6
(1675525646.054901) vcan0 120#D3A0F0A07FFF5589
(1675525646.054905) vcan0 130#D7FF1DD7205C0A12
(1675525646.054925) vcan0 150#C020FDA7F7F773C0
(1675525646.054930) vcan0 210#7CE080A0A869D845
(1675525646.055003) vcan0 3CA#00000000520000C8
(1675525646.057374) vcan0 008#48803C8700800080
(1675525646.059953) vcan0 010#008800002FB031F8
(1675525646.060032) vcan0 0E0#62731BE000804000
(1675525646.060111) vcan0 1D0#0000000000000861
(1675525646.060190) vcan0 291#0000000000000000
(1675525646.061336) vcan0 260#D0FF0055497487B0
(1675525646.066504) vcan0 1B0#00C0000006B000FC
(1675525646.066510) vcan0 1B5#FFE4307145E0FFEF
(1675525646.066514) vcan0 1D8#363339343234E043
(1675525646.066518) vcan0 1E0#0030334300B917E0
(1675525646.066522) vcan0 2C3#528700FFFF0D5450
(1675525646.066526) vcan0 072#F000FF3F0078A038
(1675525646.066530) vcan0 3B0#00D841383CB8C400
(1675525646.066538) vcan0 125#E5F27FE4C1D0D735
(1675525646.066542) vcan0 055#F5F70E28B2989C80
(1675525646.066546) vcan0 065#36E60EF801DE3902
(1675525646.066550) vcan0 070#000009F839E20F00
(1675525646.066691) vcan0 075#0000000000005458
(1675525646.066765) vcan0 080#28508000C2002C00
(1675525646.070535) vcan0 0B0#52830FA3DCC152A3
(1675525646.070540) vcan0 145#F912DE80FC4810A1
(1675525646.070544) vcan0 008#48804C7700800080
(1675525646.070548) vcan0 290#0000000000000000
(1675525646.070552) vcan0 2C0#528700000000A0F1
(1675525646.070555) vcan0 2C5#1CDF82E137E60070
(1675525646.070558) vcan0 288#0EE0906F00000080
(1675525646.070562) vcan0 3C8#5287008E882C008E
(1675525646.070631) vcan0 010#008800002FB031F8
(1675525646.070706) vcan0 330#C500000000000000
(1675525646.073072) vcan0 0F5#BFA0B0A07F6F42A8
(1675525646.074481) vcan0 120#EDA0CDA07F0D5689
(1675525646.074556) vcan0 130#DFFF1DD6204D0712
(1675525646.074631) vcan0 150#B72000B8F7F76CC0
(1675525646.077119) vcan0 008#48805C6700800080
(1675525646.079587) vcan0 010#008800002FB031F9
(1675525646.080956) vcan0 072#F000FF3F00788038
(1675525646.081110) vcan0 0E0#627329E800801200
(1675525646.081188) vcan0 1D0#0000000000000261
(1675525646.081266) vcan0 210#7CE080A0A869D84D
(1675525646.084611) vcan0 1B0#00C0000005B000FC
(1675525646.084617) vcan0 1B5#FFF9467C50E0FFEF
(1675525646.084620) vcan0 1D8#363339343234E043
(1675525646.084699) vcan0 1E0#0030330300B917E0
(1675525646.084777) vcan0 125#E5F27FE4C1D0D735
(1675525646.086089) vcan0 055#F5F70E28B2989C80
(1675525646.086189) vcan0 065#34E60EF8FFDD3902
(1675525646.086263) vcan0 070#000009F839E20F00
(1675525646.086339) vcan0 075#0000000000005458
(1675525646.089828) vcan0 080#28508000C2002C00
(1675525646.089833) vcan0 0B0#52830FA3DCC152A3
(1675525646.089837) vcan0 145#F902DF80FC4810A1
(1675525646.089840) vcan0 008#48806C5700800080
(1675525646.089844) vcan0 28C#000000000016FEA8
(1675525646.089847) vcan0 2B5#4BB0456293A67D54
(1675525646.089851) vcan0 010#008800002FB031F8
(1675525646.089855) vcan0 291#0000000000000000
(1675525646.089925) vcan0 2A9#8C260082C0000084
(1675525646.091205) vcan0 400#0F0102010100011E
(1675525646.091282) vcan0 260#D0FF0055497487B0
(1675525646.096248) vcan0 0F5#BCA0BEA07F7332AB
(1675525646.096253) vcan0 120#FDA0E8A07F0C5689
(1675525646.096265) vcan0 130#E7FF1DD6203D0712
(1675525646.096269) vcan0 150#BD20FFC7F7F756C0
(1675525646.096273) vcan0 288#E9DF906F00000080
(1675525646.096276) vcan0 072#F000FF3F0078A038
(1675525646.096280) vcan0 290#0000000000000000
(1675525646.096284) vcan0 350#A200000000000080
(1675525646.097584) vcan0 008#48807C4700800080
(1675525646.100136) vcan0 0E0#62733EF00080DD00
(1675525646.100217) vcan0 010#008800002FB031F8
(1675525646.100295) vcan0 1D0#0000000000000061
(1675525646.102685) vcan0 1B0#00C0000004B000FC
(1675525646.105301) vcan0 1B5#FF0F5B865AE0FFEF
(1675525646.105306) vcan0 1D8#363339343234E043
(1675525646.105310) vcan0 1E0#0034234300B917E0
(1675525646.105314) vcan0 2C3#528700FFFF0E5450
(1675525646.105318) vcan0 210#7CE080A0A869D845
(1675525646.105329) vcan0 125#E5F27FE4C1D0D735
(1675525646.105404) vcan0 055#F5F70E28B2989C80
(1675525646.110304) vcan0 065#32E60EF8FFDD3902
(1675525646.110309) vcan0 070#000009F839E20F00
(1675525646.110313) vcan0 075#0000000000005458
(1675525646.110317) vcan0 080#28508000C2002C00
(1675525646.110321) vcan0 0B0#52830FA3DCC152A3
(1675525646.110324) vcan0 145#F9F2D080FC4810A1
(1675525646.110327) vcan0 008#48808C3700800080
(1675525646.110331) vcan0 010#008800002FB031F8
(1675525646.110401) vcan0 072#F000FF3F00788038
(1675525646.112757) vcan0 0F5#BCA0B7A07F7722AE
(1675525646.114151) vcan0 120#FDA0E5A07F0D5689
(1675525646.114240) vcan0 130#EFFF1DD6202D0712
(1675525646.114315) vcan0 150#B920F7D7F6F74AC0
(1675525646.114459) vcan0 360#538700B4B964A041
(1675525646.116764) vcan0 008#48809C2700800080
(1675525646.119349) vcan0 288#E1DF906F00000080
(1675525646.124367) vcan0 0E0#627345F80080B600
(1675525646.124372) vcan0 010#008800002FB031F8
(1675525646.124376) vcan0 1D0#0000000000000061
(1675525646.124380) vcan0 291#0000000000000000
(1675525646.124384) vcan0 390#80FF051D020A5D6F
(1675525646.124388) vcan0 260#D0FF00AA497487B0
(1675525646.124391) vcan0 1B0#00C0000002B000FC
(1675525646.124395) vcan0 1B5#FF24709165E0FFEF
(1675525646.124400) vcan0 1D8#363339343234E043
(1675525646.124545) vcan0 072#F000FF3F0078A038
(1675525646.124625) vcan0 1E0#0038134300B917E0
(1675525646.125868) vcan0 125#E5F57FE4C1D0D735
(1675525646.125944) vcan0 055#F5F70E28B2989C80
(1675525646.126019) vcan0 065#34E60EF800DE3902
(1675525646.126118) vcan0 070#000009F839E20F00
(1675525646.129906) vcan0 075#0000000000005458
(1675525646.129912) vcan0 080#28508000C2002C00
(1675525646.129916) vcan0 0B0#52830FA3DCC152A3
(1675525646.129920) vcan0 145#F9E2D180FC4810A1
(1675525646.129924) vcan0 008#4880AC1700800080
(1675525646.129928) vcan0 28C#000000000016FEA8
(1675525646.129931) vcan0 290#0000000000000000
(1675525646.129935) vcan0 2B5#4BB0456293A67D54
(1675525646.129939) vcan0 2C0#528700000000A0F1
(1675525646.129943) vcan0 2C5#1CDF82E133E60070
(1675525646.129946) vcan0 340#9900000000000000
(1675525646.129951) vcan0 3AF#0000000000000020
(1675525646.130016) vcan0 010#008800002FB031F8
(1675525646.130090) vcan0 210#7CE080A0A869D845
(1675525646.130164) vcan0 2A9#8C26009BC0000084
(1675525646.132453) vcan0 0F5#B7A0B9A07F7B12B0
(1675525646.133785) vcan0 120#BBA009A17F145689
(1675525646.133876) vcan0 130#F7FF1DD6201D0112
(1675525646.133950) vcan0 150#B820F5E7F6F73BC0
(1675525646.136393) vcan0 008#4880B48700800080
(1675525646.138932) vcan0 0E0#627342C000809900
(1675525646.140365) vcan0 010#008800002FB031F8
(1675525646.140444) vcan0 072#F000FF3F00788038
(1675525646.140523) vcan0 1D0#0000000000000861
(1675525646.144028) vcan0 1B0#00C0000002B000FC
(1675525646.144033) vcan0 1B5#FF39869B70E0FFEF
(1675525646.144112) vcan0 1D8#363339343234E043
(1675525646.144192) vcan0 1E0#0038130300B917E0
(1675525646.145466) vcan0 2C3#528700FFFF0E5450
(1675525646.145553) vcan0 288#DDDFA05F00000080
(1675525646.145628) vcan0 125#E5F87FE4C1D0D735
(1675525646.145716) vcan0 055#F5F70E28B2989C80
(1675525646.150634) vcan0 065#31E60EF800DE3902
(1675525646.150641) vcan0 070#000009F839E20F00
(1675525646.150645) vcan0 075#0000000000005458
(1675525646.150649) vcan0 080#28508000C2002C00
(1675525646.150653) vcan0 0B0#52830FA3DBC152A3
(1675525646.150656) vcan0 145#F9D2D280FC4810A1
(1675525646.150660) vcan0 370#0721C000681BC71F
(1675525646.150664) vcan0 008#4680C47900800080
(1675525646.150669) vcan0 010#008800002FB031F8
(1675525646.150672) vcan0 291#0000000000000000
(1675525646.150676) vcan0 330#C500000000000000
(1675525646.152082) vcan0 260#D0FF00AA497487B0
(1675525646.156204) vcan0 0F5#B3A0BFA07F7F02B3
(1675525646.156208) vcan0 120#E5A0E2A07F105689
(1675525646.156212) vcan0 130#FFFF1DD6200DFF11
(1675525646.156223) vcan0 150#B920F2F7F6F72AC0
(1675525646.156227) vcan0 072#F000FF3F0078A038
(1675525646.156230) vcan0 210#7CE080A0A869D84D
(1675525646.156235) vcan0 290#0000000000000000
(1675525646.156239) vcan0 008#4680D46900800080
(1675525646.158714) vcan0 0E0#62733DC800807E00
(1675525646.160077) vcan0 010#008800002FB031F9
(1675525646.160156) vcan0 1D0#0000000000000261
(1675525646.163724) vcan0 1B0#00C0000002B000FC
(1675525646.163878) vcan0 1B5#FF4E9BA67AE0FFEF
(1675525646.163957) vcan0 1D8#363339343234E043
(1675525646.165108) vcan0 1E0#003C034300B917E0
(1675525646.165190) vcan0 125#E5FB7FE4C1D0D735
(1675525646.170281) vcan0 055#F5F70E28B2989C80
(1675525646.170285) vcan0 065#31E60EF8FEDD3902
(1675525646.170289) vcan0 070#000009F839E20F00
(1675525646.170307) vcan0 075#0000000000005458
(1675525646.170311) vcan0 080#28508000C2002C00
(1675525646.170314) vcan0 0B0#52830FA3DCC152A3
(1675525646.170318) vcan0 145#F9C2D380FC4810A1
(1675525646.170322) vcan0 008#4480E44615800080
(1675525646.170325) vcan0 28C#000000000016FEA8
(1675525646.170329) vcan0 2B5#4BB1456293A67D54
(1675525646.170333) vcan0 288#E5DFA05F00000080
(1675525646.170337) vcan0 010#008800002FB031F8
(1675525646.171738) vcan0 072#F000FF3F00788038
(1675525646.171813) vcan0 2A9#8C260082C0000084
(1675525646.174271) vcan0 0F5#ACA0B9A07F43F2B6
(1675525646.174346) vcan0 120#0CA1E9A07F145689
(1675525646.174422) vcan0 130#87FF1DD620FDFF11
(1675525646.174498) vcan0 150#B220F607F6F721C0
(1675525646.174571) vcan0 3CA#00000000530000C8
(1675525646.176884) vcan0 008#4480F43615800080
(1675525646.179359) vcan0 010#008800002FB031F8
(1675525646.181763) vcan0 0E0#627344D000805700
(1675525646.181767) vcan0 1D0#0000000000000061
(1675525646.181771) vcan0 210#7CE08020A869D845
(1675525646.181775) vcan0 291#0000000000000000
(1675525646.181779) vcan0 260#D0FF00AA497487B0
(1675525646.186933) vcan0 1B0#00C0000003B000FC
(1675525646.186937) vcan0 1B5#FF64B0B085E0FFEF
(1675525646.186941) vcan0 1D8#363339343234E043
(1675525646.186944) vcan0 1E0#0000F34300B917E0
(1675525646.186949) vcan0 2C3#528700FFFF0F5450
(1675525646.186952) vcan0 072#F000FF3F0078A038
(1675525646.186955) vcan0 125#E5FB7FE4C1D0D735
(1675525646.186959) vcan0 3B0#00D8413C3CB8C400
(1675525646.186963) vcan0 350#A200000000000080
(1675525646.186968) vcan0 055#F5F70E28B29A9C80
(1675525646.186973) vcan0 065#31E60EF800DE3902
(1675525646.186976) vcan0 070#000009F839E20F00
(1675525646.188489) vcan0 075#0000000000005458
(1675525646.188565) vcan0 080#28508000C2002C00
(1675525646.188641) vcan0 0B0#52830FA3DCC152A3
(1675525646.188785) vcan0 008#4180041B23800080
(1675525646.188858) vcan0 145#F9B2D480FC4810A1
(1675525646.188932) vcan0 290#0000000000000000
(1675525646.189007) vcan0 2C0#528700000000A0F1
(1675525646.189149) vcan0 2C5#1CDF82E132E60070
(1675525646.192365) vcan0 3C8#5287008E882C008E
(1675525646.192370) vcan0 010#008800002FB031F8
(1675525646.192445) vcan0 0F5#B6A0BBA07F47E2B8
(1675525646.194865) vcan0 120#0FA1F7A07F0F5689
(1675525646.194870) vcan0 130#8FFF1DD620EDFF11
(1675525646.194894) vcan0 150#B820F617F6F70BC0
(1675525646.194898) vcan0 288#DDDFA05F00000080
(1675525646.197389) vcan0 008#4180140B23800080
(1675525646.199940) vcan0 010#008800002FB031F8
(1675525646.200022) vcan0 072#F000FF3F00788038
(1675525646.200100) vcan0 0E0#627344D800803700
(1675525646.201373) vcan0 1D0#0000000000000061
(1675525646.206490) vcan0 1B0#00C0000003B000FC
(1675525646.206494) vcan0 1B5#FF79C5BB8FE0FFEF
(1675525646.206498) vcan0 1D8#363339343234E043
(1675525646.206503) vcan0 1E0#0000F30300B917E0
(1675525646.206507) vcan0 210#7CE080A0A869D84D
(1675525646.206510) vcan0 125#E5FE7FE4C1D0D735
(1675525646.206514) vcan0 055#F5F70F28B29A9C80
(1675525646.206518) vcan0 065#34E60EF801DE3A02
(1675525646.206522) vcan0 070#000009F83AE20F00
(1675525646.206606) vcan0 075#0000000000005458
(1675525646.206681) vcan0 080#28508000C2002C00
(1675525646.211668) vcan0 0B0#52830FA3DCC152A3
(1675525646.211672) vcan0 145#F9A2D580FC4810A1
(1675525646.211676) vcan0 008#3F8024FD23800080
(1675525646.211680) vcan0 28C#000000000016FEA8
(1675525646.211684) vcan0 2B5#4BB1456293A67D54
(1675525646.211687) vcan0 340#9900000000000000
(1675525646.211690) vcan0 010#008800002FB031F8
(1675525646.211694) vcan0 291#0000000000000000
(1675525646.211699) vcan0 2A9#8C26008AC0000084
(1675525646.211702) vcan0 405#D507E1FF46186701
(1675525646.211707) vcan0 260#D0FF0055497487B0
(1675525646.213025) vcan0 0F5#95A0BBA07F4BD2BB
(1675525646.216949) vcan0 120#D7A0FDA07F185689
(1675525646.216953) vcan0 130#97FF1DD620DDFF11
(1675525646.216964) vcan0 150#A820F327F7F70BC0
(1675525646.216968) vcan0 072#F000FF3F0078A038
(1675525646.216971) vcan0 360#538700B4B964A041
(1675525646.216975) vcan0 290#0000000000000000
(1675525646.216980) vcan0 008#3F8034DE32800080
(1675525646.220776) vcan0 288#C4DFA05F00000080
(1675525646.220780) vcan0 0E0#627337E000802400
(1675525646.220784) vcan0 010#008800002FB031F8
(1675525646.220788) vcan0 1D0#0000000000000861
(1675525646.220865) vcan0 390#80FF051D020A5D4F
(1675525646.223328) vcan0 1B0#00C0000005B000FC
(1675525646.227268) vcan0 1B5#FF8EDBC69AE0FFEF
(1675525646.227272) vcan0 1D8#363339343234E043
(1675525646.227276) vcan0 1E0#0004E34300B917E0
(1675525646.227280) vcan0 2C3#528700FFFF0F5450
(1675525646.227284) vcan0 125#E50180E4C1D0D735
(1675525646.227292) vcan0 055#F5F70F28B29A9C80
(1675525646.227297) vcan0 065#32E60EF801DE3A02
(1675525646.227300) vcan0 070#000009F83AE20F00
(1675525646.227304) vcan0 075#0000000000005458
(1675525646.227308) vcan0 080#28508000C2002C00
(1675525646.227311) vcan0 0B0#52830FA3DCC152A3
(1675525646.227314) vcan0 145#F992D680FC4810A1
(1675525646.227384) vcan0 008#3F8044CE32800080
(1675525646.229811) vcan0 010#008800002FB031F8
(1675525646.231230) vcan0 072#F000FF3F00788038
(1675525646.231306) vcan0 210#7CE080A0A869D84D
(1675525646.231380) vcan0 330#C500000000000000
(1675525646.231455) vcan0 3D0#8D0F6100C50580C3
(1675525646.233835) vcan0 0F5#AAA0BEA07F4FC2BE
(1675525646.233909) vcan0 120#F1A0EBA07F095689
(1675525646.234054) vcan0 130#9FFF1DD620CDFF11
(1675525646.234136) vcan0 150#B420EB37F7F7EFC0
(1675525646.236381) vcan0 008#3F8054BE32800080
(1675525646.238827) vcan0 0E0#627330E800800B00
(1675525646.241292) vcan0 010#008800002FB031F9
(1675525646.241296) vcan0 1D0#0000000000000261
(1675525646.241301) vcan0 291#0000000000000000
(1675525646.241376) vcan0 260#D0FF0055497487B0
(1675525646.243840) vcan0 1B0#00C0000004B000FC
(1675525646.243915) vcan0 1B5#FFA4F0D0A4E0FFEF
(1675525646.243991) vcan0 1D8#363339343234E043
(1675525646.244064) vcan0 1E0#0008D34300B917E0
(1675525646.247781) vcan0 288#D5DFB04F00000080
(1675525646.247786) vcan0 072#F000FF3F0078A038
(1675525646.247789) vcan0 125#E50180E4C1D0D735
(1675525646.247794) vcan0 055#F5F70F28B29A9C80
(1675525646.247797) vcan0 065#31E60FF8FEDD3A02
(1675525646.247809) vcan0 070#000009F83AE20F00
(1675525646.247813) vcan0 075#0000000000005458
(1675525646.247817) vcan0 080#28508000C2002C00
(1675525646.247821) vcan0 0B0#52830FA3DCC152A3
(1675525646.247825) vcan0 145#F982D780FC4810A1
(1675525646.247828) vcan0 008#3F8064AE32800080
(1675525646.247899) vcan0 28C#000000000016FEA8
(1675525646.247973) vcan0 290#0000000000000000
(1675525646.248048) vcan0 2B5#4BB1456293A67E55
(1675525646.250380) vcan0 2C0#528700000000A0F1
(1675525646.250384) vcan0 2C5#1CDF82E133E60070
(1675525646.250388) vcan0 370#0721C000681BC71F
(1675525646.250393) vcan0 3AF#0000000000000020
(1675525646.250396) vcan0 3E0#000000D930808092
(1675525646.250400) vcan0 010#008800002FB031F8
(1675525646.250471) vcan0 2A9#8C260093C0000084
(1675525646.252959) vcan0 0F5#ADA0BFA07F53B2C0
(1675525646.256768) vcan0 120#EBA0DAA07F105689
(1675525646.256772) vcan0 130#A7FF1DD620BDFF11
(1675525646.256776) vcan0 150#B620EE47F7F7DDC0
(1675525646.256780) vcan0 210#7CE080A0A869D845
(1675525646.256857) vcan0 008#3F80749E32800080
(1675525646.259318) vcan0 010#008800002FB031F8
(1675525646.260742) vcan0 072#F000FF3F00788038
(1675525646.260821) vcan0 0E0#627330F00080EB00
(1675525646.260900) vcan0 1D0#0000000000000061
(1675525646.264331) vcan0 1B0#00C0000002B000FC
(1675525646.264335) vcan0 1B5#FFB905DBAFE0FFEF
(1675525646.264488) vcan0 1D8#363339343234E043
(1675525646.264567) vcan0 1E0#0008D30300B917E0
(1675525646.264646) vcan0 2C3#528700FFFF105450
(1675525646.265745) vcan0 125#E50380E4C1D0D735
(1675525646.265835) vcan0 055#F5F70F28B29A9C80
(1675525646.265911) vcan0 065#33E60FF800DE3A02
(1675525646.265985) vcan0 070#000009F83AE20F00
(1675525646.270864) vcan0 075#0000000000005458
(1675525646.270868) vcan0 080#28508000C2002C00
(1675525646.270873) vcan0 0B0#52830FA3DCC152A3
(1675525646.270876) vcan0 145#F972D880FC4810A1
(1675525646.270880) vcan0 008#3F8084A41C800080
(1675525646.270884) vcan0 288#E5DFB04F00000080
(1675525646.270888) vcan0 010#008800002FB031F8
(1675525646.270892) vcan0 291#0000000000000000
(1675525646.272279) vcan0 260#D0FF0055497487B0
(1675525646.276198) vcan0 0F5#B3A0B6A07F57A2C3
(1675525646.276204) vcan0 120#0DA1D0A07F095689
(1675525646.276208) vcan0 130#AFFF1DD620ADFF11
(1675525646.276211) vcan0 150#B420F357F7F7CFC0
(1675525646.276223) vcan0 072#F000FF3F0078A038
(1675525646.276227) vcan0 290#0000000000000000
(1675525646.276231) vcan0 350#A200000000000080
(1675525646.277591) vcan0 008#3F8094941C800080
(1675525646.280150) vcan0 0E0#627334F80080C700
(1675525646.280232) vcan0 010#008800002FB031F8
(1675525646.280310) vcan0 1D0#0000000000000061
(1675525646.280389) vcan0 210#7CE080A0A869D84D
(1675525646.282741) vcan0 1B0#00C0000003B000FC
(1675525646.285200) vcan0 1B5#FFCE1BE5BAE0FFEF
(1675525646.285204) vcan0 1D8#363339343234E043
(1675525646.285208) vcan0 1E0#000CC34300B917E0
(1675525646.285212) vcan0 125#E50180E4C1D0D735
(1675525646.290250) vcan0 055#F5F70F28B29A9C80
(1675525646.290254) vcan0 065#34E60FF802DE3A02
(1675525646.290258) vcan0 070#000009F83AE20F00
(1675525646.290269) vcan0 075#0000000000005458
(1675525646.290272) vcan0 080#28508000C2002C00
(1675525646.290277) vcan0 0B0#52830FA3DBC152A3
(1675525646.290281) vcan0 145#F962D980FC4810A1
(1675525646.290284) vcan0 008#3D80A4940E800080
(1675525646.290288) vcan0 28C#000000000016FEA8
(1675525646.290292) vcan0 2B5#4BB1456293A67E55
(1675525646.290295) vcan0 340#9900000000000000
(1675525646.290299) vcan0 010#008800002FB031F8
(1675525646.290302) vcan0 072#F000FF3F00788038
(1675525646.290371) vcan0 2A9#8C26008AC0000084
(1675525646.295257) vcan0 0F5#A5A0B6A07F5B92C6
(1675525646.295261) vcan0 120#D3A0E5A07F1B5689
(1675525646.295265) vcan0 130#B7FF1DD6209DFF11
(1675525646.295269) vcan0 150#AD20F367F8F7C6C0
(1675525646.295273) vcan0 288#F1DFB04F00000080
(1675525646.295279) vcan0 3CA#00000000540000C8
(1675525646.297681) vcan0 008#3D80B4761C800080
(1675525646.300144) vcan0 0E0#627328C00080B300
(1675525646.300224) vcan0 010#008800002FB031F8
(1675525646.300303) vcan0 1D0#0000000000000861
(1675525646.300381) vcan0 291#0000000000000000
(1675525646.301610) vcan0 260#D0FF00AA497487B0
(1675525646.306764) vcan0 1B0#00C0000002B000FC
(1675525646.306770) vcan0 1B5#FFE430F0C4E0FFEF
(1675525646.306774) vcan0 1D8#363339343234E043
(1675525646.306778) vcan0 1E0#0010B34300B917E0
(1675525646.306781) vcan0 2C3#528700FFFF105450
(1675525646.306786) vcan0 072#F000FF3F0078A038
(1675525646.306789) vcan0 125#E50380E4C1D0D735
(1675525646.306793) vcan0 210#7CE080A0A869D845
(1675525646.306797) vcan0 3B0#00D841383CB8C402
(1675525646.306804) vcan0 055#F5F70F28B29A9C80
(1675525646.306807) vcan0 065#31E60FF800DE3A02
(1675525646.306811) vcan0 070#000009F83AE20F00
(1675525646.306815) vcan0 075#0000000000005458
(1675525646.306888) vcan0 080#28508000C2002C00
(1675525646.306962) vcan0 0B0#52830FA3DBC152A3
(1675525646.308234) vcan0 145#F952DA80FC4810A1
(1675525646.308309) vcan0 008#3D80C4661C800080
(1675525646.308383) vcan0 290#0000000000000000
(1675525646.308456) vcan0 2C0#528700000000A0F1
(1675525646.308531) vcan0 2C5#1CDF82E132E60070
(1675525646.309730) vcan0 3C8#5287008E882C008E
(1675525646.309807) vcan0 010#008800002FB031F8
(1675525646.309881) vcan0 330#C500000000000000
(1675525646.312363) vcan0 0F5#D3A0BBA07F5F82C8
(1675525646.314769) vcan0 120#EBA0EBA07FF75589
(1675525646.314781) vcan0 130#BFFF1DD6208DFF11
(1675525646.314785) vcan0 150#C620FA77F8F79DC0
(1675525646.314789) vcan0 360#538700B4B964A041
(1675525646.317350) vcan0 008#3B80D4660E800080
(1675525646.319861) vcan0 288#D5DFB04F00000080
(1675525646.319941) vcan0 0E0#627326C800809500
(1675525646.320018) vcan0 010#008800002FB031F9
(1675525646.321149) vcan0 072#F000FF3F00788038
(1675525646.321243) vcan0 1D0#0000000000000261
(1675525646.321394) vcan0 390#80FF051D02025F4F
(1675525646.324837) vcan0 1B0#00C0000008B000FC
(1675525646.324841) vcan0 1B5#FFF945FACFE0FFEF
(1675525646.324845) vcan0 1D8#363339343234E043
(1675525646.324849) vcan0 1E0#0010B30300B917E0
(1675525646.324853) vcan0 125#E50680E4C1D0D735
(1675525646.326218) vcan0 055#F5F70F28B29A9C80
(1675525646.326316) vcan0 065#32E60FF8FFDD3A02
(1675525646.326390) vcan0 070#000009F83AE20F00
(1675525646.326465) vcan0 075#0000000000005458
(1675525646.326538) vcan0 080#28508000C2002C00
(1675525646.329977) vcan0 0B0#52830FA3DCC152A3
(1675525646.329981) vcan0 145#F942DB80FC4810A1
(1675525646.329985) vcan0 008#3B80E4560E800080
(1675525646.329989) vcan0 28C#000000000016FEA8
(1675525646.329993) vcan0 2B5#4BB1456293A67E55
(1675525646.329997) vcan0 010#008800002FB031F8
(1675525646.330140) vcan0 210#7CE08020A869D845
(1675525646.330214) vcan0 291#0000000000000000
(1675525646.330358) vcan0 2A9#8C260093C0000084
(1675525646.334873) vcan0 260#D0FF00AA497487B0
(1675525646.334877) vcan0 0F5#C7A0BBA07F6372CB
(1675525646.334882) vcan0 120#E2A0EDA07F025689
(1675525646.334906) vcan0 130#C7FF1DD6207DFF11
(1675525646.334911) vcan0 150#C120F187F9F792C0
(1675525646.334914) vcan0 072#F000FF3F0078A038
(1675525646.336331) vcan0 290#0000000000000000
(1675525646.339987) vcan0 008#3B80F4460E800080
(1675525646.339992) vcan0 0E0#62732FD000806C00
(1675525646.340071) vcan0 010#008800002FB031F8
(1675525646.340149) vcan0 1D0#0000000000000061
(1675525646.341499) vcan0 400#010502000103021F
(1675525646.345336) vcan0 1B0#00C0000005B000FC
(1675525646.345340) vcan0 1B5#FF0E5A05D9E0FFEF
(1675525646.345344) vcan0 1D8#363339343234E043
(1675525646.345348) vcan0 1E0#0014A34300B917E0
(1675525646.345352) vcan0 2C3#528700FFFF115450
(1675525646.345356) vcan0 288#E9DFC03F00000080
(1675525646.345427) vcan0 125#E50380E4C1D0D735
(1675525646.345513) vcan0 055#F5F70F28B29A9C80
(1675525646.350282) vcan0 065#33E60FF800DE3A02
(1675525646.350288) vcan0 070#000009F83AE20F00
(1675525646.350292) vcan0 075#0000000000005458
(1675525646.350296) vcan0 080#28508000C2002C00
(1675525646.350299) vcan0 0B0#52830FA3DCC152A3
(1675525646.350304) vcan0 145#F932DC80FC4810A1
(1675525646.350307) vcan0 008#3B8004360E800080
(1675525646.350311) vcan0 370#0721C000681BC71F
(1675525646.350315) vcan0 010#008800002FB031F8
(1675525646.350319) vcan0 072#F000FF3F00788038
(1675525646.352779) vcan0 0F5#B6A0B7A07F6762CE
(1675525646.354164) vcan0 120#09A1E2A07F0D5689
(1675525646.354250) vcan0 130#CFFF1DD6206DFF11
(1675525646.354392) vcan0 150#B620F397F9F78DC0
(1675525646.354468) vcan0 210#7CE080A0A869D84D
(1675525646.356834) vcan0 008#3B8014260E800080
(1675525646.359247) vcan0 0E0#627327D800805400
(1675525646.361754) vcan0 010#008800002FB031F8
(1675525646.361760) vcan0 1D0#0000000000000061
(1675525646.361763) vcan0 291#0000000000000000
(1675525646.361840) vcan0 260#D0FF00AA497487B0
(1675525646.364240) vcan0 1B0#00C0000003B000FC
(1675525646.364244) vcan0 1B5#FF237010E4E0FFEF
(1675525646.364248) vcan0 1D8#363339343234E043
(1675525646.364327) vcan0 1E0#0018934300B917E0
(1675525646.366898) vcan0 125#E50180E4C1D0D735
(1675525646.366904) vcan0 072#F000FF3F0078A038
(1675525646.366908) vcan0 055#F5F70F28B29A9C80
(1675525646.366912) vcan0 065#35E60FF802DE3A02
(1675525646.366916) vcan0 070#000009F83AE20F00
(1675525646.366920) vcan0 075#0000000000005458
(1675525646.367002) vcan0 080#28508000C2002C00
(1675525646.367074) vcan0 0B0#52830FA3DCC152A3
(1675525646.367150) vcan0 145#F922DD80FC4810A1
(1675525646.367293) vcan0 008#3B8024160E800080
(1675525646.372278) vcan0 28C#000000000016FEA8
(1675525646.372287) vcan0 290#0000000000000000
(1675525646.372291) vcan0 2B5#4BB1456293A67E55
(1675525646.372295) vcan0 2C0#528700000000A0F1
(1675525646.372299) vcan0 2C5#1CDF82E134E60070
(1675525646.372302) vcan0 340#9900000000000000
(1675525646.372306) vcan0 350#A200000000000080
(1675525646.372310) vcan0 3AF#0000000000000020
(1675525646.372313) vcan0 288#E9DFC03F00000080
(1675525646.372318) vcan0 010#008800002FB031F8
(1675525646.372321) vcan0 2A9#8C26008AC0000084
(1675525646.372386) vcan0 0F5#B9A0ADA07F6B52D0
(1675525646.373651) vcan0 120#F1A0E8A07F005689
(1675525646.373741) vcan0 130#D7FF1DD6205DFF11
(1675525646.373816) vcan0 150#B320F9A7FAF780C0
(1675525646.376412) vcan0 008#3B8034060E800080
(1675525646.378840) vcan0 0E0#627322E000803900
(1675525646.380208) vcan0 010#008800002FB031F8
(1675525646.380286) vcan0 072#F000FF3F00788038
(1675525646.380439) vcan0 1D0#0000000000000861
(1675525646.380517) vcan0 210#7CE080A0A869D845
(1675525646.383852) vcan0 1B0#00C0000002B000FC
(1675525646.383933) vcan0 1B5#FF39851AEFE0FFEF
(1675525646.384013) vcan0 1D8#363339343234E043
(1675525646.384090) vcan0 1E0#0018930300B917E0
(1675525646.385236) vcan0 2C3#528700FFFF115450
(1675525646.385312) vcan0 125#E50180E4C1D0D735
(1675525646.385456) vcan0 055#F5F70F28B29A9C80
(1675525646.390382) vcan0 065#34E60FF800DE3A02
(1675525646.390386) vcan0 070#000009F83AE20F00
(1675525646.390391) vcan0 075#0000000000005458
(1675525646.390394) vcan0 080#28508000C2002C00
(1675525646.390398) vcan0 0B0#52830FA3DBC152A3
(1675525646.390402) vcan0 145#F912DE80FC4810A1
(1675525646.390406) vcan0 008#3B8044F60E800080
(1675525646.390410) vcan0 010#008800002FB031F8
(1675525646.390414) vcan0 291#0000000000000000
(1675525646.390418) vcan0 330#C500000000000000
(1675525646.390552) vcan0 425#0000000000000000
(1675525646.391830) vcan0 260#D0FF00AA497487B0
(1675525646.397030) vcan0 0F5#B0A0BCA07F6F42D3
(1675525646.397036) vcan0 120#D3A0E5A07F065689
(1675525646.397040) vcan0 130#DFFF1DD6204DFF11
(1675525646.397044) vcan0 150#B620F6B7FBF76DC0
(1675525646.397056) vcan0 288#EDDFC03F00000080
(1675525646.397060) vcan0 072#F000FF3F0078A038
(1675525646.397063) vcan0 290#0000000000000000
(1675525646.397066) vcan0 008#3B8054F400800080
(1675525646.399624) vcan0 010#008800002FB031F9
(1675525646.400981) vcan0 0E0#627327E800801400
(1675525646.401062) vcan0 1D0#0000000000000261
(1675525646.406131) vcan0 1B0#00C0000006B000FC
(1675525646.406137) vcan0 1B5#FF4E9A25F9E0FFEF
(1675525646.406141) vcan0 1D8#363339343234E043
(1675525646.406145) vcan0 1E0#001C834300B917E0
(1675525646.406149) vcan0 210#7CE080A0A869D84D
(1675525646.406153) vcan0 125#E50180E4C1D0D735
(1675525646.406156) vcan0 055#F5F70F28B29A9C80
(1675525646.406295) vcan0 065#31E60FF8FFDD3A02
(1675525646.406369) vcan0 070#000009F83AE20F00
(1675525646.407654) vcan0 075#0000000000005458
(1675525646.407744) vcan0 080#29508000C2002C00
(1675525646.407888) vcan0 0B0#52830FA3DCC152A3
(1675525646.407962) vcan0 145#F902DF80FC4810A1
(1675525646.408037) vcan0 008#3B8064E400800080
(1675525646.408111) vcan0 28C#000000000016FEA8
(1675525646.408185) vcan0 2B5#4BB2456293A67E55
(1675525646.410319) vcan0 010#008800002FB031F8
(1675525646.410324) vcan0 072#F000FF3F00788038
(1675525646.410400) vcan0 2A9#8C260082C0000084
(1675525646.414162) vcan0 0F5#C1A0ADA07F7332D6
(1675525646.414239) vcan0 120#0DA1DCA07F0D5689
(1675525646.414314) vcan0 130#E7FF1DD6203DFF11
(1675525646.414456) vcan0 150#B720F9C7FBF75CC0
(1675525646.414531) vcan0 360#538700B3B964A041
(1675525646.414607) vcan0 3CA#00000000550000C8
(1675525646.416676) vcan0 008#3B8074D400800080
(1675525646.419283) vcan0 288#F1DFC03F00000080
(1675525646.424279) vcan0 010#008800002FB031F8
(1675525646.424283) vcan0 0E0#627329F00080F200
(1675525646.424287) vcan0 1D0#0000000000000061
(1675525646.424291) vcan0 291#0000000000000000
(1675525646.424295) vcan0 390#80FF051D023E504F
(1675525646.424299) vcan0 260#D0FF0055497487B0
(1675525646.424303) vcan0 1B0#00C0000007B000FC
(1675525646.424306) vcan0 1B5#FF63B02F04E0FFEF
(1675525646.424311) vcan0 1D8#363339343234E043
(1675525646.424382) vcan0 1E0#0020734300B917E0
(1675525646.424535) vcan0 2C3#528700FFFF125450
(1675525646.425717) vcan0 072#F000FF3F0078A038
(1675525646.425806) vcan0 125#E50180E4C1D0D735
(1675525646.425881) vcan0 3B0#00D841383CB8C400
(1675525646.426034) vcan0 055#F5F70F28B2989C80
(1675525646.426107) vcan0 065#31E60FF8FEDD3A02
(1675525646.430892) vcan0 070#000009F83AE20F00
(1675525646.430897) vcan0 075#0000000000005458
(1675525646.430901) vcan0 080#28508000C2002C00
(1675525646.430904) vcan0 0B0#52830FA3DCC152A3
(1675525646.430909) vcan0 145#F9F2D080FC4810A1
(1675525646.430913) vcan0 008#3B8084C400800080
(1675525646.430916) vcan0 290#0000000000000000
(1675525646.430920) vcan0 2C0#528700000000A0F1
(1675525646.430924) vcan0 2C5#1CDF82E131E60070
(1675525646.430928) vcan0 3C8#5287008E882C008E
(1675525646.430932) vcan0 010#008800002FB031F8
(1675525646.430936) vcan0 210#7CE080A0A869D84D
(1675525646.431000) vcan0 3D0#8D0F6100C50580C3
(1675525646.433489) vcan0 0F5#A1A0B3A07F7722D8
(1675525646.434775) vcan0 120#CAA0D9A07F065689
(1675525646.434865) vcan0 130#EFFF1DD6202DFF11
(1675525646.435010) vcan0 150#AA20FAD7FCF759C0
(1675525646.435087) vcan0 430#3F083F00000016A6
(1675525646.437483) vcan0 008#3B8094B400800080
(1675525646.439979) vcan0 0E0#627333F80080C800
(1675525646.440059) vcan0 010#008800002FB031F8
(1675525646.440138) vcan0 072#F000FF3F00788038
(1675525646.441356) vcan0 1D0#0000000000000061
(1675525646.446594) vcan0 1B0#00C0000005B000FC
(1675525646.446599) vcan0 1B5#FF79C53A0EE0FFEF
(1675525646.446603) vcan0 1D8#363339343234E043
(1675525646.446606) vcan0 1E0#0020730300B917E0
(1675525646.446611) vcan0 288#EDDFD02F00000080
(1675525646.446614) vcan0 125#E50180E4C1D0D735
(1675525646.446618) vcan0 055#F5F70F28B29A9C80
(1675525646.446633) vcan0 065#32E60FF801DE3A02
(1675525646.446637) vcan0 070#000009F83AE20F00
(1675525646.446712) vcan0 075#0000000000005458
(1675525646.446787) vcan0 080#28508000C2002C00
(1675525646.448089) vcan0 0B0#52830FA3DCC152A3
(1675525646.448232) vcan0 145#F9E2D180FC4810A1
(1675525646.448306) vcan0 008#3B80A4A400800080
(1675525646.448382) vcan0 28C#000000000016FEA8
(1675525646.448456) vcan0 2B5#4BB2456293A67E55
(1675525646.448530) vcan0 340#9900000000000000
(1675525646.448673) vcan0 370#0721C000681BC71F
(1675525646.451816) vcan0 010#008800002FB031F8
(1675525646.451820) vcan0 291#0000000000000000
(1675525646.451824) vcan0 2A9#8C26009BC0000084
(1675525646.451828) vcan0 260#D0FF0055497487B0
(1675525646.454616) vcan0 0F5#CAA0ACA07F7B12DB
(1675525646.454700) vcan0 120#F7A0DFA07F0E5689
(1675525646.454776) vcan0 130#F7FF1DD6201DFF11
(1675525646.454850) vcan0 150#BB20FAE7FCF738C0
(1675525646.454993) vcan0 072#F000FF3F0078A038
(1675525646.455067) vcan0 210#7CE080A0A869D845
(1675525646.457166) vcan0 290#0000000000000000
(1675525646.457171) vcan0 350#A200000000000080
(1675525646.457251) vcan0 008#3B80B47F15800080
(1675525646.459731) vcan0 0E0#627339C00080A200
(1675525646.459811) vcan0 010#008800002FB031F8
(1675525646.461108) vcan0 1D0#0000000000000861
(1675525646.461187) vcan0 405#5387003B002D3502
(1675525646.466300) vcan0 1B0#00C0000007B000FC
(1675525646.466306) vcan0 1B5#FF8EDA4519E0FFEF
(1675525646.466310) vcan0 1D8#363339343234E043
(1675525646.466314) vcan0 1E0#0024634300B917E0
(1675525646.466323) vcan0 2C3#528700FFFF125450
(1675525646.466328) vcan0 125#E50380E4C1D0D735
(1675525646.466404) vcan0 055#F5F70F28B29A9C80
(1675525646.466477) vcan0 065#31E60FF8FFDD3A02
(1675525646.466552) vcan0 070#000009F83AE20F00
(1675525646.466626) vcan0 075#0000000000005458
(1675525646.467703) vcan0 080#29508000C2002C00
(1675525646.467779) vcan0 0B0#52830FA3DCC152A3
(1675525646.467855) vcan0 145#F9D2D280FC4810A1
(1675525646.467998) vcan0 008#3880C47215800080
(1675525646.471401) vcan0 288#FEDFD02F00000080
(1675525646.471406) vcan0 010#008800002FB031F8
(1675525646.471410) vcan0 072#F000FF3F00788038
(1675525646.471485) vcan0 330#C500000000000000
(1675525646.473965) vcan0 0F5#B0A0BBA07F7F02DD
(1675525646.475362) vcan0 120#F7A0E2A07FFE5589
(1675525646.475390) vcan0 130#FFFF1DD6200DFF11
(1675525646.475469) vcan0 150#B520FAF7FDF72EC0
(1675525646.476855) vcan0 008#3880D45423800080
(1675525646.480549) vcan0 0E0#627346C800807500
(1675525646.480555) vcan0 010#008800002FB031F9
(1675525646.480560) vcan0 1D0#0000000000000261
(1675525646.480709) vcan0 210#7CE08020A869D84D
(1675525646.480788) vcan0 291#0000000000000000
(1675525646.481995) vcan0 260#D0FF0055497487B0
(1675525646.487214) vcan0 1B0#00C0000004B000FC
(1675525646.487219) vcan0 1B5#FFA3EF4F23E0FFEF
(1675525646.487222) vcan0 1D8#363339343234E043
(1675525646.487226) vcan0 1E0#0028534300B917E0
(1675525646.487230) vcan0 072#F000FF3F0078A038
(1675525646.487234) vcan0 125#E50880E4C1D0D735
(1675525646.487238) vcan0 055#F5F70F28B29A9C80
(1675525646.487246) vcan0 065#32E60FF801DE3A02
(1675525646.487249) vcan0 070#000009F83BE20F00
(1675525646.487253) vcan0 075#0000000000005458
(1675525646.487256) vcan0 080#29508000C2002C00
(1675525646.487260) vcan0 0B0#52830FA3DCC152A3
(1675525646.487334) vcan0 145#F9C2D380FC4810A1
(1675525646.487477) vcan0 008#3480E43932800080
(1675525646.490115) vcan0 28C#000000000016FEA8
(1675525646.490191) vcan0 290#0000000000000000
(1675525646.490267) vcan0 2B5#4BB2456293A67E55
(1675525646.490341) vcan0 2C0#528700000000A0F1
(1675525646.490415) vcan0 2C5#1CDF82E131E60070
(1675525646.490557) vcan0 3AF#0000000000000020
(1675525646.490630) vcan0 010#008800002FB031F8
(1675525646.490705) vcan0 2A9#8C260082C0000084
(1675525646.493767) vcan0 0F5#B9A0ADA07F43F2E0
(1675525646.493781) vcan0 120#F1A0E8A07F125689
(1675525646.495115) vcan0 130#87FF1DD620FDFF11
(1675525646.495230) vcan0 150#B320FD07FDF720C0
(1675525646.495312) vcan0 288#02E0D02F00000080
(1675525646.497733) vcan0 008#3480F41B40800080
(1675525646.500151) vcan0 0E0#627340D000805B00
(1675525646.500234) vcan0 010#008800002FB031F8
(1675525646.500313) vcan0 072#F000FF3F00788038
(1675525646.500391) vcan0 1D0#0000000000000061
(1675525646.502729) vcan0 1B0#00C0000002B000FC
(1675525646.505287) vcan0 1B5#FFB9055A2EE0FFEF
(1675525646.505293) vcan0 1D8#363339343234E043
(1675525646.505297) vcan0 1E0#0028530300B917E0
(1675525646.505301) vcan0 2C3#528700FFFF135450
(1675525646.505305) vcan0 210#7CE080A0A869D845
(1675525646.505309) vcan0 125#E50B80E4C1D0D735
(1675525646.505394) vcan0 055#F5F70F28B29C9C80
(1675525646.510342) vcan0 065#30E60FF8FFDD3A02
(1675525646.510346) vcan0 070#000009F83BE20F00
(1675525646.510350) vcan0 075#0000000000005458
(1675525646.510354) vcan0 080#29508000C2002C00
(1675525646.510358) vcan0 0B0#52830FA3DCC152A3
(1675525646.510361) vcan0 145#F9B2D480FC4810A1
(1675525646.510364) vcan0 008#328004F756800080
(1675525646.510368) vcan0 010#008800002FB031F8
(1675525646.510372) vcan0 291#0000000000000000
(1675525646.511712) vcan0 260#D0FF00AA497487B0
(1675525646.515590) vcan0 0F5#C7A0BCA07F47E2E3
(1675525646.515595) vcan0 120#FDA0D9A07FFF5589
(1675525646.515599) vcan0 130#8FFF1DD620EDFF11
(1675525646.515603) vcan0 150#C120FF17FDF702C0
(1675525646.515607) vcan0 072#F000FF3F0078A038
(1675525646.515617) vcan0 360#538700B3B964A041
(1675525646.515621) vcan0 290#0000000000000000
(1675525646.520548) vcan0 008#2F8014DC64800080
(1675525646.520553) vcan0 0E0#62734ED800802D00
(1675525646.520557) vcan0 288#F1DFD02F00000080
(1675525646.520562) vcan0 010#008800002FB031F8
(1675525646.520565) vcan0 1D0#0000000000000061
(1675525646.520641) vcan0 390#80FF051D023E504F
(1675525646.523109) vcan0 1B0#00C0000002B000FC
(1675525646.524486) vcan0 1B5#FFCE1A6439E0FFEF
(1675525646.524638) vcan0 1D8#363339343234E043
(1675525646.524716) vcan0 1E0#002C434300B917E0
(1675525646.524795) vcan0 125#E50E80E4C1D0D735
(1675525646.529652) vcan0 055#F5F70F28B29E9C80
(1675525646.529658) vcan0 065#32E60FF800DE3B02
(1675525646.529661) vcan0 070#000009F83CE20F00
(1675525646.529673) vcan0 075#0000000000005458
(1675525646.529677) vcan0 080#29508000C2002C00
(1675525646.529681) vcan0 008#2D8024BF73800080
(1675525646.529684) vcan0 0B0#52830FA3DCC152A3
(1675525646.529687) vcan0 145#F9A2D580FC4810A1
(1675525646.529692) vcan0 28C#000000000016FEA8
(1675525646.529695) vcan0 2B5#4BB2456293A67E56
(1675525646.529699) vcan0 340#9900000000000000
(1675525646.529703) vcan0 010#008800002FB031F8
(1675525646.531029) vcan0 072#F000FF3F00788038
(1675525646.531120) vcan0 210#7CE080A0A869D845
(1675525646.531264) vcan0 2A9#8C26009BC0000084
(1675525646.534781) vcan0 0F5#A5A0B6A07F4BD2E5
(1675525646.534786) vcan0 120#F7A0EEA07F095689
(1675525646.534790) vcan0 130#97FF1DD620DDFF11
(1675525646.534794) vcan0 150#AD20FA27FEF706C0
(1675525646.534803) vcan0 3CA#00000000560000C8
(1675525646.537355) vcan0 008#2B80349C88800080
(1675525646.539856) vcan0 0E0#627355E000800600
(1675525646.539933) vcan0 010#008800002FB031F8
(1675525646.540013) vcan0 1D0#0000000000000861
(1675525646.542311) vcan0 291#0000000000000000
(1675525646.542392) vcan0 260#D0FF00AA497487B0
(1675525646.546336) vcan0 1B0#00C0000006B000FC
(1675525646.546340) vcan0 1B5#FFE32F6F43E0FFEF
(1675525646.546344) vcan0 1D8#363339343234E043
(1675525646.546348) vcan0 1E0#0030334300B917E0
(1675525646.546352) vcan0 2C3#528700FFFF135450
(1675525646.546356) vcan0 288#06E0E01F00000080
(1675525646.546360) vcan0 072#F000FF3F0078A038
(1675525646.546364) vcan0 125#E51180E4C1D0D735
(1675525646.546368) vcan0 3B0#00FC41383CB8C400
(1675525646.546371) vcan0 055#F5F70F28B29E9C80
(1675525646.546375) vcan0 065#34E60FF802DE3C02
(1675525646.546449) vcan0 070#000009F83CE20F00
(1675525646.546526) vcan0 075#0000000000005458
(1675525646.546669) vcan0 080#29508000C2002C00
(1675525646.550285) vcan0 0B0#52830FA3DCC152A3
(1675525646.550289) vcan0 145#F992D680FC4810A1
(1675525646.550293) vcan0 008#2880448097800080
(1675525646.550297) vcan0 290#0000000000000000
(1675525646.550301) vcan0 2C0#528700000000A0F1
(1675525646.550304) vcan0 2C5#1CDF82E135E60070
(1675525646.550307) vcan0 350#A200000000000080
(1675525646.550311) vcan0 370#0721C000681BC71F
(1675525646.550315) vcan0 3E0#000000D930808092
(1675525646.550319) vcan0 3C8#5287008E882C008E
(1675525646.550324) vcan0 010#008800002FB031F8
(1675525646.550398) vcan0 330#C500000000000000
(1675525646.552864) vcan0 0F5#BBA0B9A07F4FC2E8
(1675525646.554219) vcan0 120#EBA0E2A07F0A5689
(1675525646.554305) vcan0 130#9FFF1DD620CDFF11
(1675525646.554382) vcan0 150#BA20FD37FEF7E9C0
(1675525646.554457) vcan0 210#7CE080A0A869D84D
(1675525646.556785) vcan0 008#2680547A8F800080
(1675525646.559344) vcan0 0E0#627352E80080E900
(1675525646.560705) vcan0 010#008800002FB031F9
(1675525646.560786) vcan0 072#F000FF3F00788038
(1675525646.560938) vcan0 1D0#0000000000000261
(1675525646.564357) vcan0 1B0#00C0000003B000FC
(1675525646.564362) vcan0 1B5#FFF944794EE0FFEF
(1675525646.564366) vcan0 1D8#363339343234E043
(1675525646.564443) vcan0 1E0#0030330300B917E0
(1675525646.565702) vcan0 125#E51780E4C1D0D735
(1675525646.565787) vcan0 055#F5F70F28B29E9C80
(1675525646.565932) vcan0 065#31E60FF800DE3C02
(1675525646.566005) vcan0 070#000009F83CE20F00
(1675525646.568411) vcan0 075#0000000000005458
(1675525646.568417) vcan0 080#2A508000C2002C00
(1675525646.568420) vcan0 0B0#52830FA3DBC152A3
(1675525646.568424) vcan0 145#F982D780FC4810A1
(1675525646.568429) vcan0 008#2480645D9E800080
(1675525646.568432) vcan0 28C#000000000016FEA8
(1675525646.568436) vcan0 2B5#4BB3456293A67F56
(1675525646.568580) vcan0 288#02E0E01F00000080
(1675525646.573375) vcan0 010#008800002FB031F8
(1675525646.573382) vcan0 291#0000000000000000
(1675525646.573386) vcan0 2A9#8C260082C0000084
(1675525646.573389) vcan0 260#D0FF00AA497487B0
(1675525646.573394) vcan0 0F5#C1A0B7A07F53B2EB
(1675525646.574784) vcan0 120#D0A0CDA07F155689
(1675525646.574944) vcan0 130#A7FF1DD020C3FD11
(1675525646.575017) vcan0 150#BC200148FFF7D7C0
(1675525646.575092) vcan0 072#F000FF3F0078A038
(1675525646.577403) vcan0 290#0000000000000000
(1675525646.577485) vcan0 008#22807448A5800080
(1675525646.579980) vcan0 0E0#627353F00080C800
(1675525646.580059) vcan0 010#008800002FB031F8
(1675525646.580137) vcan0 1D0#0000000000000061
(1675525646.580215) vcan0 210#7BE080A0A869D845
(1675525646.582383) vcan0 1B0#00C0000003B000FC
(1675525646.584920) vcan0 1B5#FF0E5A8458E0FFEF
(1675525646.584924) vcan0 1D8#363339343234E143
(1675525646.584928) vcan0 1E0#0034234300B917E0
(1675525646.584931) vcan0 2C3#528700FFFF145450
(1675525646.584936) vcan0 125#E51C80E4C1D0D735
(1675525646.587524) vcan0 055#F5F70F28B29E9C80
(1675525646.587529) vcan0 065#32E60FF8FFDD3C02
(1675525646.587533) vcan0 070#000009F83CE20F00
(1675525646.587537) vcan0 075#0000000000005458
(1675525646.587540) vcan0 080#2A508000C2002C00
(1675525646.587613) vcan0 0B0#52830FA3DCC152A3
(1675525646.587688) vcan0 008#1F80843BA5800080
(1675525646.587761) vcan0 145#F972D880FC4810A1
(1675525646.590076) vcan0 010#008800002FB031F8
(1675525646.590150) vcan0 072#F000FF3F00788038
(1675525646.590225) vcan0 400#0201020001020220
(1675525646.594940) vcan0 0F5#BFA0BEA07F57A2ED
(1675525646.594945) vcan0 120#EBA0D9A07F085689
(1675525646.594949) vcan0 130#AFFF1DD020B3FD11
(1675525646.594953) vcan0 150#BE200358FFF7C5C0
(1675525646.594956) vcan0 288#0EE0E01F00000080
(1675525646.597503) vcan0 008#1D80942DA5800080
(1675525646.599900) vcan0 581#FFFFFFFFFFFF0081
(1675525646.599906) vcan0 0E0#62735AF80080A100
(1675525646.599985) vcan0 010#008800002FB031F8
(1675525646.600065) vcan0 1D0#0000000000000061
(1675525646.601358) vcan0 291#0000000000000000
(1675525646.601439) vcan0 260#D0FF0055497487B0
(1675525646.606507) vcan0 1B0#00C0000003B000FC
(1675525646.606511) vcan0 1B5#FF236F8F63E0FFEF
(1675525646.606515) vcan0 1D8#363339343234E043
(1675525646.606519) vcan0 1E0#0038134300B917E0
(1675525646.606523) vcan0 072#F000FF3F0078A038
(1675525646.606527) vcan0 210#7BE080A0A869D84D
(1675525646.606530) vcan0 125#E51E80E4C1D0D735
(1675525646.606534) vcan0 055#F5F70F28B29E9C80
(1675525646.606539) vcan0 065#32E60FF800DE3C02
(1675525646.606547) vcan0 070#000009F83DE20F00
(1675525646.606624) vcan0 075#0000000000005458
(1675525646.606699) vcan0 080#2A508000C2002C00
(1675525646.609493) vcan0 0B0#52830FA3DBC152A3
(1675525646.609570) vcan0 145#F962D980FC4810A1
(1675525646.609643) vcan0 008#1B80A4269E800080
(1675525646.609786) vcan0 28C#000000000016FEA8
(1675525646.609860) vcan0 290#0000000000000000
(1675525646.609934) vcan0 2B5#4BB3456293A67F57
(1675525646.610008) vcan0 2C0#528700000000A0F1
(1675525646.610083) vcan0 2C5#1CDF82E133E60070
(1675525646.610226) vcan0 340#9900000000000000
(1675525646.610298) vcan0 3AF#0000000000000020
(1675525646.610372) vcan0 010#008800002FB031F8
(1675525646.610447) vcan0 2A9#8C26008AC0000084
(1675525646.612088) vcan0 0F5#B6A0B6A07F5B92F0
(1675525646.614508) vcan0 120#BBA0DEA07F195689
(1675525646.614586) vcan0 130#B7FF1DD020A3FD11
(1675525646.614661) vcan0 150#B620036800F8BDC0
(1675525646.614805) vcan0 360#538700B3B964A041
(1675525646.617074) vcan0 008#1B80B4258F800080
(1675525646.619631) vcan0 0E0#627356C000808500
(1675525646.619710) vcan0 010#008800002FB031F8
(1675525646.620994) vcan0 072#F000FF3F00788038
(1675525646.621072) vcan0 1D0#0000000000000861
(1675525646.621151) vcan0 288#12E0E01F00000080
(1675525646.621302) vcan0 390#80FF051D0236524F
(1675525646.626113) vcan0 1B0#00C0000001B000FC
(1675525646.626118) vcan0 1B5#FF3884996EE0FFEF
(1675525646.626122) vcan0 1D8#363339343234E043
(1675525646.626126) vcan0 1E0#0038130300B917E0
(1675525646.626130) vcan0 2C3#528700FFFF145450
(1675525646.626139) vcan0 125#E52080E4C1D0D735
(1675525646.626143) vcan0 055#F5F70F28B29E9C80
(1675525646.626218) vcan0 065#34E60FF800DE3D02
(1675525646.626292) vcan0 070#000009F83DE20F00
(1675525646.626366) vcan0 075#0000000000005458
(1675525646.627582) vcan0 080#2A508000C2002C00
(1675525646.627656) vcan0 0B0#52830FA3DBC152A3
(1675525646.627802) vcan0 145#F952DA80FC4810A1
(1675525646.627876) vcan0 008#1980C42581800080
(1675525646.630199) vcan0 010#008800002FB031F8
(1675525646.630275) vcan0 210#7BE08020A869D84D
(1675525646.630419) vcan0 291#0000000000000000
(1675525646.630493) vcan0 330#C500000000000000
(1675525646.630567) vcan0 3D0#8D0F6100C50580C3
(1675525646.631539) vcan0 260#D0FF0055497487B0
(1675525646.634144) vcan0 0F5#ADA0B3A07F5F82F3
(1675525646.634157) vcan0 120#F1A0F7A07F105689
(1675525646.634231) vcan0 130#BFFF1DD02093FD11
(1675525646.634377) vcan0 150#B020047801F8B3C0
(1675525646.634449) vcan0 072#F000FF3F0078A038
(1675525646.635591) vcan0 290#0000000000000000
(1675525646.635685) vcan0 350#A200000000000080
(1675525646.637019) vcan0 008#1980D41581800080
(1675525646.639654) vcan0 0E0#627349C800807200
(1675525646.639807) vcan0 010#008800002FB031F9
(1675525646.639885) vcan0 1D0#0000000000000261
(1675525646.642241) vcan0 1B0#00C0000003B000FC
(1675525646.644669) vcan0 1B5#FF4E99A478E0FFEF
(1675525646.644674) vcan0 1D8#363339343234E043
(1675525646.644678) vcan0 1E0#003C034300B917E0
(1675525646.644682) vcan0 288#22E0F00F00000080
(1675525646.644760) vcan0 125#E52280E4C1D0D735
(1675525646.649798) vcan0 055#F5F70F28B29E9C80
(1675525646.649804) vcan0 065#31E60FF800DE3D02
(1675525646.649808) vcan0 070#000009F83DE20F00
(1675525646.649811) vcan0 075#0000000000005458
(1675525646.649816) vcan0 080#2A508000C2002C00
(1675525646.649819) vcan0 0B0#52830FA3DBC152A3
(1675525646.649823) vcan0 145#F942DB80FC4810A1
(1675525646.649827) vcan0 008#1980E41373800080
(1675525646.649831) vcan0 28C#000000000016FEA8
(1675525646.649835) vcan0 2B5#4BB3456293A67F57
(1675525646.649839) vcan0 370#0721C000681BC71F
(1675525646.649843) vcan0 010#008800002FB031F8
(1675525646.649908) vcan0 072#F000FF3F00788038
(1675525646.651243) vcan0 2A9#8C260093C0000084
(1675525646.655018) vcan0 0F5#BFA0B6A07F6372F5
(1675525646.655022) vcan0 120#E2A0D0A07F065689
(1675525646.655036) vcan0 130#C7FF1DD02083FD11
(1675525646.655040) vcan0 150#BA20048802F899C0
(1675525646.655043) vcan0 210#7BE080A0A869D845
(1675525646.655047) vcan0 3CA#00000000400000C8
(1675525646.659997) vcan0 008#1980F41264800080
(1675525646.660002) vcan0 0E0#627341D000805A00
(1675525646.660006) vcan0 010#008800002FB031F8
(1675525646.660149) vcan0 1D0#0000000000000061
(1675525646.660222) vcan0 291#0000000000000000
(1675525646.661492) vcan0 260#D0FF0055497487B0
(1675525646.666737) vcan0 1B0#00C0000003B000FC
(1675525646.666741) vcan0 1B5#FF63AFAE83E0FFEF
(1675525646.666745) vcan0 1D8#363339343234E043
(1675525646.666749) vcan0 1E0#0000F34300B917E0
(1675525646.666753) vcan0 2C3#528700FFFF155450
(1675525646.666757) vcan0 125#E52280E4C1D0D735
(1675525646.666767) vcan0 072#F000FF3F0078A038
(1675525646.666772) vcan0 3B0#00D841383CB8C400
(1675525646.666776) vcan0 055#F5F70F28B29E9C80
(1675525646.666779) vcan0 065#30E60FF8FEDD3D02
(1675525646.666783) vcan0 070#000009F83DE20F00
(1675525646.666787) vcan0 075#0000000000005458
(1675525646.666791) vcan0 080#2A508000C2002C00
(1675525646.666861) vcan0 0B0#52830FA3DBC152A3
(1675525646.668082) vcan0 145#F932DC80FC4810A1
(1675525646.668157) vcan0 008#1980041056800080
(1675525646.668231) vcan0 290#0000000000000000
(1675525646.668374) vcan0 2C0#528700000000A0F1
(1675525646.668449) vcan0 2C5#1DDF82E130E60070
(1675525646.670648) vcan0 288#06E0F00F00000080
(1675525646.670653) vcan0 3C8#5287008E882C008E
(1675525646.670726) vcan0 010#008800002FB031F8
(1675525646.673137) vcan0 0F5#A9A0B3A07F6762F8
(1675525646.674533) vcan0 120#F1A0E5A07F1F5689
(1675525646.674630) vcan0 130#CFFF1DD02073FF11
(1675525646.674704) vcan0 150#AE20079804F895C0
(1675525646.677253) vcan0 008#1980141640800080
(1675525646.679657) vcan0 0E0#627340D800803B00
(1675525646.679738) vcan0 010#008800002FB031F8
(1675525646.679816) vcan0 072#F000FF3F00788038
(1675525646.681106) vcan0 1D0#0000000000000061
(1675525646.681187) vcan0 210#7BE080A0A869D84D
(1675525646.684790) vcan0 1B0#00C0000004B000FC
(1675525646.684795) vcan0 1B5#FF78C4B98DE0FFEF
(1675525646.684799) vcan0 1D8#363339343234E043
(1675525646.684803) vcan0 1E0#0000F30300B917E0
(1675525646.684879) vcan0 125#E52080E4C1D0D735
(1675525646.686155) vcan0 055#F5F70F28B29E9C80
(1675525646.686251) vcan0 065#2FE60FF800DE3D02
(1675525646.686326) vcan0 070#000009F83DE20F00
(1675525646.686469) vcan0 075#0000000000005458
(1675525646.690011) vcan0 080#2A508000C2002C00
(1675525646.690016) vcan0 0B0#52830FA3DBC152A3
(1675525646.690020) vcan0 145#F922DD80FC4810A1
(1675525646.690024) vcan0 008#1980241432800080
(1675525646.690028) vcan0 28C#000000000016FEA8
(1675525646.690032) vcan0 2B5#4BB3456293A67F57
(1675525646.690036) vcan0 340#9900000000000000
(1675525646.690040) vcan0 010#008800002FB031F8
(1675525646.690043) vcan0 291#0000000000000000
(1675525646.690112) vcan0 2A9#8C26008AC0000084
