(1675525736.314400) vcan0 010#008800002FB031F8
(1675525736.314449) vcan0 072#F000FF3F0078A038
(1675525736.314524) vcan0 330#A100000000000000
(1675525736.314665) vcan0 008#518014EC32800080
(1675525736.315221) vcan0 290#0000000000000000
(1675525736.316394) vcan0 210#1EE080A0A869CC4D
(1675525736.317434) vcan0 288#D0DF10EF00000080
(1675525736.318523) vcan0 0F5#0A930C937F676297
(1675525736.319614) vcan0 120#22931F937F025689
(1675525736.319692) vcan0 130#CFFD1D22132EFD11
(1675525736.320780) vcan0 150#0B13F39700F845C0
(1675525736.321806) vcan0 010#008800002FB031F8
(1675525736.322896) vcan0 1D0#0000000000000061
(1675525736.322972) vcan0 008#4F8024D040800080
(1675525736.323052) vcan0 291#0000000000000000
(1675525736.323128) vcan0 405#3233343638333212
(1675525736.323931) vcan0 0E0#627324D000807700
(1675525736.324944) vcan0 055#F5F7FF27B22B9C80
(1675525736.326467) vcan0 065#E6E4FFF700CE0102
(1675525736.326545) vcan0 070#000009F802E21500
(1675525736.326622) vcan0 075#0000000000005458
(1675525736.326699) vcan0 080#00508000C2002C00
(1675525736.326848) vcan0 0B0#3983F9A2E3C139A3
(1675525736.327543) vcan0 145#F952DA80FC4810A1
(1675525736.327617) vcan0 370#0720C0007A1BC71F
(1675525736.327691) vcan0 072#F000FF3F00788038
(1675525736.331543) vcan0 125#E5FC7FE4C1D0D735
(1675525736.331629) vcan0 1B0#00C0000001B000FC
(1675525736.331704) vcan0 1B5#FF3DBE64B7E0FFEF
(1675525736.331847) vcan0 1D8#363339343234E043
(1675525736.331920) vcan0 1E0#002C434300B917E0
(1675525736.331994) vcan0 260#D0FF0055497487B0
(1675525736.332619) vcan0 008#4F8034C040800080
(1675525736.332693) vcan0 010#008800002FB031F8
(1675525736.333728) vcan0 2A9#8C260082C0000084
(1675525736.334902) vcan0 0F5#069308937F6B5299
(1675525736.335936) vcan0 120#2E9328937FFF5589
(1675525736.336998) vcan0 130#D7FD1D22131EFD11
(1675525736.338019) vcan0 150#0713F1A7FFF739C0
(1675525736.339110) vcan0 3CA#00000000560000C8
(1675525736.340127) vcan0 010#008800002FB031F8
(1675525736.341361) vcan0 072#F000FF3F0078A038
(1675525736.342524) vcan0 1D0#0000000000000061
(1675525736.342613) vcan0 210#1EE080A0A869CC45
(1675525736.342690) vcan0 008#4F8044B040800080
(1675525736.343565) vcan0 0E0#627316D800806500
(1675525736.343933) vcan0 288#D5DF10EF00000080
(1675525736.345023) vcan0 055#F5F7FF27B2299C80
(1675525736.346114) vcan0 065#E7E4FFF700CE0102
(1675525736.346194) vcan0 070#000009F801E21500
(1675525736.346270) vcan0 075#0000000000005458
(1675525736.347131) vcan0 080#00508000C2002C00
(1675525736.350018) vcan0 0B0#3983F9A2E3C139A3
(1675525736.350160) vcan0 145#F942DB80FC4810A1
(1675525736.350236) vcan0 28C#000000000016FEA2
(1675525736.350311) vcan0 290#0000000000000000
(1675525736.350384) vcan0 2B5#4B1E2B6293A66F1F
(1675525736.350527) vcan0 2C0#528700F40000A0F1
(1675525736.350602) vcan0 2C5#01EF5FE2E6E40070
(1675525736.350687) vcan0 125#E5FC7FE4C1D0D735
(1675525736.350761) vcan0 3AF#0000000000000020
(1675525736.350836) vcan0 1B0#00C0000001B000FC
(1675525736.350978) vcan0 1B5#FF49CA6ABEE0FFEF
(1675525736.351054) vcan0 1D8#363339343234E043
(1675525736.351128) vcan0 1E0#0030334300B917E0
(1675525736.351201) vcan0 2C3#528700FFFFF15450
(1675525736.351276) vcan0 010#008800002FB031F8
(1675525736.354026) vcan0 291#0000000000000000
(1675525736.354100) vcan0 425#0000000000000000
(1675525736.354173) vcan0 008#4F8054A040800080
(1675525736.355139) vcan0 072#F000FF3F00788038
(1675525736.356243) vcan0 0F5#FC920A937F6F429A
(1675525736.357277) vcan0 120#2C933A937F015689
(1675525736.358294) vcan0 130#DFFD1D22130EFD11
(1675525736.359382) vcan0 150#0313F3B7FEF72DC0
(1675525736.360408) vcan0 260#D0FF0055497487B0
(1675525736.360487) vcan0 010#008800002FB031F8
(1675525736.361431) vcan0 1D0#0000000000000861
(1675525736.362518) vcan0 008#4F80649040800080
(1675525736.363535) vcan0 0E0#62730AE000805100
(1675525736.364622) vcan0 055#F5F7FF27B2299C80
(1675525736.367584) vcan0 065#E6E4FFF700CE0102
(1675525736.367660) vcan0 070#000009F801E21500
(1675525736.367803) vcan0 075#0000000000005458
(1675525736.367879) vcan0 080#00508000C2002C00
(1675525736.367952) vcan0 0B0#3983F9A2E3C139A3
(1675525736.368027) vcan0 145#F932DC80FC4810A1
(1675525736.368169) vcan0 210#1EE080A0A869CC45
(1675525736.368245) vcan0 350#A200000000000080
(1675525736.368662) vcan0 125#E5FA7FE4C1D0D735
(1675525736.369700) vcan0 288#D9DF10EF00000080
(1675525736.369787) vcan0 1B0#00C0000001B000FC
(1675525736.369930) vcan0 1B5#FF55D670C4E0FFEF
(1675525736.372545) vcan0 1D8#363339343234E043
(1675525736.372619) vcan0 1E0#0030330300B917E0
(1675525736.372692) vcan0 010#008800002FB031F8
(1675525736.372766) vcan0 072#F000FF3F0078A038
(1675525736.372910) vcan0 2A9#8C26009BC0000084
(1675525736.372982) vcan0 008#4F80748040800080
