(1675526472.442881) vcan0 1E0#0014A30300B917E0
(1675526472.442944) vcan0 2C3#5D8700FFFF305450
(1675526472.443021) vcan0 055#E7F7E727B2009C80
(1675526472.443108) vcan0 065#F0E6E7F7FFBDD501
(1675526472.443259) vcan0 070#000017F8D5E12000
(1675526472.443337) vcan0 075#0000000000005458
(1675526472.443416) vcan0 080#C04F8000C2002C00
(1675526472.443493) vcan0 0B0#39830EA3D4C139A3
(1675526472.443570) vcan0 145#F9B2D480FC4810A1
(1675526472.443793) vcan0 010#000000002FB031F8
(1675526472.443870) vcan0 1D0#0000000000000261
(1675526472.445175) vcan0 291#0000000000000000
(1675526472.445252) vcan0 390#80FF051D0232536F
(1675526472.445330) vcan0 008#CF80DC6000800080
(1675526472.447741) vcan0 3C8#5D87008E882C008E
(1675526472.448846) vcan0 072#F000FF3F0078A038
(1675526472.450154) vcan0 0E0#E2733BC00080A000
(1675526472.453244) vcan0 0F5#BC91D5917F67622C
(1675526472.453317) vcan0 120#E8910C927FFF5589
(1675526472.453399) vcan0 130#CFF21DFE1154FA11
(1675526472.453473) vcan0 150#CB11D797D6F787C0
(1675526472.453548) vcan0 290#0000000000000000
(1675526472.453690) vcan0 288#7FDF00FF00000080
(1675526472.454246) vcan0 010#000000002FB031F8
(1675526472.454387) vcan0 210#69E080A0A869E245
(1675526472.454462) vcan0 2A9#8C260082C0000084
(1675526472.454535) vcan0 125#E5857FE4C1D0D735
(1675526472.455407) vcan0 008#CF80EC5000800080
(1675526472.459022) vcan0 1B0#00C0000002B000FC
(1675526472.460396) vcan0 1B5#FF276CFFA4E0FFEF
(1675526472.460473) vcan0 1D8#363339343234E043
(1675526472.460552) vcan0 1E0#0018934300B917E0
(1675526472.462070) vcan0 055#E7F7E727B2009C80
(1675526472.462148) vcan0 065#EBE6E7F7FDBDD501
(1675526472.462226) vcan0 070#000017F8D5E12000
(1675526472.463103) vcan0 075#0000000000005458
(1675526472.463182) vcan0 080#C04F8000C2002C00
(1675526472.463332) vcan0 0B0#39830EA3D4C139A3
(1675526472.463410) vcan0 145#F9A2D580FC4810A1
(1675526472.463488) vcan0 28C#000020000014BEAA
(1675526472.464212) vcan0 010#000000002FB031F8
(1675526472.464292) vcan0 072#F000FF3F00788038
(1675526472.465594) vcan0 1D0#0000000000000061
(1675526472.465669) vcan0 260#D0FF0055497487B0
(1675526472.465813) vcan0 2B5#4B394A6293A62A00
(1675526472.465886) vcan0 008#CF80FC4000800080
(1675526472.465959) vcan0 340#A800000000000000
(1675526472.469460) vcan0 0E0#E2733AC800808100
(1675526472.470630) vcan0 0F5#C091D7917F6B522D
(1675526472.471938) vcan0 120#D891EB917FF85589
(1675526472.472012) vcan0 130#D7F21DFE1144FA11
(1675526472.472095) vcan0 150#C711D4A7D6F77BC0
(1675526472.474566) vcan0 125#E5857FE4C1D0D735
(1675526472.474641) vcan0 010#000000002FB031F8
(1675526472.474714) vcan0 291#0000000000000000
(1675526472.475601) vcan0 008#CF800C3000800080
(1675526472.476910) vcan0 330#B800000000000000
(1675526472.478424) vcan0 288#87DF00FF00000080
(1675526472.478497) vcan0 072#F000FF3F0078A038
(1675526472.478571) vcan0 210#69E080A0A869E245
(1675526472.479466) vcan0 1B0#00C0000001B000FC
(1675526472.480636) vcan0 1B5#FF327805A9E0FFEF
(1675526472.481943) vcan0 1D8#363339343234E043
(1675526472.482016) vcan0 1E0#001C834300B917E0
(1675526472.482090) vcan0 2C3#5D8700FFFF305450
(1675526472.482234) vcan0 055#E7F7E727B2009C80
(1675526472.482306) vcan0 065#E6E6E7F7FCBDD501
(1675526472.484924) vcan0 070#000017F8D5E12000
(1675526472.484998) vcan0 075#0000000000005458
(1675526472.485072) vcan0 080#C04F8000C2002C00
(1675526472.485214) vcan0 0B0#39830EA3D4C139A3
(1675526472.485288) vcan0 145#F992D680FC4810A1
(1675526472.485407) vcan0 290#0000000000000000
(1675526472.485486) vcan0 2C0#5D8700000000A0F1
(1675526472.485564) vcan0 2C5#00D791BBEEE60070
(1675526472.485642) vcan0 010#000000002FB031F8
(1675526472.485720) vcan0 1D0#0000000000000061
(1675526472.485799) vcan0 008#CF801C2000800080
(1675526472.487532) vcan0 0E0#E27336D000806500
(1675526472.489990) vcan0 0F5#B991CE917F6F422F
(1675526472.491437) vcan0 120#EA91E1917FFB5589
(1675526472.491515) vcan0 130#DFF41DEB1147F411
(1675526472.491592) vcan0 150#CA11D6B7D6F768C0
(1675526472.494057) vcan0 010#000000002FB031F8
(1675526472.494135) vcan0 072#F000FF3F00788038
(1675526472.494212) vcan0 2A9#8C26008AC0000084
(1675526472.494290) vcan0 125#E5857FE4C1D0D735
(1675526472.495087) vcan0 260#D0FF0055497487B0
(1675526472.496413) vcan0 008#CF802C1000800080
(1675526472.499022) vcan0 1B0#00C0000002B000FC
(1675526472.500398) vcan0 1B5#FF3E830BAFE0FFEF
(1675526472.500543) vcan0 1D8#363339343234E043
(1675526472.500615) vcan0 1E0#001C830300B917E0
(1675526472.503362) vcan0 055#E7F7E727B2009C80
(1675526472.503505) vcan0 065#E4E6E7F7FDBDD501
(1675526472.503578) vcan0 070#000017F8D5E12000
(1675526472.503653) vcan0 075#0000000000005458
(1675526472.503727) vcan0 080#C04F8000C2002C00
(1675526472.503871) vcan0 0B0#39830EA3D4C139A3
(1675526472.503955) vcan0 145#F982D780FC4810A1
(1675526472.504028) vcan0 28C#000020000014BEA9
(1675526472.504103) vcan0 288#76DF10EF00000080
(1675526472.504176) vcan0 2B5#4B39496293A62A00
(1675526472.504320) vcan0 350#A200000000000080
(1675526472.504531) vcan0 010#000000002FB031F8
(1675526472.504673) vcan0 1D0#0000000000000861
(1675526472.504747) vcan0 210#69E08020A869E245
(1675526472.504823) vcan0 291#0000000000000000
(1675526472.505918) vcan0 008#CF803C0000800080
(1675526472.508520) vcan0 072#F000FF3F0078A038
(1675526472.508598) vcan0 3B0#00D83E3837B0C402
(1675526472.509613) vcan0 0E0#E27337D800804400
(1675526472.510988) vcan0 0F5#C391CA917F733230
(1675526472.511065) vcan0 120#E291EA917FFC5589
(1675526472.511143) vcan0 130#E7F41DEA1138EF11
(1675526472.511230) vcan0 150#C611D0C7D6F75CC0
(1675526472.512459) vcan0 3CA#00000000530000C8
(1675526472.512539) vcan0 290#0000000000000000
(1675526472.513481) vcan0 010#000000002FB031F9
(1675526472.514930) vcan0 125#E5827FE4C1D0D735
(1675526472.515007) vcan0 008#CF804CF000800080
(1675526472.518735) vcan0 1B0#00C0000002B000FC
(1675526472.520111) vcan0 1B5#FF498F11B5E0FFEF
(1675526472.520254) vcan0 1D8#363339343234E043
(1675526472.521288) vcan0 1E0#0020734300B917E0
(1675526472.521361) vcan0 2C3#5D8700FFFF305450
(1675526472.524177) vcan0 055#E7F7E727B2009C80
(1675526472.524250) vcan0 065#E4E6E7F7FFBDD501
(1675526472.524324) vcan0 070#000017F8D5E12000
(1675526472.524467) vcan0 075#0000000000005458
(1675526472.524540) vcan0 080#C04F8000C2002C00
(1675526472.524623) vcan0 0B0#39830EA3D4C139A3
(1675526472.524698) vcan0 145#F972D880FC4810A1
(1675526472.524770) vcan0 370#1722C000611BC735
(1675526472.524914) vcan0 010#000000002FB031F8
(1675526472.524987) vcan0 072#F000FF3F00788038
(1675526472.525061) vcan0 1D0#0000000000000261
(1675526472.525136) vcan0 260#D0FF0055497487B0
(1675526472.525280) vcan0 008#CF805CE000800080
(1675526472.527793) vcan0 288#8BDF10EF00000080
(1675526472.529169) vcan0 210#69E080A0A869E24D
(1675526472.529247) vcan0 0E0#E2733BE000802000
(1675526472.530696) vcan0 0F5#A991C5917F772231
(1675526472.530773) vcan0 120#D791F4917FFD5589
(1675526472.530852) vcan0 130#EFF21DE8112AEF11
(1675526472.530929) vcan0 150#BC11D5D7D6F756C0
(1675526472.533242) vcan0 010#000000002FB031F8
(1675526472.533329) vcan0 291#0000000000000000
(1675526472.534344) vcan0 2A9#8C260093C0000084
(1675526472.535670) vcan0 125#E5827FE4C1D0D735
(1675526472.535815) vcan0 008#CF806CD000800080
(1675526472.538218) vcan0 072#F000FF3F0078A038
(1675526472.538293) vcan0 360#5E8700D2B364A001
(1675526472.539666) vcan0 1B0#00C0000004B000FC
(1675526472.540768) vcan0 1B5#FF559A16BBE0FFEF
(1675526472.540842) vcan0 1D8#363339343234E043
(1675526472.543657) vcan0 1E0#0024634300B917E0
(1675526472.543732) vcan0 055#E7F7E727B2009C80
(1675526472.543805) vcan0 065#E7E6E7F701BED501
(1675526472.543948) vcan0 070#000017F8D5E12000
(1675526472.544022) vcan0 075#0000000000005458
(1675526472.544096) vcan0 080#C04F8000C2002C00
(1675526472.544170) vcan0 0B0#39830EA3D4C139A3
(1675526472.544255) vcan0 145#F962D980FC4810A1
(1675526472.544399) vcan0 28C#000020000014BEA9
(1675526472.544473) vcan0 290#0000000000000000
(1675526472.544547) vcan0 2B5#4B39496293A62A00
(1675526472.544620) vcan0 010#000000002FB031F8
(1675526472.544762) vcan0 1D0#0000000000000061
(1675526472.544836) vcan0 2C0#5D8700000000A0F1
(1675526472.544911) vcan0 2C5#00D791BBE9E60070
(1675526472.546134) vcan0 340#A800000000000000
(1675526472.546212) vcan0 008#CF807CC000800080
(1675526472.546363) vcan0 390#80FF051D0232534F
(1675526472.546440) vcan0 3AF#0000000000000020
(1675526472.548751) vcan0 0E0#E2733DE80080FE00
(1675526472.550199) vcan0 0F5#B291C9917F7B1233
(1675526472.550275) vcan0 120#D191EA917FFB5589
(1675526472.550352) vcan0 130#F7F21DDF1123EC11
(1675526472.551234) vcan0 150#B511D6E7D6F74DC0
(1675526472.552608) vcan0 288#7ADF10EF00000080
(1675526472.554273) vcan0 010#000000002FB031F8
(1675526472.554351) vcan0 072#F000FF3F00788038
(1675526472.554500) vcan0 210#69E080A0A869E24D
(1675526472.554577) vcan0 330#B800000000000000
(1675526472.554653) vcan0 125#E5827FE4C1D0D735
(1675526472.555385) vcan0 260#D0FF00AA497487B0
(1675526472.555460) vcan0 008#D1808CAE00800080
(1675526472.555535) vcan0 3D0#8D0F6100340680C3
(1675526472.560539) vcan0 1B0#00C0000001B000FC
(1675526472.560613) vcan0 1B5#FF60A61CC0E0FFEF
(1675526472.560686) vcan0 1D8#363339343234E043
(1675526472.560761) vcan0 1E0#0024630300B917E0
(1675526472.560835) vcan0 2C3#5D8700FFFF315450
(1675526472.563374) vcan0 055#E7F7E727B2009C80
(1675526472.563455) vcan0 065#E8E6E7F700BED501
(1675526472.563599) vcan0 070#000017F8D5E12000
(1675526472.563673) vcan0 075#0000000000005458
(1675526472.563748) vcan0 080#C04F8000C2002C00
(1675526472.563821) vcan0 0B0#39830EA3D4C139A3
(1675526472.563963) vcan0 145#F952DA80FC4810A1
(1675526472.564587) vcan0 010#000000002FB031F8
(1675526472.564660) vcan0 1D0#0000000000000061
(1675526472.564735) vcan0 291#0000000000000000
(1675526472.564809) vcan0 008#D1809C9E00800080
(1675526472.565605) vcan0 400#010101010108010E
(1675526472.566984) vcan0 405#5E87003A002D3502
(1675526472.568504) vcan0 3C8#5D87008E882C008E
(1675526472.569661) vcan0 072#F000FF3F0078A038
(1675526472.569738) vcan0 0E0#E2733EF00080DD00
(1675526472.569817) vcan0 0F5#B091C5917F7F0234
(1675526472.570708) vcan0 120#D791CE917FFF5589
(1675526472.572012) vcan0 130#FFF21DDF1113E911
(1675526472.572090) vcan0 150#BE11D2F7D6F734C0
(1675526472.572168) vcan0 290#0000000000000000
(1675526472.574620) vcan0 125#E5827FE4C1D0D735
(1675526472.574699) vcan0 010#000000002FB031F8
(1675526472.574848) vcan0 2A9#8C26008AC0000084
(1675526472.574925) vcan0 008#D180AC8E00800080
(1675526472.577172) vcan0 288#8BDF10EF00000080
(1675526472.578548) vcan0 210#69E080A0A869E245
(1675526472.581569) vcan0 1B0#00C0000001B000FC
(1675526472.581643) vcan0 1B5#FF6CB122C6E0FFEF
(1675526472.581716) vcan0 1D8#363339343234E043
(1675526472.581790) vcan0 1E0#0028534300B917E0
(1675526472.581933) vcan0 055#E7F7E727B2009C80
(1675526472.582007) vcan0 065#E8E6E7F700BED501
(1675526472.582090) vcan0 070#000017F8D5E12000
(1675526472.582163) vcan0 075#0000000000005458
(1675526472.582651) vcan0 080#BF4F8000C2002C00
(1675526472.582724) vcan0 0B0#39830EA3D4C139A3
(1675526472.582798) vcan0 145#F942DB80FC4810A1
(1675526472.582871) vcan0 28C#000020000014BEA9
(1675526472.583767) vcan0 2B5#4B39496293A62A00
(1675526472.585144) vcan0 010#000000002FB031F8
(1675526472.585287) vcan0 072#F000FF3F00788038
(1675526472.585376) vcan0 1D0#0000000000000861
(1675526472.585451) vcan0 260#D0FF00AA497487B0
(1675526472.586689) vcan0 008#D180BC7E00800080
(1675526472.589298) vcan0 0E0#E27343F80080B800
(1675526472.590674) vcan0 0F5#A991B5917F43F236
(1675526472.590748) vcan0 120#E891DF917FFF5589
(1675526472.590891) vcan0 130#87F21DD7110BEF11
(1675526472.590973) vcan0 150#B411D707D6F72EC0
(1675526472.593240) vcan0 350#A200000000000080
(1675526472.593313) vcan0 010#000000002FB031F9
(1675526472.593387) vcan0 291#0000000000000000
(1675526472.594625) vcan0 125#E5827FE4C1D0D735
(1675526472.594700) vcan0 008#D180CC6E00800080
(1675526472.597286) vcan0 072#F000FF3F0078A038
(1675526472.599744) vcan0 1B0#00C0000002B000FC
(1675526472.602707) vcan0 1B5#FF78BD27CCE0FFEF
(1675526472.602786) vcan0 1D8#363339343234E043
(1675526472.602864) vcan0 1E0#002C434300B917E0
(1675526472.602941) vcan0 2C3#5D8700FFFF315450
(1675526472.603020) vcan0 055#E7F7E727B2009C80
(1675526472.603169) vcan0 065#E3E6E7F7FDBDD501
(1675526472.603247) vcan0 070#000017F8D5E12000
(1675526472.603323) vcan0 075#0000000000005458
(1675526472.603409) vcan0 080#BF4F8000C2002C00
(1675526472.603487) vcan0 0B0#39830EA3D4C139A3
(1675526472.603565) vcan0 145#F932DC80FC4810A1
(1675526472.603716) vcan0 290#0000000000000000
(1675526472.603793) vcan0 288#8BDF20DF00000080
(1675526472.603872) vcan0 2C0#5D8700000000A0F1
(1675526472.605175) vcan0 2C5#00D791BBE8E60070
(1675526472.605253) vcan0 010#000000002FB031F8
(1675526472.605331) vcan0 1D0#0000000000000261
(1675526472.605478) vcan0 210#69E080A0A869E24D
(1675526472.605554) vcan0 008#D380DC4E0E800080
(1675526472.607819) vcan0 0E0#E2734DC000808E00
(1675526472.610224) vcan0 0F5#9C91B2917F47E237
(1675526472.611670) vcan0 120#CE91D8917FF85589
(1675526472.611744) vcan0 130#8FF21DD711FBF111
(1675526472.611818) vcan0 150#AC11D517D6F726C0
(1675526472.613341) vcan0 010#000000002FB031F8
(1675526472.614374) vcan0 072#F000FF3F00788038
(1675526472.614448) vcan0 2A9#8C260093C0000084
(1675526472.614523) vcan0 125#E57F7FE4C1D0D735
(1675526472.614665) vcan0 260#D0FF00AA497487B0
(1675526472.615413) vcan0 008#D580EC2E1C800080
(1675526472.619100) vcan0 1B0#00C0000003B000FC
(1675526472.620619) vcan0 1B5#FF83C92DD2E0FFEF
(1675526472.620698) vcan0 1D8#363339343234E043
(1675526472.620774) vcan0 1E0#002C430300B917E0
(1675526472.621644) vcan0 055#E7F7E727B2009C80
(1675526472.624536) vcan0 065#DCE6E7F7FBBDD501
(1675526472.624613) vcan0 070#000017F8D5E12000
(1675526472.624691) vcan0 075#0000000000005458
(1675526472.624768) vcan0 080#BF4F8000C2002C00
(1675526472.624918) vcan0 0B0#39830EA3D4C139A3
(1675526472.625004) vcan0 145#F922DD80FC4810A1
(1675526472.625082) vcan0 28C#000020000014BEA9
(1675526472.625161) vcan0 2B5#4B39496293A62A00
(1675526472.625238) vcan0 340#A800000000000000
(1675526472.625315) vcan0 010#000000002FB031F8
(1675526472.625464) vcan0 1D0#0000000000000061
(1675526472.625538) vcan0 291#0000000000000000
(1675526472.625613) vcan0 370#1722C000611BC735
(1675526472.625686) vcan0 008#D580FC0F2B800080
(1675526472.628503) vcan0 288#87DF20DF00000080
(1675526472.628577) vcan0 072#F000FF3F0078A038
(1675526472.628651) vcan0 210#69E080A0A869E24D
(1675526472.629547) vcan0 3B0#00FC3E3837B0C400
(1675526472.629621) vcan0 0E0#E2734DC800806E00
(1675526472.630929) vcan0 0F5#9091B0917F4BD239
(1675526472.631072) vcan0 120#B991DB917FF55589
(1675526472.631154) vcan0 130#97F21DD711EBF111
(1675526472.631228) vcan0 150#9F11D527D6F723C0
(1675526472.632469) vcan0 3CA#00000000540000C8
(1675526472.632543) vcan0 290#0000000000000000
(1675526472.633508) vcan0 010#000000002FB031F8
(1675526472.633582) vcan0 330#B800000000000000
(1675526472.634888) vcan0 125#E57C7FE4C1D0D735
(1675526472.635031) vcan0 008#DA800CE540800080
(1675526472.637509) vcan0 360#5E8700D2B364A001
(1675526472.639969) vcan0 1B0#00C0000002B000FC
(1675526472.641417) vcan0 1B5#FF8ED433D7E0FFEF
(1675526472.641494) vcan0 1D8#363339343234E043
(1675526472.641572) vcan0 1E0#0030334300B917E0
(1675526472.641651) vcan0 2C3#5D8700FFFF315450
(1675526472.641726) vcan0 055#E7F7E727B2009C80
(1675526472.641804) vcan0 065#D7E6E7F7FBBDD501
(1675526472.641965) vcan0 070#000017F8D5E12000
(1675526472.642548) vcan0 075#0000000000005458
(1675526472.642626) vcan0 080#BF4F8000C2002C00
(1675526472.642703) vcan0 0B0#39830EA3D4C139A3
(1675526472.645231) vcan0 145#F912DE80FC4810A1
(1675526472.645386) vcan0 010#000000002FB031F8
(1675526472.645461) vcan0 072#F000FF3F00788038
(1675526472.645535) vcan0 1D0#0000000000000061
(1675526472.645609) vcan0 390#80FF051D022A554F
(1675526472.645684) vcan0 260#D0FF00AA497487B0
(1675526472.645826) vcan0 008#DC801CC44F800080
(1675526472.647889) vcan0 0E0#E2734CD000804F00
(1675526472.650359) vcan0 0F5#A591A7917F4FC23A
(1675526472.651804) vcan0 120#B991DD917FFB5589
(1675526472.651946) vcan0 130#9FF21DC911E9EF11
(1675526472.652020) vcan0 150#A511D637D6F70DC0
(1675526472.653405) vcan0 288#8FDF20DF00000080
(1675526472.653478) vcan0 010#000000002FB031F8
(1675526472.654445) vcan0 210#69E08020A869E245
(1675526472.654587) vcan0 291#0000000000000000
(1675526472.654661) vcan0 125#E5747FE4C1D0D735
(1675526472.654737) vcan0 2A9#8C26008AC0000084
(1675526472.654809) vcan0 008#DE802CA45D800080
(1675526472.656998) vcan0 072#F000FF3F0078A038
(1675526472.659815) vcan0 1B0#00C0000003B000FC
(1675526472.659892) vcan0 1B5#FF9AE038DDE0FFEF
(1675526472.660907) vcan0 1D8#363339343234E043
(1675526472.660986) vcan0 1E0#0034234300B917E0
(1675526472.661063) vcan0 055#E7F7E727B2009C80
(1675526472.661933) vcan0 065#D3E6E7F7FDBDD401
(1675526472.663455) vcan0 070#000017F8D4E12000
(1675526472.663533) vcan0 075#0000000000005458
(1675526472.663630) vcan0 080#BF4F8000C2002C00
(1675526472.663708) vcan0 0B0#39830EA3D4C139A3
(1675526472.663786) vcan0 145#F902DF80FC4810A1
(1675526472.663865) vcan0 28C#000020000014BEA9
(1675526472.663941) vcan0 290#0000000000000000
(1675526472.666352) vcan0 2B5#4B39496293A62A00
(1675526472.666425) vcan0 010#000000002FB031F8
(1675526472.666501) vcan0 1D0#0000000000000861
(1675526472.666575) vcan0 2C0#5D8700000000A0F1
(1675526472.666717) vcan0 2C5#00D790BBE1E60070
(1675526472.666792) vcan0 3AF#0000000000000020
(1675526472.666865) vcan0 008#E1803C836B800080
(1675526472.668855) vcan0 0E0#E27349D800803200
(1675526472.670301) vcan0 0F5#9591A3917F53B23C
(1675526472.670375) vcan0 120#C591C9917FFA5589
(1675526472.670450) vcan0 130#A7F21DC911D9EF11
(1675526472.670533) vcan0 150#A211D947D6F700C0
(1675526472.672935) vcan0 125#E56F7FE4C1D0D735
(1675526472.674311) vcan0 260#D0FF0055497487B0
(1675526472.675344) vcan0 010#000000002FB031F9
(1675526472.675483) vcan0 008#E3804C5B81800080
(1675526472.676788) vcan0 072#F000FF3F00788038
(1675526472.678237) vcan0 288#87DF20DF00000080
(1675526472.678315) vcan0 210#68E080A0A869E245
(1675526472.679403) vcan0 1B0#00C0000005B000FC
(1675526472.682292) vcan0 1B5#FFA5EB3EE3E0FFEF
(1675526472.682370) vcan0 1D8#363339343234E043
(1675526472.682449) vcan0 1E0#0034230300B917E0
(1675526472.682526) vcan0 2C3#5D8700FFFF315450
(1675526472.682604) vcan0 055#E7F7E727B2009C80
(1675526472.682754) vcan0 065#D5E6E7F700BED401
(1675526472.682834) vcan0 070#000017F8D4E12000
(1675526472.682919) vcan0 075#0000000000005458
(1675526472.682998) vcan0 080#BF4F8000C2002C00
(1675526472.683076) vcan0 0B0#39830EA3D4C139A3
(1675526472.683153) vcan0 145#F9F2D080FC4810A1
(1675526472.683377) vcan0 350#A200000000000080
(1675526472.684752) vcan0 010#000000002FB031F8
(1675526472.684831) vcan0 1D0#0000000000000261
(1675526472.684909) vcan0 291#0000000000000000
(1675526472.685058) vcan0 008#E5805C2C9E800080
(1675526472.687415) vcan0 3C8#5D87008E882C008E
(1675526472.688792) vcan0 072#F000FF3F0078A038
(1675526472.688867) vcan0 0E0#E2734AE000801100
(1675526472.690311) vcan0 0F5#8991A1917F57A23D
(1675526472.690386) vcan0 120#C091B9917FFD5589
(1675526472.690458) vcan0 130#AFF41DC911C9F411
(1675526472.690534) vcan0 150#9711D657D5F7FBC0
(1675526472.691438) vcan0 290#0000000000000000
(1675526472.693842) vcan0 010#000000002FB031F8
(1675526472.695285) vcan0 2A9#8C260082C0000084
(1675526472.695407) vcan0 125#E5667FE4C1D0D735
(1675526472.695488) vcan0 008#EA806C02B3800080
(1675526472.699099) vcan0 1B0#00C0000002B000FC
(1675526472.700547) vcan0 1B5#FFB1F744E9E0FFEF
(1675526472.700625) vcan0 1D8#363339343234E043
(1675526472.700704) vcan0 1E0#0038134300B917E0
(1675526472.701648) vcan0 055#E7F7E727B2009C80
(1675526472.704537) vcan0 065#D9E6E7F702BED401
(1675526472.704615) vcan0 070#000017F8D4E12000
(1675526472.704767) vcan0 075#0000000000005458
(1675526472.704845) vcan0 080#BF4F8000C2002C00
(1675526472.704922) vcan0 0B0#39830EA3D4C139A3
(1675526472.704999) vcan0 145#F9E2D180FC4810A1
(1675526472.705085) vcan0 28C#000020000014BEA9
(1675526472.705164) vcan0 288#83DF30CF00000080
(1675526472.705241) vcan0 2B5#4B39496293A62A00
(1675526472.705394) vcan0 340#A800000000000000
(1675526472.705469) vcan0 010#000000002FB031F8
(1675526472.705542) vcan0 072#F000FF3F00788038
(1675526472.705616) vcan0 1D0#0000000000000061
(1675526472.705759) vcan0 210#68E080A0A869E245
(1675526472.705835) vcan0 260#D0FF0055497487B0
(1675526472.706114) vcan0 008#EC807CE1C2800080
(1675526472.708587) vcan0 0E0#E27348E80080F300
(1675526472.710031) vcan0 0F5#8C91A1917F5B923E
(1675526472.710106) vcan0 120#B591C9917FFE5589
(1675526472.710179) vcan0 130#B7F21DC011C2EF11
(1675526472.711145) vcan0 150#9411D567D4F7EEC0
(1675526472.713616) vcan0 010#000000002FB031F8
(1675526472.715012) vcan0 291#0000000000000000
(1675526472.715086) vcan0 330#B800000000000000
(1675526472.715161) vcan0 125#E5607FE4C1D0D735
(1675526472.715303) vcan0 425#0000000000000000
(1675526472.715416) vcan0 008#F1808CCCC2800080
(1675526472.717660) vcan0 072#F000FF3F0078A038
(1675526472.719972) vcan0 1B0#00C0000001B000FC
(1675526472.722787) vcan0 1B5#FFBC024AEEE0FFEF
(1675526472.722864) vcan0 1D8#363339343234E043
(1675526472.722944) vcan0 1E0#003C034300B917E0
(1675526472.723092) vcan0 2C3#5D8700FFFF325450
(1675526472.723169) vcan0 055#E7F7E727B2009C80
(1675526472.723247) vcan0 065#DCE6E7F702BED401
(1675526472.723326) vcan0 070#000018F8D4E12000
(1675526472.723401) vcan0 075#0000000000005458
(1675526472.723552) vcan0 080#BF4F8000C2002C00
(1675526472.723638) vcan0 0B0#39830EA3D4C139A3
(1675526472.723716) vcan0 145#F9D2D280FC4810A1
(1675526472.723795) vcan0 290#0000000000000000
(1675526472.723871) vcan0 2C0#5D8700000000A0F1
(1675526472.723950) vcan0 2C5#00D790BCDBE60070
(1675526472.724028) vcan0 010#000000002FB031F8
(1675526472.725257) vcan0 1D0#0000000000000061
(1675526472.725410) vcan0 370#1722C000611BC735
(1675526472.725484) vcan0 3E0#000000D932808090
(1675526472.725557) vcan0 008#F3809CB3C9800080
(1675526472.727890) vcan0 288#5EDF30CF00000080
(1675526472.728992) vcan0 210#68E080A0A869E24D
(1675526472.730298) vcan0 0E0#E27347F00080D400
(1675526472.730374) vcan0 0F5#9091AC917F5F8240
(1675526472.731748) vcan0 120#B991C3917FFD5589
(1675526472.731891) vcan0 130#BFF21DC011B2EF11
(1675526472.731973) vcan0 150#9A11CF77D3F7D8C0
(1675526472.732802) vcan0 010#000000002FB031F8
(1675526472.733903) vcan0 072#F000FF3F00788038
(1675526472.735279) vcan0 2A9#8C26009BC0000084
(1675526472.735352) vcan0 125#E55C7FE4C1D0D735
(1675526472.735496) vcan0 260#D0FF0055497487B0
(1675526472.735574) vcan0 008#F580ACA8C2800080
(1675526472.737888) vcan0 360#5E8700D2B364A001
(1675526472.740274) vcan0 1B0#00C0000002B000FC
(1675526472.743094) vcan0 1B5#FFC80E4FF4E0FFEF
(1675526472.743171) vcan0 1D8#363339343234E043
(1675526472.743249) vcan0 1E0#003C030300B917E0
(1675526472.743325) vcan0 055#E6F7E627B2009C80
(1675526472.743402) vcan0 065#DBE6E7F700BED401
(1675526472.743553) vcan0 070#000018F8D4E12000
(1675526472.743630) vcan0 075#0000000000005458
(1675526472.743716) vcan0 080#BF4F8000C2002C00
(1675526472.743795) vcan0 0B0#39830EA3D4C139A3
(1675526472.743872) vcan0 145#F9C2D380FC4810A1
(1675526472.743949) vcan0 28C#000020000014BEA9
(1675526472.744027) vcan0 2B5#4B39496293A62900
(1675526472.744178) vcan0 010#000000002FB031F8
(1675526472.744256) vcan0 1D0#0000000000000861
(1675526472.744334) vcan0 291#0000000000000000
(1675526472.745561) vcan0 390#80FF051D022A554F
(1675526472.745634) vcan0 008#F880BC95C2800080
(1675526472.748105) vcan0 072#F000FF3F0078A038
(1675526472.749139) vcan0 3B0#00D83E3837B0C400
(1675526472.750583) vcan0 0E0#E27346F80080B500
(1675526472.750657) vcan0 0F5#83919D917F637241
(1675526472.750730) vcan0 120#BE91B5917FFF5589
(1675526472.753545) vcan0 130#C7F21DC011A2F111
(1675526472.753629) vcan0 150#9811C787D2F7CAC0
(1675526472.753703) vcan0 3CA#00000000550000C8
(1675526472.753779) vcan0 290#0000000000000000
(1675526472.753921) vcan0 288#62DF30CF00000080
(1675526472.753994) vcan0 010#000000002FB031F9
(1675526472.754069) vcan0 210#68E080A0A869E24D
(1675526472.754621) vcan0 3D0#8D0F6100340680C3
(1675526472.754696) vcan0 125#E5567FE4C1D0D735
(1675526472.754770) vcan0 008#FA80CC7CC9800080
(1675526472.757150) vcan0 430#28082800000014A6
(1675526472.759607) vcan0 1B0#00C0000002B000FC
(1675526472.762570) vcan0 1B5#FFD31955FAE0FFEF
(1675526472.762649) vcan0 1D8#363339343234E043
(1675526472.762725) vcan0 1E0#0000F34300B917E0
(1675526472.762804) vcan0 2C3#5D8700FFFF325450
(1675526472.762953) vcan0 055#E6F7E627B2009C80
(1675526472.763040) vcan0 065#D7E6E6F7FDBDD401
(1675526472.763117) vcan0 070#000018F8D4E12000
(1675526472.763196) vcan0 075#0000000000005458
(1675526472.763272) vcan0 080#BE4F8000C2002C00
(1675526472.763350) vcan0 0B0#39830EA3D4C139A3
(1675526472.763428) vcan0 145#F9B2D480FC4810A1
(1675526472.763649) vcan0 010#000000002FB031F8
(1675526472.764665) vcan0 072#F000FF3F00788038
(1675526472.766013) vcan0 1D0#0000000000000261
(1675526472.766088) vcan0 260#D0FF00AA497487B0
(1675526472.766162) vcan0 008#FC80DC6AC9800080
(1675526472.768634) vcan0 0E0#E27346C000809500
(1675526472.770012) vcan0 0F5#7B9198917F676243
(1675526472.770086) vcan0 120#AE91B7917FFE5589
(1675526472.770227) vcan0 130#CFF21DBE1194F711
(1675526472.771192) vcan0 150#8D11CA97D1F7C5C0
(1675526472.772580) vcan0 350#A200000000000080
(1675526472.774093) vcan0 125#E5507FE4C1D0D735
(1675526472.775129) vcan0 010#000000002FB031F8
(1675526472.775202) vcan0 291#0000000000000000
(1675526472.775277) vcan0 008#FE80EC5FC2800080
(1675526472.775350) vcan0 2A9#8C260082C0000084
(1675526472.777652) vcan0 288#66DF30CF00000080
(1675526472.779027) vcan0 072#F000FF3F0078A038
(1675526472.779176) vcan0 210#68E080A0A869E245
(1675526472.782067) vcan0 1B0#00C0000001B000FC
(1675526472.782146) vcan0 1B5#FFDF255BFFE0FFEF
(1675526472.782222) vcan0 1D8#363339343234E043
(1675526472.782301) vcan0 1E0#0004E34300B917E0
(1675526472.782377) vcan0 055#E6F7E627B2009C80
(1675526472.782456) vcan0 065#D1E6E6F7FBBDD401
(1675526472.782606) vcan0 070#000018F8D4E12000
(1675526472.782693) vcan0 075#0000000000005458
(1675526472.782770) vcan0 080#BE4F8000C2002C00
(1675526472.782847) vcan0 0B0#39830EA3D3C139A3
(1675526472.783142) vcan0 145#F9A2D580FC4810A1
(1675526472.783219) vcan0 28C#000020000014BEA9
(1675526472.783297) vcan0 290#0000000000000000
(1675526472.783375) vcan0 2B5#4B39496293A62900
(1675526472.784246) vcan0 010#000000002FB031F8
(1675526472.785615) vcan0 1D0#0000000000000061
(1675526472.785690) vcan0 2C0#5D8700000000A0F1
(1675526472.785832) vcan0 2C5#00D790BCDBE60070
(1675526472.785906) vcan0 340#A800000000000000
(1675526472.785980) vcan0 008#FE80FC5EB3800080
(1675526472.786054) vcan0 3AF#0000000000000020
(1675526472.788251) vcan0 0E0#E27344C800807700
(1675526472.789698) vcan0 0F5#7D9198917F6B5244
(1675526472.790743) vcan0 120#A391BA917FF75589
(1675526472.793489) vcan0 130#D7F21DB7118BF111
(1675526472.793632) vcan0 150#8411CBA7CFF7BEC0
(1675526472.793706) vcan0 010#000000002FB031F8
(1675526472.793778) vcan0 072#F000FF3F00788038
(1675526472.793854) vcan0 330#B800000000000000
(1675526472.794681) vcan0 125#E54D7FE4C1D0D735
(1675526472.794755) vcan0 260#D0FF00AA497487B0
(1675526472.796063) vcan0 008#01810C4AB3800080
(1675526472.798592) vcan0 1B0#00C0000001B000FC
(1675526472.800040) vcan0 1B5#FFEA306005E0FFEF
(1675526472.800118) vcan0 1D8#363339343234E043
(1675526472.801141) vcan0 1E0#0004E30300B917E0
(1675526472.804024) vcan0 2C3#5D8700FFFF325450
(1675526472.804100) vcan0 055#E6F7E627B2009C80
(1675526472.804251) vcan0 065#CCE6E6F7FBBDD401
(1675526472.804337) vcan0 070#000018F8D4E12000
(1675526472.804415) vcan0 075#0000000000005458
(1675526472.804492) vcan0 080#BE4F8000C2002C00
(1675526472.804570) vcan0 0B0#39830EA3D3C139A3
(1675526472.804647) vcan0 145#F992D680FC4810A1
(1675526472.804725) vcan0 288#56DF40BF00000080
(1675526472.804876) vcan0 010#000000002FB031F8
(1675526472.804952) vcan0 1D0#0000000000000061
(1675526472.805031) vcan0 210#68E08020A869E24D
(1675526472.805109) vcan0 291#0000000000000000
(1675526472.805186) vcan0 008#03811C5497800080
(1675526472.807676) vcan0 3C8#5D87008E882C008E
(1675526472.809052) vcan0 072#F000FF3F0078A038
(1675526472.809142) vcan0 0E0#E27344D000805700
(1675526472.810569) vcan0 0F5#879197917F6F4246
(1675526472.810644) vcan0 120#9C91C3917FF85589
(1675526472.810725) vcan0 130#DFF41DB01182F411
(1675526472.810800) vcan0 150#8711CAB7CEF7ABC0
(1675526472.811630) vcan0 290#0000000000000000
(1675526472.814173) vcan0 010#000000002FB031F8
(1675526472.815559) vcan0 2A9#8C26009BC0000084
(1675526472.815636) vcan0 400#010302040101010F
(1675526472.815714) vcan0 125#E54D7FE4C1D0D735
(1675526472.815792) vcan0 405#0000000000000000
(1675526472.815941) vcan0 008#03812C5388800080
(1675526472.819405) vcan0 1B0#00C0000001B000FC
(1675526472.820782) vcan0 1B5#FFF63B660BE0FFEF
(1675526472.820931) vcan0 1D8#363339343234E043
(1675526472.821008) vcan0 1E0#0008D34300B917E0
(1675526472.821880) vcan0 055#E6F7E627B2009C80
(1675526472.821956) vcan0 065#CAE6E6F7FEBDD401
(1675526472.824844) vcan0 070#000018F8D4E12000
(1675526472.824931) vcan0 075#0000000000005458
(1675526472.825010) vcan0 080#BE4F8000C2002C00
(1675526472.825088) vcan0 0B0#39830EA3D3C139A3
(1675526472.825236) vcan0 145#F982D780FC4810A1
(1675526472.825315) vcan0 28C#000020000014BEA9
(1675526472.825394) vcan0 2B5#4B39496293A62900
(1675526472.825467) vcan0 370#1722C000611BC735
(1675526472.825542) vcan0 010#000000002FB031F8
(1675526472.825683) vcan0 072#F000FF3F00788038
(1675526472.825758) vcan0 1D0#0000000000000861
(1675526472.825833) vcan0 260#D0FF00AA497487B0
(1675526472.825906) vcan0 008#03813C4A81800080
(1675526472.827420) vcan0 288#52DF40BF00000080
(1675526472.828794) vcan0 210#68E080A0A869E24D
(1675526472.828937) vcan0 0E0#E27349D800803200
(1675526472.830313) vcan0 0F5#769195917F733247
(1675526472.830396) vcan0 120#A791CC917FFA5589
(1675526472.830470) vcan0 130#E7F41DB01172F411
(1675526472.830544) vcan0 150#8B11C5C7CDF797C0
(1675526472.832879) vcan0 010#000000002FB031F9
(1675526472.834323) vcan0 291#0000000000000000
(1675526472.834398) vcan0 125#E54A7FE4C1D0D735
(1675526472.835406) vcan0 008#05814C4673800080
(1675526472.837942) vcan0 072#F000FF3F0078A038
(1675526472.839317) vcan0 360#5E8700D2B364A001
(1675526472.840404) vcan0 1B0#00C0000003B000FC
(1675526472.843292) vcan0 1B5#FF01476B10E0FFEF
(1675526472.843372) vcan0 1D8#363339343234E043
(1675526472.843450) vcan0 1E0#000CC34300B917E0
(1675526472.843525) vcan0 2C3#5D8700FFFF325450
(1675526472.843604) vcan0 055#E6F7E727B2009C80
(1675526472.843681) vcan0 065#CEE6E6F701BED401
(1675526472.843840) vcan0 070#000018F8D5E12000
(1675526472.843920) vcan0 075#0000000000005458
(1675526472.843997) vcan0 080#C04F8000C2002C00
(1675526472.844075) vcan0 0B0#39830EA3D3C139A3
(1675526472.844152) vcan0 145#F972D880FC4810A1
(1675526472.844230) vcan0 290#0000000000000000
(1675526472.844380) vcan0 2C0#5D8700000000A0F1
(1675526472.844458) vcan0 010#000000002FB031F8
(1675526472.844536) vcan0 1D0#0000000000000261
(1675526472.844758) vcan0 2C5#00D78FBCD0E60070
(1675526472.844908) vcan0 390#80FF051D0222574F
(1675526472.844986) vcan0 008#05815C3673800080
(1675526472.847346) vcan0 0E0#E2734FE000800C00
(1675526472.849886) vcan0 0F5#749190917F772248
(1675526472.851260) vcan0 120#9A91A5917FFB5589
(1675526472.851403) vcan0 130#EFF21DB01162F411
(1675526472.851498) vcan0 150#8111CAD7CBF791C0
(1675526472.852878) vcan0 288#5EDF40BF00000080
(1675526472.853978) vcan0 010#000000002FB031F8
(1675526472.854121) vcan0 072#F000FF3F00788038
(1675526472.854196) vcan0 210#68E080A0A869E245
(1675526472.854269) vcan0 125#E54A7FE4C1D0D735
(1675526472.855096) vcan0 2A9#8C260082C0000084
(1675526472.855170) vcan0 260#D0FF0055497487B0
(1675526472.856423) vcan0 008#07816C3A5D800080
(1675526472.860394) vcan0 1B0#00C0000001B000FC
(1675526472.860471) vcan0 1B5#FF0C527116E0FFEF
(1675526472.860621) vcan0 1D8#363339343234E043
(1675526472.860700) vcan0 1E0#000CC30300B917E0
(1675526472.861932) vcan0 055#E6F7E927B20A9C81
(1675526472.862011) vcan0 065#D1E6E6F703BED401
(1675526472.862088) vcan0 070#000018F8D9E12000
(1675526472.862175) vcan0 075#0000000000005458
(1675526472.862253) vcan0 080#DB4F8000C2002C00
(1675526472.863052) vcan0 0B0#39830EA3D3C139A3
(1675526472.863129) vcan0 145#F962D980FC4810A1
(1675526472.865788) vcan0 28C#000020000014FEA9
(1675526472.865863) vcan0 2B5#4B39486293A62C03
(1675526472.865937) vcan0 340#A800000000000000
(1675526472.866079) vcan0 010#000000002FB031F8
(1675526472.866153) vcan0 1D0#0000000000000061
(1675526472.866229) vcan0 291#0000000000000000
(1675526472.866301) vcan0 350#A200000000000080
(1675526472.866375) vcan0 008#07817C384F800080
(1675526472.868438) vcan0 072#F000FF3F0078A038
(1675526472.871319) vcan0 0E0#E27353E80080E800
(1675526472.871393) vcan0 3B0#00D83E3837B0C400
(1675526472.871467) vcan0 0F5#799197917F7B124A
(1675526472.871549) vcan0 120#A591A1917FF75589
(1675526472.871692) vcan0 130#F7F21DA5115DEF11
(1675526472.871766) vcan0 150#8511C8E7CAF77DC0
(1675526472.871840) vcan0 3CA#00000000560000C8
(1675526472.872462) vcan0 290#0000000000000000
(1675526472.873770) vcan0 125#E54A7FE4C1D0D735
(1675526472.875284) vcan0 010#000000002FB031F8
(1675526472.875357) vcan0 330#B800000000000000
(1675526472.875480) vcan0 008#07818C284F800080
(1675526472.877884) vcan0 288#4DDF40BF00000080
(1675526472.879057) vcan0 210#68E080A0A869E245
(1675526472.880433) vcan0 1B0#00C0000001B000FC
(1675526472.883386) vcan0 1B5#FF185E771CE0FFEF
(1675526472.883461) vcan0 1D8#363339343234E043
(1675526472.883603) vcan0 1E0#0010B34300B917E0
(1675526472.883677) vcan0 2C3#5D8700FFFF335450
(1675526472.883761) vcan0 055#E6F7EB27B2159C81
(1675526472.883835) vcan0 065#D5E6E8F703BED701
(1675526472.883976) vcan0 070#000018F8DCE12000
(1675526472.884050) vcan0 075#0000000000005458
(1675526472.884124) vcan0 080#E14F8000C2002C00
(1675526472.884198) vcan0 0B0#39830EA3D3C139A3
(1675526472.884271) vcan0 145#F952DA80FC4810A1
(1675526472.884414) vcan0 010#000000002FB031F8
(1675526472.884489) vcan0 072#F000FF3F00788038
(1675526472.884562) vcan0 1D0#0000000000000061
(1675526472.884637) vcan0 260#D0FF0055497487B0
(1675526472.885881) vcan0 008#0A819C2440800080
(1675526472.888489) vcan0 0E0#E27353F00080C800
(1675526472.889935) vcan0 0F5#729191917F7F024B
(1675526472.890007) vcan0 120#A391B7917FF65589
(1675526472.891042) vcan0 130#FFF21DA5114DF111
(1675526472.891126) vcan0 150#7D11C3F7C9F775C0
(1675526472.893530) vcan0 010#000000002FB031F8
(1675526472.895949) vcan0 291#0000000000000000
(1675526472.896024) vcan0 2A9#8C26008AC0000084
(1675526472.896167) vcan0 125#E5487FE4C1D0D735
(1675526472.896241) vcan0 008#0C81AC1240800080
(1675526472.897550) vcan0 072#F000FF3F0078A038
(1675526472.900022) vcan0 1B0#00C0000001B000FC
(1675526472.902974) vcan0 1B5#FF23697C21E0FFEF
(1675526472.903048) vcan0 1D8#363339343234E043
(1675526472.903122) vcan0 1E0#0014A34300B917E0
(1675526472.903196) vcan0 055#E6F7ED27B21E9C81
(1675526472.903339) vcan0 065#D2E6EAF700BEDC01
(1675526472.903412) vcan0 070#000018F8E0E12000
(1675526472.903485) vcan0 075#0000000000005458
(1675526472.903560) vcan0 080#E64F8000C2002C00
(1675526472.903650) vcan0 0B0#39830EA3D4C139A3
(1675526472.903794) vcan0 145#F942DB80FC4810A1
(1675526472.903869) vcan0 28C#000020000014FEA9
(1675526472.903943) vcan0 288#56DF50AF00000080
(1675526472.904017) vcan0 290#0000000000000000
(1675526472.905561) vcan0 010#000000002FB031F8
(1675526472.905641) vcan0 1D0#0000000000000861
(1675526472.905718) vcan0 210#68E080A0A869E245
(1675526472.905797) vcan0 2B5#4B39486293A64A07
(1675526472.905947) vcan0 2C0#5D8700000000A0F1
(1675526472.906023) vcan0 008#0E81BCF14F800080
(1675526472.906102) vcan0 2C5#00D78FBCD3E60070
(1675526472.906179) vcan0 3AF#0000000000000020
(1675526472.909502) vcan0 0E0#E27354F80080A700
(1675526472.909652) vcan0 0F5#6D9195917F43F24D
(1675526472.910668) vcan0 120#8791B5917FFD5589
(1675526472.911979) vcan0 130#87F21DA5113DF411
(1675526472.912131) vcan0 150#7F11C607C8F763C0
(1675526472.913506) vcan0 010#000000002FB031F9
(1675526472.913584) vcan0 072#F000FF3F00788038
(1675526472.914670) vcan0 125#E5437FE4C1D0D735
(1675526472.914748) vcan0 260#D0FF0055497487B0
(1675526472.914825) vcan0 008#1181CCD05D800080
(1675526472.918354) vcan0 1B0#00C0000002B000FC
(1675526472.919800) vcan0 1B5#FF2F758227E0FFEF
(1675526472.920900) vcan0 1D8#363339343234E043
(1675526472.923849) vcan0 1E0#0014A30300B917E0
(1675526472.923924) vcan0 2C3#5D8700FFFF335450
(1675526472.923997) vcan0 055#E7F7EF27B2249C81
(1675526472.924071) vcan0 065#CCE6ECF7FDBDE001
(1675526472.924213) vcan0 070#000017F8E4E12000
(1675526472.924289) vcan0 075#0000000000005458
(1675526472.924370) vcan0 080#E94F8000C2002C00
(1675526472.924443) vcan0 0B0#39830EA3D5C139A3
(1675526472.924587) vcan0 145#F932DC80FC4810A1
(1675526472.924661) vcan0 370#1722C000611BC735
(1675526472.924735) vcan0 010#000000002FB031F8
(1675526472.924808) vcan0 1D0#0000000000000261
(1675526472.924953) vcan0 291#0000000000000000
(1675526472.925026) vcan0 008#1381DCB764800080
(1675526472.927365) vcan0 288#52DF50AF00000080
(1675526472.928816) vcan0 3C8#5D87008E882C008E
(1675526472.928894) vcan0 072#F000FF3F0078A038
(1675526472.928971) vcan0 210#68E080A0A869E24D
(1675526472.929049) vcan0 0E0#E27351C000808A00
(1675526472.930281) vcan0 0F5#649180917F47E24E
(1675526472.930433) vcan0 120#74919A917FF95589
(1675526472.930510) vcan0 130#8FF21DA5112DF711
(1675526472.930595) vcan0 150#7511C517C7F75DC0
(1675526472.931394) vcan0 290#0000000000000000
(1675526472.933849) vcan0 010#000000002FB031F8
(1675526472.935296) vcan0 2A9#8C260093C0000084
(1675526472.935378) vcan0 125#E53A7FE4C1D0D735
(1675526472.935453) vcan0 008#1581EC9673800080
(1675526472.937925) vcan0 360#5E8700D2B364A001
(1675526472.940398) vcan0 1B0#00C0000003B000FC
(1675526472.943281) vcan0 1B5#FF3A80882DE0FFEF
(1675526472.943353) vcan0 1D8#363339343234E043
(1675526472.943497) vcan0 1E0#0018934300B917E0
(1675526472.943571) vcan0 055#E8F7F127B2279C80
(1675526472.943644) vcan0 065#C6E6EEF7FABDE401
(1675526472.943718) vcan0 070#000016F8E7E12000
(1675526472.943862) vcan0 075#0000000000005458
(1675526472.943935) vcan0 080#EC4F8000C2002C00
(1675526472.944019) vcan0 0B0#39830EA3D7C139A3
(1675526472.944093) vcan0 145#F922DD80FC4810A1
(1675526472.944237) vcan0 28C#000020000014FEA9
(1675526472.944311) vcan0 2B5#4B39486293A6520B
(1675526472.944386) vcan0 340#A800000000000000
(1675526472.944459) vcan0 010#000000002FB031F8
(1675526472.944533) vcan0 072#F000FF3F00788038
(1675526472.945842) vcan0 1D0#0000000000000061
(1675526472.945919) vcan0 390#80FF051D0222574F
(1675526472.945997) vcan0 260#D0FF0055497487B0
(1675526472.946075) vcan0 008#1781FC7681800080
(1675526472.948390) vcan0 0E0#E2734FC800806C00
(1675526472.949765) vcan0 0F5#669180917F4BD250
(1675526472.950924) vcan0 120#859198917FF85589
(1675526472.951003) vcan0 130#97F21D9A1128F111
(1675526472.952308) vcan0 150#7111C327C6F751C0
(1675526472.952467) vcan0 350#A200000000000080
(1675526472.953916) vcan0 288#49DF50AF00000080
(1675526472.953994) vcan0 010#000000002FB031F8
(1675526472.954146) vcan0 210#67E08020A869E24D
(1675526472.954222) vcan0 291#0000000000000000
(1675526472.954299) vcan0 125#E5347FE4C1D0D735
(1675526472.955025) vcan0 330#B800000000000000
(1675526472.955104) vcan0 3D0#8D0F6100340680C3
(1675526472.955182) vcan0 008#1C810C4B97800080
(1675526472.957529) vcan0 072#F000FF3F0078A038
(1675526472.960278) vcan0 1B0#00C0000001B000FC
(1675526472.960420) vcan0 1B5#FF458B8D32E0FFEF
(1675526472.960493) vcan0 1D8#363339343234E043
(1675526472.960567) vcan0 1E0#001C834300B917E0
(1675526472.961395) vcan0 2C3#5D8700FFFF335450
(1675526472.961468) vcan0 055#E9F7F327B2279C80
(1675526472.964293) vcan0 065#C4E6F0F7FDBDE701
(1675526472.964368) vcan0 070#000015F8EAE12000
(1675526472.964442) vcan0 075#0000000000005458
(1675526472.964516) vcan0 080#ED4F8000C2002C00
(1675526472.964659) vcan0 0B0#39830EA3D8C139A3
(1675526472.964733) vcan0 145#F912DE80FC4810A1
(1675526472.964806) vcan0 290#0000000000000000
(1675526472.964880) vcan0 2C0#5D8700000000A0F1
(1675526472.965022) vcan0 2C5#00D78FBCC7E60070
(1675526472.965097) vcan0 010#000000002FB031F8
(1675526472.965171) vcan0 1D0#0000000000000061
(1675526472.965488) vcan0 008#1E811C2BA5800080
(1675526472.967948) vcan0 0E0#E27350D000804B00
(1675526472.970406) vcan0 0F5#679172917F4FC251
(1675526472.971782) vcan0 120#91919F917FF35589
(1675526472.971860) vcan0 130#9FF21D98111AF711
(1675526472.971956) vcan0 150#7011C237C5F742C0
(1675526472.974340) vcan0 125#E52D7FE4C1D0D735
(1675526472.974419) vcan0 010#000000002FB031F8
(1675526472.974568) vcan0 072#F000FF3F00788038
(1675526472.975526) vcan0 008#23812C08B3800080
(1675526472.976904) vcan0 260#D0FF00AA497487B0
(1675526472.977047) vcan0 2A9#8C26008AC0000084
(1675526472.978425) vcan0 288#39DF50AF00000080
(1675526472.978499) vcan0 210#67E080A0A869E245
(1675526472.979532) vcan0 1B0#00C0000002B000FC
(1675526472.980633) vcan0 1B5#FF50979338E0FFEF
(1675526472.982078) vcan0 1D8#363339343234E043
(1675526472.982152) vcan0 1E0#001C830300B917E0
(1675526472.982225) vcan0 055#E9F7F427B2279C80
(1675526472.982300) vcan0 065#C7E6F2F700BEE901
(1675526472.985048) vcan0 070#000015F8EDE12000
(1675526472.985133) vcan0 075#0000000000005458
(1675526472.985276) vcan0 080#EE4F8000C2002C00
(1675526472.985349) vcan0 0B0#39830EA3D8C139A3
(1675526472.985463) vcan0 145#F902DF80FC4810A1
(1675526472.985539) vcan0 28C#000020000014FEA9
(1675526472.985613) vcan0 2B5#4B39486293A65212
(1675526472.985688) vcan0 010#000000002FB031F8
(1675526472.985761) vcan0 1D0#0000000000000861
(1675526472.985903) vcan0 291#0000000000000000
(1675526472.985978) vcan0 008#25813CE0C9800080
(1675526472.987629) vcan0 072#F000FF3F0078A038
(1675526472.989076) vcan0 3B0#00D83E3C37B0C400
(1675526472.989149) vcan0 0E0#E27354D800802700
(1675526472.992032) vcan0 0F5#5A917B917F53B252
(1675526472.992176) vcan0 120#7691A3917FF85589
(1675526472.992249) vcan0 130#A7F21D98110AF711
(1675526472.992340) vcan0 150#6E11BC47C5F734C0
(1675526472.992415) vcan0 3CA#00000000400000C8
(1675526472.992489) vcan0 290#0000000000000000
(1675526472.993111) vcan0 010#000000002FB031F9
(1675526472.994556) vcan0 125#E5277FE4C1D0D735
(1675526472.994630) vcan0 008#2A814CC4D0800080
(1675526472.998437) vcan0 1B0#00C0000002B000FC
(1675526472.999740) vcan0 1B5#FF5CA2993EE0FFEF
(1675526473.000900) vcan0 1D8#363339343234E043
(1675526473.003791) vcan0 1E0#0020734300B917E0
(1675526473.003869) vcan0 2C3#5D8700FFFF335450
(1675526473.004019) vcan0 055#E9F7F627B2279C80
(1675526473.004096) vcan0 065#CFE6F4F705BEED01
(1675526473.004173) vcan0 070#000015F8EFE12000
(1675526473.004251) vcan0 075#0000000000005458
(1675526473.004329) vcan0 080#EE4F8000C2002C00
(1675526473.004417) vcan0 0B0#39830EA3D8C139A3
(1675526473.004565) vcan0 145#F9F2D080FC4810A1
(1675526473.004643) vcan0 288#41DF609F00000080
(1675526473.004721) vcan0 010#000000002FB031F8
(1675526473.004799) vcan0 072#F000FF3F00788038
(1675526473.004877) vcan0 1D0#0000000000000261
(1675526473.005027) vcan0 210#67E080A0A869E24D
(1675526473.005105) vcan0 008#2C815C9CE6800080
(1675526473.006293) vcan0 260#D0FF00AA497487B0
(1675526473.008906) vcan0 0E0#E27354E000800700
(1675526473.010284) vcan0 0F5#55917E917F57A254
(1675526473.010357) vcan0 120#769197917FF75589
(1675526473.010500) vcan0 130#AFF21D911101F411
(1675526473.010573) vcan0 150#6B11BF57C4F727C0
(1675526473.013323) vcan0 010#000000002FB031F8
(1675526473.014356) vcan0 291#0000000000000000
(1675526473.014439) vcan0 2A9#8C260093C0000084
(1675526473.014513) vcan0 125#E51E7FE4C1D0D735
(1675526473.015463) vcan0 008#30816C88E6800080
(1675526473.018005) vcan0 072#F000FF3F0078A038
(1675526473.020476) vcan0 1B0#00C0000002B000FC
(1675526473.020552) vcan0 1B5#FF67AE9E43E0FFEF
(1675526473.022065) vcan0 1D8#363339343234E043
(1675526473.022138) vcan0 1E0#0024634300B917E0
(1675526473.022282) vcan0 055#EAF7F727B2279C80
(1675526473.022354) vcan0 065#DAE6F5F709BEF001
(1675526473.022428) vcan0 070#000014F8F1E12000
(1675526473.022501) vcan0 075#0000000000005458
(1675526473.022644) vcan0 080#EF4F8000C2002C00
(1675526473.023130) vcan0 0B0#39830DA3DAC139A3
(1675526473.023204) vcan0 145#F9E2D180FC4810A1
(1675526473.023348) vcan0 28C#000020000014FEA9
(1675526473.027363) vcan0 290#0000000000000000
(1675526473.027440) vcan0 010#000000002FB031F8
(1675526473.027590) vcan0 1D0#0000000000000061
(1675526473.027668) vcan0 2B5#4B39496293A65912
(1675526473.027746) vcan0 2C0#5D8700000000A0F1
(1675526473.027822) vcan0 2C5#00D78EBCC8E60070
(1675526473.027900) vcan0 340#A800000000000000
(1675526473.028050) vcan0 008#33817C7CDF800080
(1675526473.028129) vcan0 370#1722C000611BC735
(1675526473.028206) vcan0 3AF#0000000000000020
(1675526473.028284) vcan0 3E0#000000D932808090
(1675526473.028579) vcan0 288#3DDF609F00000080
(1675526473.028657) vcan0 210#67E080A0A869E24D
(1675526473.028736) vcan0 0E0#E2734DE80080EE00
(1675526473.029895) vcan0 0F5#619185917F5B9255
(1675526473.029972) vcan0 120#829179917FF85589
(1675526473.031068) vcan0 130#B7F21D8C11F6EF11
(1675526473.031146) vcan0 150#7511BC67C3F70DC0
(1675526473.033530) vcan0 010#000000002FB031F8
(1675526473.034905) vcan0 072#F000FF3F00788038
(1675526473.034983) vcan0 330#B800000000000000
(1675526473.035131) vcan0 125#E5197FE4C1D0D735
(1675526473.035210) vcan0 008#35818C63E6800080
(1675526473.035288) vcan0 260#D0FF00AA497487B0
(1675526473.037515) vcan0 360#5E8700D2B364A001
(1675526473.040058) vcan0 1B0#00C0000002B000FC
(1675526473.042938) vcan0 1B5#FF72B9A449E0FFEF
(1675526473.043013) vcan0 1D8#363339343234E043
(1675526473.043157) vcan0 1E0#0024630300B917E0
(1675526473.043232) vcan0 2C3#5D8700FFFF345450
(1675526473.043304) vcan0 055#EAF7F827B2279C80
(1675526473.043379) vcan0 065#DCE6F5F705BEEE01
(1675526473.043530) vcan0 070#000014F8F3E12000
(1675526473.043605) vcan0 075#0000000000005458
(1675526473.043680) vcan0 080#F04F8000C2002C00
(1675526473.043753) vcan0 0B0#39830DA3DAC139A3
(1675526473.043828) vcan0 145#F9D2D280FC4810A1
(1675526473.043970) vcan0 350#A200000000000080
(1675526473.044045) vcan0 010#000000002FB031F8
(1675526473.044119) vcan0 1D0#0000000000000061
(1675526473.044193) vcan0 291#0000000000000000
(1675526473.045405) vcan0 390#80FF051D021A596F
(1675526473.045485) vcan0 008#37819C60D7800080
(1675526473.048015) vcan0 3C8#5D87008E882C008E
(1675526473.049100) vcan0 072#F000FF3F0078A038
(1675526473.050403) vcan0 0E0#E2734AF00080D100
(1675526473.050481) vcan0 0F5#629177917F5F8257
(1675526473.050559) vcan0 120#91918C917FF55589
(1675526473.051944) vcan0 130#BFF21D8511EDF111
(1675526473.052021) vcan0 150#7511BC77C1F7FDC0
(1675526473.052098) vcan0 290#0000000000000000
(1675526473.052969) vcan0 288#31DF609F00000080
(1675526473.054128) vcan0 010#000000002FB031F8
(1675526473.055428) vcan0 210#67E080A0A869E245
(1675526473.055505) vcan0 2A9#8C26008AC0000084
(1675526473.055648) vcan0 125#E5147FE4C1D0D735
(1675526473.055724) vcan0 008#3A81AC3EE6800080
(1675526473.059227) vcan0 1B0#00C0000002B000FC
(1675526473.060671) vcan0 1B5#FF7EC4A94FE0FFEF
(1675526473.060743) vcan0 1D8#363339343234E043
(1675526473.060819) vcan0 1E0#0028534300B917E0
(1675526473.063635) vcan0 055#EAF7F927B2279C80
(1675526473.063776) vcan0 065#D5E6F5F7FFBDED01
(1675526473.063850) vcan0 070#000014F8F4E12000
(1675526473.063934) vcan0 075#0000000000005458
(1675526473.064007) vcan0 080#F04F8000C2002C00
(1675526473.064081) vcan0 0B0#39830EA3DAC139A3
(1675526473.064224) vcan0 145#F9C2D380FC4810A1
(1675526473.064297) vcan0 28C#000020000014FEA9
(1675526473.064372) vcan0 2B5#4B39496293A65C10
(1675526473.064720) vcan0 581#FFFFFFFFFFFF0081
(1675526473.064862) vcan0 008#3C81BC2CE6800080
(1675526473.065871) vcan0 010#000000002FB031F8
(1675526473.067317) vcan0 072#F000FF3F00788038
(1675526473.067392) vcan0 1D0#0000000000000861
(1675526473.067466) vcan0 260#D0FF0055497487B0
(1675526473.067608) vcan0 400#0401010202010210
(1675526473.067683) vcan0 405#0000000000000000
(1675526473.068785) vcan0 0E0#E2734EF80080AD00
(1675526473.069887) vcan0 0F5#4C9174917F637258
(1675526473.069969) vcan0 120#76919D917FF15589
(1675526473.070937) vcan0 130#C7F41D8511DDF111
(1675526473.072243) vcan0 150#6A11B987C0F7F8C0
(1675526473.073753) vcan0 125#E50E7FE4C1D0D735
(1675526473.074925) vcan0 008#3E81CC29D7800080
(1675526473.076351) vcan0 010#000000002FB031F9
(1675526473.076429) vcan0 291#0000000000000000
(1675526473.078884) vcan0 288#29DF609F00000080
(1675526473.081775) vcan0 072#F000FF3F0078A038
(1675526473.081853) vcan0 210#67E080A0A869E245
(1675526473.082003) vcan0 1B0#00C0000003B000FC
(1675526473.082081) vcan0 1B5#FF89D0AF54E0FFEF
(1675526473.082158) vcan0 1D8#363339343234E043
(1675526473.082237) vcan0 1E0#002C434300B917E0
(1675526473.082313) vcan0 2C3#5D8700FFFF345450
(1675526473.082393) vcan0 055#EAF7F927B2279C80
(1675526473.082551) vcan0 065#C7E6F5F7F7BDEF01
(1675526473.082628) vcan0 070#000014F8F5E12000
(1675526473.082705) vcan0 075#0000000000005458
(1675526473.082857) vcan0 080#F04F8000C2002C00
(1675526473.084377) vcan0 0B0#39830EA3DAC139A3
(1675526473.084453) vcan0 145#F9B2D480FC4810A1
(1675526473.084531) vcan0 290#0000000000000000
(1675526473.084682) vcan0 2C0#5D8700000000A0F1
(1675526473.084760) vcan0 2C5#00D78EBCD0E60070
(1675526473.084838) vcan0 010#000000002FB031F8
(1675526473.084916) vcan0 1D0#0000000000000261
(1675526473.084994) vcan0 008#4081DC1ED0800080
(1675526473.088547) vcan0 0E0#E2734BC000809000
(1675526473.089649) vcan0 0F5#47916C917F67625A
(1675526473.090751) vcan0 120#6F9198917FF15589
(1675526473.092057) vcan0 130#CFF41D8511CDF111
(1675526473.092140) vcan0 150#6411B797BEF7EEC0
(1675526473.093653) vcan0 010#000000002FB031F8
(1675526473.093726) vcan0 072#F000FF3F00788038
(1675526473.093801) vcan0 2A9#8C260082C0000084
(1675526473.094833) vcan0 125#E5087FE4C1D0D735
(1675526473.094907) vcan0 008#4381EC12C9800080
(1675526473.094981) vcan0 260#D0FF0055497487B0
(1675526473.099912) vcan0 1B0#00C0000001B000FC
(1675526473.099986) vcan0 1B5#FF94DBB55AE0FFEF
(1675526473.100949) vcan0 1D8#363339343234E043
(1675526473.102325) vcan0 1E0#002C430300B917E0
(1675526473.102398) vcan0 055#EAF7FA27B2279C80
(1675526473.102472) vcan0 065#BFE6F6F7F9BDF001
(1675526473.102547) vcan0 070#000014F8F6E12000
(1675526473.105293) vcan0 075#0000000000005458
(1675526473.105401) vcan0 080#F14F8000C2002C00
(1675526473.105491) vcan0 0B0#39830EA3DBC139A3
(1675526473.105569) vcan0 145#F9A2D580FC4810A1
(1675526473.105646) vcan0 28C#000020000014FEA9
(1675526473.105724) vcan0 288#31DF708F00000080
(1675526473.105874) vcan0 2B5#4B39496293A66218
(1675526473.105951) vcan0 010#000000002FB031F8
(1675526473.106030) vcan0 1D0#0000000000000061
(1675526473.106108) vcan0 210#67E08020A869E245
(1675526473.106184) vcan0 291#0000000000000000
(1675526473.106333) vcan0 340#A700000000000000
(1675526473.106412) vcan0 008#4581FC24A5800080
(1675526473.107859) vcan0 072#F000FF3F0078A038
(1675526473.109306) vcan0 3B0#00D83E3837B0C400
(1675526473.109386) vcan0 0E0#E27342C800807900
(1675526473.110399) vcan0 0F5#4E9171917F6B525B
(1675526473.111773) vcan0 120#6D9180917FF35589
(1675526473.111860) vcan0 130#D7F71D8511BDF411
(1675526473.111937) vcan0 150#5C11B7A7BDF7E6C0
(1675526473.112016) vcan0 3CA#00000000510000C8
(1675526473.112166) vcan0 290#0000000000000000
(1675526473.113251) vcan0 010#000000002FB031F8
(1675526473.114339) vcan0 330#B800000000000000
(1675526473.114416) vcan0 125#E5057FE4C1D0D735
(1675526473.115449) vcan0 008#45810C14A5800080
(1675526473.119155) vcan0 1B0#00C0000002B000FC
(1675526473.120533) vcan0 1B5#FFA0E6BA60E0FFEF
(1675526473.120675) vcan0 1D8#363339343234E043
(1675526473.120749) vcan0 1E0#0030334300B917E0
(1675526473.120823) vcan0 2C3#5D8700FFFF345450
(1675526473.123568) vcan0 055#EAF7FA27B2279C80
(1675526473.123641) vcan0 065#BCE6F9F7FBBDF601
(1675526473.123714) vcan0 070#000014F8F7E12000
(1675526473.123799) vcan0 075#0000000000005458
(1675526473.123943) vcan0 080#F14F8000C2002C00
(1675526473.124016) vcan0 0B0#39830EA3DBC139A3
(1675526473.124090) vcan0 145#F992D680FC4810A1
(1675526473.124165) vcan0 370#1722C000611BC735
(1675526473.124307) vcan0 010#000000002FB031F8
(1675526473.124379) vcan0 072#F000FF3F00788038
(1675526473.124660) vcan0 1D0#0000000000000061
(1675526473.124735) vcan0 008#47811C1097800080
(1675526473.124808) vcan0 260#D0FF0055497487B0
(1675526473.127121) vcan0 288#20DF708F00000080
(1675526473.128498) vcan0 210#67E080A0A869E24D
(1675526473.128641) vcan0 0E0#E2733FD000805C00
(1675526473.130018) vcan0 0F5#5D9171917F6F425C
(1675526473.130092) vcan0 120#7B9189917FF65589
(1675526473.130236) vcan0 130#DFF71D8011B2F711
(1675526473.131082) vcan0 150#6611B7B7BBF7CCC0
(1675526473.132594) vcan0 350#A200000000000080
(1675526473.134107) vcan0 010#000000002FB031F8
(1675526473.134180) vcan0 291#0000000000000000
(1675526473.134256) vcan0 2A9#8C26009BC0000084
(1675526473.134329) vcan0 125#E5057FE4C1D0D735
(1675526473.135157) vcan0 008#47812C1681800080
(1675526473.137654) vcan0 072#F000FF3F0078A038
(1675526473.139032) vcan0 360#5E8700D2B364A001
(1675526473.142051) vcan0 1B0#00C0000002B000FC
(1675526473.142125) vcan0 1B5#FFABF2C065E0FFEF
(1675526473.142199) vcan0 1D8#363339343234E043
(1675526473.142272) vcan0 1E0#0034234300B917E0
(1675526473.142415) vcan0 055#EAF7FA27B2279C80
(1675526473.142490) vcan0 065#BCE6FBF7FEBDFB01
(1675526473.142564) vcan0 070#000014F8F7E12000
(1675526473.142647) vcan0 075#0000000000005458
(1675526473.142789) vcan0 080#F14F8000C2002C00
(1675526473.142863) vcan0 0B0#39830EA3DBC139A3
(1675526473.143144) vcan0 145#F982D780FC4810A1
(1675526473.143217) vcan0 28C#000020000014FEA9
(1675526473.143292) vcan0 290#0000000000000000
(1675526473.143367) vcan0 2B5#4B3A496293A66D1E
(1675526473.144263) vcan0 010#000000002FB031F8
(1675526473.145692) vcan0 1D0#0000000000000861
(1675526473.145772) vcan0 2C0#5D8700000000A0F1
(1675526473.145849) vcan0 2C5#00D78EBCBEE60070
(1675526473.145999) vcan0 390#80FF051D02165A4F
(1675526473.146077) vcan0 008#47813C1473800080
(1675526473.146155) vcan0 3AF#0000000000000020
(1675526473.148540) vcan0 0E0#E2733AD800804100
(1675526473.149701) vcan0 0F5#419169917F73325E
(1675526473.150726) vcan0 120#719193917FF65589
(1675526473.152027) vcan0 130#E7F71D8011A2FD11
(1675526473.152178) vcan0 150#6211B1C7B9F7C0C0
(1675526473.153625) vcan0 288#04DF708F00000080
(1675526473.153704) vcan0 010#000000002FB031F9
(1675526473.153851) vcan0 072#F000FF3F00788038
(1675526473.153928) vcan0 210#67E080A0A869E24D
(1675526473.154802) vcan0 125#E5057FE4C1D0D735
(1675526473.154879) vcan0 3D0#8D0F6100340680C3
(1675526473.154957) vcan0 008#47814C284F800080
(1675526473.155036) vcan0 260#D0FF00AA497487B0
(1675526473.159925) vcan0 1B0#00C0000004B000FC
(1675526473.159999) vcan0 1B5#FFB6FDC56BE0FFEF
(1675526473.160963) vcan0 1D8#363339343234E043
(1675526473.162546) vcan0 1E0#0034230300B917E0
(1675526473.162619) vcan0 2C3#5D8700FFFF345450
(1675526473.162774) vcan0 055#EAF7FA27B2279C80
(1675526473.162849) vcan0 065#BEE6FDF701BEFD01
(1675526473.162923) vcan0 070#000014F8F7E12000
(1675526473.162997) vcan0 075#0000000000005458
(1675526473.163139) vcan0 080#F14F8000C2002C00
(1675526473.165415) vcan0 0B0#39830EA3DBC139A3
(1675526473.165497) vcan0 145#F972D880FC4810A1
(1675526473.165576) vcan0 010#000000002FB031F8
(1675526473.165654) vcan0 1D0#0000000000000261
(1675526473.165804) vcan0 291#0000000000000000
(1675526473.165883) vcan0 008#47815C2740800080
(1675526473.168049) vcan0 3C8#5D87008E882C008E
(1675526473.169426) vcan0 0E0#E2733AE000802100
(1675526473.169502) vcan0 072#F000FF3F0078A038
(1675526473.170518) vcan0 0F5#4C9169917F77225F
(1675526473.170595) vcan0 120#679191917FF35589
(1675526473.171978) vcan0 130#EFFA1D7E1194FD11
(1675526473.172055) vcan0 150#5811AAD7B8F7BAC0
(1675526473.172132) vcan0 290#0000000000000000
(1675526473.174444) vcan0 125#E5057FE4C1D0D735
(1675526473.174594) vcan0 010#000000002FB031F8
(1675526473.174671) vcan0 2A9#8C260082C0000084
(1675526473.174749) vcan0 008#47816C2532800080
(1675526473.177052) vcan0 210#67E080A0A869E245
(1675526473.178359) vcan0 288#04DF708F00000080
(1675526473.181446) vcan0 1B0#00C0000001B000FC
(1675526473.181521) vcan0 1B5#FFC108CB71E0FFEF
(1675526473.181595) vcan0 1D8#363339343234E043
(1675526473.181670) vcan0 1E0#0038134300B917E0
(1675526473.181744) vcan0 055#EAF7FA27B2279C80
(1675526473.181817) vcan0 065#C3E6FDF703BEFC01
(1675526473.181959) vcan0 070#000014F8F7E12000
(1675526473.182522) vcan0 075#0000000000005458
(1675526473.182597) vcan0 080#F14F8000C2002C00
(1675526473.182670) vcan0 0B0#39830EA3DBC139A3
(1675526473.182813) vcan0 145#F962D980FC4810A1
(1675526473.182888) vcan0 28C#000020000014FEA9
(1675526473.183921) vcan0 2B5#4B3A496293A67A1D
(1675526473.183995) vcan0 340#A700000000000000
(1675526473.184070) vcan0 010#000000002FB031F8
(1675526473.184143) vcan0 072#F000FF3F00788038
(1675526473.184218) vcan0 1D0#0000000000000061
(1675526473.185560) vcan0 008#47817C2423800080
(1675526473.185637) vcan0 260#D0FF00AA497487B0
(1675526473.188024) vcan0 0E0#E27333E800800800
(1675526473.190550) vcan0 0F5#4E9172917F7B1261
(1675526473.190628) vcan0 120#779189917FF75589
(1675526473.191858) vcan0 130#F7FA1D7D1185FA11
(1675526473.192019) vcan0 150#6111AAE7B6F7A1C0
(1675526473.193395) vcan0 010#000000002FB031F8
(1675526473.193473) vcan0 291#0000000000000000
(1675526473.193550) vcan0 330#B800000000000000
(1675526473.194566) vcan0 125#E5087FE4C1D0D735
(1675526473.194643) vcan0 008#47818C290E800080
(1675526473.197022) vcan0 072#F000FF3F0078A038
(1675526473.199563) vcan0 1B0#00C0000001B000FC
(1675526473.201075) vcan0 1B5#FFCD14D176E0FFEF
(1675526473.201150) vcan0 1D8#363339343234E043
(1675526473.201225) vcan0 1E0#003C034300B917E0
(1675526473.201367) vcan0 2C3#5D8700FFFF355450
(1675526473.201441) vcan0 055#EAF7FA27B2279C80
(1675526473.202132) vcan0 065#C4E6FCF701BEF901
(1675526473.202206) vcan0 070#000014F8F6E12000
(1675526473.205023) vcan0 075#0000000000005458
(1675526473.205105) vcan0 080#F14F8000C2002C00
(1675526473.205249) vcan0 0B0#39830EA3DBC139A3
(1675526473.205323) vcan0 145#F952DA80FC4810A1
(1675526473.205411) vcan0 290#0000000000000000
(1675526473.205491) vcan0 2C0#5D8700000000A0F1
(1675526473.205641) vcan0 288#04DF807F00000080
(1675526473.205720) vcan0 010#000000002FB031F8
(1675526473.205797) vcan0 1D0#0000000000000061
(1675526473.205875) vcan0 210#67E080A0A869E24D
(1675526473.205952) vcan0 2C5#00D78EBCC4E60070
(1675526473.206102) vcan0 008#47819C190E800080
(1675526473.207623) vcan0 0E0#E27327F00080F400
(1675526473.210150) vcan0 0F5#4E9162917F7F0262
(1675526473.212967) vcan0 120#879174917FF75589
(1675526473.213045) vcan0 130#FFFA1D7D1175FA11
(1675526473.213122) vcan0 150#5F11ADF7B4F793C0
(1675526473.214001) vcan0 010#000000002FB031F8
(1675526473.214078) vcan0 072#F000FF3F00788038
(1675526473.214156) vcan0 2A9#8C26009BC0000084
(1675526473.214234) vcan0 125#E50B7FE4C1D0D735
(1675526473.215414) vcan0 008#4781AC1700800080
(1675526473.215565) vcan0 260#D0FF00AA497487B0
(1675526473.219316) vcan0 1B0#00C0000003B000FC
(1675526473.220618) vcan0 1B5#FFD81FD67CE0FFEF
(1675526473.220697) vcan0 1D8#363339343234E043
(1675526473.220846) vcan0 1E0#003C030300B917E0
(1675526473.221788) vcan0 055#EAF7FA27B2279C80
(1675526473.224675) vcan0 065#C2E6FBF7FFBDF701
(1675526473.224754) vcan0 070#000014F8F7E12000
(1675526473.224903) vcan0 075#0000000000005458
(1675526473.224981) vcan0 080#F14F8000C2002C00
(1675526473.225059) vcan0 0B0#39830EA3DBC139A3
(1675526473.225144) vcan0 145#F942DB80FC4810A1
(1675526473.225223) vcan0 28C#000020000014FEA9
(1675526473.225301) vcan0 2B5#4B3A496293A68719
(1675526473.225449) vcan0 350#A200000000000080
(1675526473.225522) vcan0 010#000000002FB031F8
(1675526473.225597) vcan0 1D0#0000000000000861
(1675526473.225671) vcan0 291#0000000000000000
(1675526473.225813) vcan0 370#1722C000611BC735
(1675526473.225888) vcan0 008#4781BC0700800080
(1675526473.227263) vcan0 288#04DF807F00000080
(1675526473.228708) vcan0 072#F000FF3F0078A038
(1675526473.228782) vcan0 210#67E080A0A869E24D
(1675526473.228856) vcan0 0E0#E27321F80080DA00
(1675526473.229752) vcan0 3B0#00D83E3837B0C400
(1675526473.232703) vcan0 0F5#429169917F43F263
(1675526473.232776) vcan0 120#6D9187917FF55589
(1675526473.232861) vcan0 130#87FA1D7D1165FF11
(1675526473.232934) vcan0 150#5911AB07B3F789C0
(1675526473.233009) vcan0 3CA#00000000520000C8
(1675526473.233151) vcan0 290#0000000000000000
(1675526473.233843) vcan0 010#000000002FB031F9
(1675526473.233916) vcan0 125#E50E7FE4C1D0D735
(1675526473.235156) vcan0 008#4781CCF700800080
(1675526473.237781) vcan0 360#5E8700D2B364A001
(1675526473.240238) vcan0 1B0#00C0000002B000FC
(1675526473.243197) vcan0 1B5#FFE32ADC81E0FFEF
(1675526473.243275) vcan0 1D8#363339343234E043
(1675526473.243353) vcan0 1E0#0000F34300B917E0
(1675526473.243430) vcan0 2C3#5D8700FFFF355450
(1675526473.243507) vcan0 055#EAF7FA27B2279C80
(1675526473.243657) vcan0 065#BFE6FAF7FEBDF701
(1675526473.243735) vcan0 070#000014F8F7E12000
(1675526473.243823) vcan0 075#0000000000005458
(1675526473.243901) vcan0 080#F14F8000C2002C00
(1675526473.243979) vcan0 0B0#39830EA3DBC139A3
(1675526473.244056) vcan0 145#F932DC80FC4810A1
(1675526473.244207) vcan0 010#000000002FB031F8
(1675526473.244284) vcan0 072#F000FF3F00788038
(1675526473.244362) vcan0 1D0#0000000000000261
(1675526473.244441) vcan0 390#80FF051D02165A4F
(1675526473.245661) vcan0 008#4781DCE700800080
(1675526473.245736) vcan0 260#D0FF00AA497487B0
(1675526473.248276) vcan0 0E0#E27320C00080BB00
(1675526473.249655) vcan0 0F5#3F9166917F47E265
(1675526473.250756) vcan0 120#519195917FF25589
(1675526473.250830) vcan0 130#8FFA1D7D1155FF11
(1675526473.252137) vcan0 150#5111AB17B2F781C0
(1675526473.253858) vcan0 288#0CDF807F00000080
(1675526473.253942) vcan0 010#000000002FB031F8
(1675526473.254016) vcan0 210#67E08020A869E245
(1675526473.254089) vcan0 125#E5117FE4C1D0D735
(1675526473.254919) vcan0 291#0000000000000000
(1675526473.254993) vcan0 2A9#8C260082C0000084
(1675526473.255067) vcan0 008#4781ECD700800080
(1675526473.257362) vcan0 072#F000FF3F0078A038
(1675526473.260181) vcan0 1B0#00C0000000B000FC
(1675526473.260259) vcan0 1B5#FFEF36E187E0FFEF
(1675526473.260407) vcan0 1D8#363339343234E043
(1675526473.261278) vcan0 1E0#0004E34300B917E0
(1675526473.261357) vcan0 055#EAF7FA27B2279C80
(1675526473.261434) vcan0 065#BDE6FAF7FFBDF601
(1675526473.264178) vcan0 070#000014F8F7E12000
(1675526473.264255) vcan0 075#0000000000005458
(1675526473.264333) vcan0 080#F14F8000C2002C00
(1675526473.264421) vcan0 0B0#39830EA3DBC139A3
(1675526473.264500) vcan0 145#F922DD80FC4810A1
(1675526473.264650) vcan0 28C#000020000014FEA9
(1675526473.264725) vcan0 290#0000000000000000
(1675526473.264804) vcan0 2B5#4B3A486293A68B19
(1675526473.264880) vcan0 010#000000002FB031F8
(1675526473.264959) vcan0 1D0#0000000000000061
(1675526473.265037) vcan0 2C0#5D8700000000A0F1
(1675526473.265187) vcan0 2C5#00D78EBDC2E60070
(1675526473.265265) vcan0 340#A700000000000000
(1675526473.265342) vcan0 008#4581FCC900800080
(1675526473.266655) vcan0 3AF#0000000000000020
(1675526473.269331) vcan0 0E0#E27317C80080A400
(1675526473.270365) vcan0 0F5#4B916B917F4BD266
(1675526473.271671) vcan0 120#5A9191917FF15589
(1675526473.271744) vcan0 130#97FA1D7D1145FF11
(1675526473.271841) vcan0 150#5211AD27B1F770C0
(1675526473.274244) vcan0 125#E5147FE4C1D0D735
(1675526473.274318) vcan0 010#000000002FB031F8
(1675526473.275417) vcan0 008#4581043900800080
(1675526473.276724) vcan0 072#F000FF3F00788038
(1675526473.276876) vcan0 260#D0FF0055497487B0
(1675526473.276954) vcan0 330#B800000000000000
(1675526473.278330) vcan0 288#04DF807F00000080
(1675526473.278407) vcan0 210#67E080A0A869E245
(1675526473.279422) vcan0 1B0#00C0000002B000FC
(1675526473.282310) vcan0 1B5#FFFA41E78DE0FFEF
(1675526473.282388) vcan0 1D8#363339343234E043
(1675526473.282464) vcan0 1E0#0004E30300B917E0
(1675526473.282614) vcan0 2C3#5D8700FFFF355450
(1675526473.282693) vcan0 055#EAF7FA27B2279C80
(1675526473.282770) vcan0 065#B8E6FAF7FCBDF701
(1675526473.282866) vcan0 070#000014F8F7E12000
(1675526473.282944) vcan0 075#0000000000005458
(1675526473.283022) vcan0 080#F14F8000C2002C00
(1675526473.283099) vcan0 0B0#39830EA3DBC139A3
(1675526473.283395) vcan0 145#F912DE80FC4810A1
(1675526473.284770) vcan0 010#000000002FB031F8
(1675526473.284922) vcan0 1D0#0000000000000061
(1675526473.285000) vcan0 291#0000000000000000
(1675526473.285076) vcan0 008#4381141615800080
(1675526473.287442) vcan0 3C8#5D87008E882C008E
(1675526473.288817) vcan0 072#F000FF3F0078A038
(1675526473.288892) vcan0 0E0#E2730FD000808C00
(1675526473.290266) vcan0 0F5#4C9161917F4FC268
(1675526473.290410) vcan0 120#76917E917FF55589
(1675526473.290484) vcan0 130#9FFA1D7D1135FF11
(1675526473.290557) vcan0 150#5511AB37B1F75DC0
(1675526473.291338) vcan0 290#0000000000000000
(1675526473.293947) vcan0 010#000000002FB031F8
(1675526473.295324) vcan0 2A9#8C26008AC0000084
(1675526473.295425) vcan0 125#E5167FE4C1D0D735
(1675526473.295576) vcan0 008#408124FB23800080
(1675526473.299186) vcan0 1B0#00C0000001B000FC
(1675526473.300562) vcan0 1B5#FF054CED92E0FFEF
(1675526473.300639) vcan0 1D8#363339343234E043
(1675526473.300717) vcan0 1E0#0008D34300B917E0
(1675526473.303533) vcan0 055#EAF7FA27B2279C80
(1675526473.303683) vcan0 065#B7E6FAF7FFBDF801
(1675526473.303761) vcan0 070#000014F8F7E12000
(1675526473.303838) vcan0 075#0000000000005458
(1675526473.303916) vcan0 080#F24F8000C2002C00
(1675526473.303994) vcan0 0B0#39830EA3DBC139A3
(1675526473.304071) vcan0 145#F902DF80FC4810A1
(1675526473.304161) vcan0 28C#000020000014FEA9
(1675526473.304312) vcan0 2B5#4B3A486293A68D19
(1675526473.304388) vcan0 288#08DF906F00000080
(1675526473.304466) vcan0 010#000000002FB031F8
(1675526473.304618) vcan0 072#F000FF3F00788038
(1675526473.304767) vcan0 1D0#0000000000000861
(1675526473.304844) vcan0 210#67E080A0A869E245
(1675526473.304922) vcan0 008#3E8134DE32800080
(1675526473.306049) vcan0 260#D0FF0055497487B0
(1675526473.308590) vcan0 0E0#E27312D800806900
(1675526473.310036) vcan0 0F5#3F9162917F53B269
(1675526473.310111) vcan0 120#6D917B917FFD5589
(1675526473.310184) vcan0 130#A7FA1D7D1125FF11
(1675526473.311149) vcan0 150#5111AD47B1F751C0
(1675526473.312525) vcan0 350#A200000000000080
(1675526473.314175) vcan0 010#000000002FB031F9
(1675526473.314260) vcan0 291#0000000000000000
(1675526473.314334) vcan0 400#0A02010204010111
(1675526473.314478) vcan0 125#E51C7FE4C1D0D735
(1675526473.314551) vcan0 405#D5071E9F48186701
(1675526473.315243) vcan0 425#0000000000000000
(1675526473.315318) vcan0 008#3C8144D032800080
(1675526473.317800) vcan0 072#F000FF3F0078A038
(1675526473.320547) vcan0 1B0#00C0000002B000FC
(1675526473.320625) vcan0 1B5#FF1058F298E0FFEF
(1675526473.320703) vcan0 1D8#363339343234E043
(1675526473.320854) vcan0 1E0#000CC34300B917E0
(1675526473.320930) vcan0 2C3#5D8700FFFF355450
(1675526473.321585) vcan0 055#EBF7FA27B2299C80
(1675526473.324546) vcan0 065#BAE6FBF701BEF801
(1675526473.324626) vcan0 070#000014F8F7E12000
(1675526473.324705) vcan0 075#0000000000005458
(1675526473.324792) vcan0 080#F24F8000C2002C00
(1675526473.324869) vcan0 0B0#39830EA3DBC139A3
(1675526473.324947) vcan0 145#F9F2D080FC4810A1
(1675526473.325099) vcan0 290#0000000000000000
(1675526473.325175) vcan0 010#000000002FB031F8
(1675526473.325253) vcan0 1D0#0000000000000261
(1675526473.325331) vcan0 2C0#5D8700000000A0F1
(1675526473.325409) vcan0 2C5#00D78DBDB8E60070
(1675526473.325555) vcan0 370#1722C000611BC735
(1675526473.325697) vcan0 008#3C8154B240800080
(1675526473.325772) vcan0 3E0#000000D932808090
(1675526473.328177) vcan0 288#04DF906F00000080
(1675526473.329553) vcan0 210#67E080A0A869E24D
(1675526473.329695) vcan0 0E0#E27317E000804400
(1675526473.330660) vcan0 0F5#3F9166917F57A26B
(1675526473.330735) vcan0 120#5A9179917FF85589
(1675526473.332051) vcan0 130#AFFA1D7B1117FF11
(1675526473.332124) vcan0 150#5011AB57B1F742C0
(1675526473.333638) vcan0 010#000000002FB031F8
(1675526473.333712) vcan0 072#F000FF3F00788038
(1675526473.333786) vcan0 2A9#8C260093C0000084
(1675526473.333928) vcan0 125#E51E7FE4C1D0D735
(1675526473.334757) vcan0 008#3A8164A440800080
(1675526473.334830) vcan0 260#D0FF0055497487B0
(1675526473.337310) vcan0 360#5E8700D2B364A001
(1675526473.340054) vcan0 1B0#00C0000002B000FC
(1675526473.340202) vcan0 1B5#FF1C63F89EE0FFEF
(1675526473.340281) vcan0 1D8#363339343234E043
(1675526473.341154) vcan0 1E0#000CC30300B917E0
(1675526473.341231) vcan0 055#EBF7FA27B2299C80
(1675526473.341310) vcan0 065#BCE6FBF702BEF801
(1675526473.344056) vcan0 070#000014F8F7E12000
(1675526473.344146) vcan0 075#0000000000005458
(1675526473.344224) vcan0 080#F24F8000C2002C00
(1675526473.344300) vcan0 0B0#39830EA3DBC139A3
(1675526473.344378) vcan0 145#F9E2D180FC4810A1
(1675526473.344456) vcan0 28C#000020000014FEA9
(1675526473.344534) vcan0 2B5#4B3A486293A68D19
(1675526473.344684) vcan0 010#000000002FB031F8
(1675526473.344760) vcan0 1D0#0000000000000061
(1675526473.344840) vcan0 291#0000000000000000
(1675526473.344916) vcan0 340#A700000000000000
(1675526473.344994) vcan0 390#80FF051D020E5C4F
(1675526473.345218) vcan0 008#3A81747E56800080
(1675526473.347652) vcan0 072#F000FF3F0078A038
(1675526473.349028) vcan0 3B0#00FC423837B0C400
(1675526473.349101) vcan0 0E0#E2731CE800801F00
(1675526473.350682) vcan0 0F5#46916C917F5B926C
(1675526473.350770) vcan0 120#6B918E917FF95589
(1675526473.350912) vcan0 130#B7FA1D77110BFD11
(1675526473.350985) vcan0 150#5611AC67B1F72CC0
(1675526473.351060) vcan0 3CA#00000000530000C8
(1675526473.351751) vcan0 290#0000000000000000
(1675526473.354564) vcan0 288#F7DE906F00000080
(1675526473.354638) vcan0 010#000000002FB031F8
(1675526473.354712) vcan0 210#67E080A0A869E24D
(1675526473.354855) vcan0 125#E5217FE4C1D0D735
(1675526473.354928) vcan0 330#B800000000000000
(1675526473.355003) vcan0 3D0#8D0F6100340680C3
(1675526473.355076) vcan0 008#3781847156800080
(1675526473.357175) vcan0 430#28082800000014A6
(1675526473.359647) vcan0 1B0#00C0000001B000FC
(1675526473.362531) vcan0 1B5#FF276EFDA3E0FFEF
(1675526473.362604) vcan0 1D8#363339343234E043
(1675526473.362689) vcan0 1E0#0010B34300B917E0
(1675526473.362832) vcan0 2C3#5D8700FFFF365450
(1675526473.362905) vcan0 055#EBF7FA27B2299C80
(1675526473.362980) vcan0 065#BFE6FBF703BEF801
(1675526473.363052) vcan0 070#000014F8F7E12000
(1675526473.363198) vcan0 075#0000000000005458
(1675526473.363269) vcan0 080#F24F8000C2002C00
(1675526473.363345) vcan0 0B0#39830EA3DBC139A3
(1675526473.363419) vcan0 145#F9D2D280FC4810A1
(1675526473.363698) vcan0 010#000000002FB031F8
(1675526473.363772) vcan0 072#F000FF3F00788038
(1675526473.365009) vcan0 1D0#0000000000000061
(1675526473.365082) vcan0 008#3781945364800080
(1675526473.365226) vcan0 260#D0FF00AA497487B0
(1675526473.367646) vcan0 0E0#E27314F000800700
(1675526473.370178) vcan0 0F5#3D9162917F5F826D
(1675526473.371488) vcan0 120#69918E917FFC5589
(1675526473.371567) vcan0 130#BFFA1D7711FBFD11
(1675526473.371646) vcan0 150#5111A677B1F721C0
(1675526473.374101) vcan0 125#E5247FE4C1D0D735
(1675526473.374250) vcan0 010#000000002FB031F8
(1675526473.374327) vcan0 291#0000000000000000
(1675526473.375271) vcan0 2A9#8C26008AC0000084
(1675526473.376657) vcan0 008#3581A43673800080
(1675526473.378171) vcan0 288#18DF906F00000080
(1675526473.378245) vcan0 072#F000FF3F0078A038
(1675526473.379277) vcan0 210#67E080A0A869E245
(1675526473.380448) vcan0 1B0#00C0000001B000FC
(1675526473.381753) vcan0 1B5#FF327A03A9E0FFEF
(1675526473.381829) vcan0 1D8#363339343234E043
(1675526473.381970) vcan0 1E0#0014A34300B917E0
(1675526473.382045) vcan0 055#EAF7FA27B22B9C80
(1675526473.384801) vcan0 065#BEE6FAF700BEF701
(1675526473.384944) vcan0 070#000014F8F7E12000
(1675526473.385017) vcan0 075#0000000000005458
(1675526473.385092) vcan0 080#F24F8000C2002C00
(1675526473.385165) vcan0 0B0#39830EA3DBC139A3
(1675526473.385309) vcan0 145#F9C2D380FC4810A1
(1675526473.385422) vcan0 28C#000020000014FEA9
(1675526473.385501) vcan0 290#0000000000000000
(1675526473.385580) vcan0 010#000000002FB031F8
(1675526473.385658) vcan0 1D0#0000000000000861
(1675526473.385736) vcan0 2B5#4B3A486293A68E18
(1675526473.385813) vcan0 2C0#5D8700000000A0F1
(1675526473.385892) vcan0 2C5#00D78DBDBEE60070
(1675526473.386040) vcan0 3AF#0000000000000020
(1675526473.386118) vcan0 008#3381B43E5D800080
(1675526473.387422) vcan0 0E0#E2731AF80080E100
(1675526473.389963) vcan0 0F5#44915D917F63726F
(1675526473.391265) vcan0 120#629174917FF55589
(1675526473.391343) vcan0 130#C7FA1D7711EBFD11
(1675526473.391422) vcan0 150#5211B187B2F710C0
(1675526473.393876) vcan0 010#000000002FB031F9
(1675526473.393954) vcan0 072#F000FF3F00788038
(1675526473.394103) vcan0 125#E5277FE4C1D0D735
(1675526473.395264) vcan0 008#3381C43C4F800080
(1675526473.395416) vcan0 260#D0FF00AA497487B0
(1675526473.399123) vcan0 1B0#00C0000001B000FC
(1675526473.400565) vcan0 1B5#FF3D8508AEE0FFEF
(1675526473.400641) vcan0 1D8#363339343234E043
(1675526473.400716) vcan0 1E0#0014A30300B917E0
(1675526473.400789) vcan0 2C3#5D8700FFFF365450
(1675526473.401687) vcan0 055#EAF7FB27B22B9C80
(1675526473.404565) vcan0 065#BDE6FAF7FFBDF601
(1675526473.404649) vcan0 070#000014F8F8E12000
(1675526473.404725) vcan0 075#0000000000005458
(1675526473.404868) vcan0 080#F34F8000C2002C00
(1675526473.404941) vcan0 0B0#39830EA3DBC139A3
(1675526473.405015) vcan0 145#F9B2D480FC4810A1
(1675526473.405090) vcan0 350#A200000000000080
(1675526473.405231) vcan0 288#18DFA05F00000080
(1675526473.405306) vcan0 010#000000002FB031F8
(1675526473.405416) vcan0 1D0#0000000000000261
(1675526473.405494) vcan0 210#67E08020A869E24D
(1675526473.405573) vcan0 291#0000000000000000
(1675526473.405651) vcan0 008#3381D43B40800080
(1675526473.407173) vcan0 3C8#5D87008E882C008E
(1675526473.408547) vcan0 072#F000FF3F0078A038
(1675526473.408625) vcan0 0E0#E27321C00080BA00
(1675526473.410074) vcan0 0F5#38915F917F676270
(1675526473.410099) vcan0 120#519171917FF15589
(1675526473.410251) vcan0 130#CFFA1D7411DEFA11
(1675526473.411196) vcan0 150#4E11B797B3F704C0
(1675526473.412210) vcan0 290#0000000000000000
(1675526473.413658) vcan0 010#000000002FB031F8
(1675526473.415182) vcan0 2A9#8C260093C0000084
(1675526473.415330) vcan0 125#E5287FE4C1D0D735
(1675526473.415410) vcan0 008#3381E42B40800080
(1675526473.419049) vcan0 1B0#00C0000002B000FC
(1675526473.420492) vcan0 1B5#FF49900EB4E0FFEF
(1675526473.420567) vcan0 1D8#363339343234E043
(1675526473.420641) vcan0 1E0#0018934300B917E0
(1675526473.423456) vcan0 055#EAF7FB27B22B9C80
(1675526473.423528) vcan0 065#BAE6F9F7FDBDF601
(1675526473.423603) vcan0 070#000014F8F8E12000
(1675526473.423677) vcan0 075#0000000000005458
(1675526473.423830) vcan0 080#F34F8000C2002C00
(1675526473.423905) vcan0 0B0#39830EA3DBC139A3
(1675526473.423978) vcan0 145#F9A2D580FC4810A1
(1675526473.424054) vcan0 28C#000020000014FEA9
(1675526473.424126) vcan0 2B5#4B3A486293A68E18
(1675526473.424269) vcan0 340#A700000000000000
(1675526473.424343) vcan0 010#000000002FB031F8
(1675526473.424484) vcan0 072#F000FF3F00788038
(1675526473.424628) vcan0 1D0#0000000000000061
(1675526473.424702) vcan0 370#1722C000611BC735
(1675526473.424777) vcan0 008#3381F41447800080
(1675526473.425850) vcan0 260#D0FF00AA497487B0
(1675526473.428525) vcan0 288#20DFA05F00000080
(1675526473.428603) vcan0 210#67E080A0A869E24D
(1675526473.428681) vcan0 0E0#E27321C800809A00
(1675526473.429911) vcan0 0F5#449158917F6B5272
(1675526473.429999) vcan0 120#50918A917FF45589
(1675526473.431014) vcan0 130#D7FA1D7111D1FA11
(1675526473.431164) vcan0 150#4A11AFA7B3F7F8C0
(1675526473.433475) vcan0 010#000000002FB031F8
(1675526473.434921) vcan0 291#0000000000000000
(1675526473.434999) vcan0 125#E5287FE4C1D0D735
(1675526473.435076) vcan0 330#B800000000000000
(1675526473.435155) vcan0 008#3381040447800080
(1675526473.437505) vcan0 072#F000FF3F0078A038
(1675526473.438948) vcan0 360#5E8700D2B364A001
(1675526473.441899) vcan0 1B0#00C0000002B000FC
(1675526473.441974) vcan0 1B5#FF549C14BAE0FFEF
(1675526473.442049) vcan0 1D8#363339343234E043
(1675526473.442191) vcan0 1E0#001C834300B917E0
(1675526473.442264) vcan0 2C3#5D8700FFFF365450
(1675526473.442338) vcan0 055#EAF7FB27B22B9C80
(1675526473.442421) vcan0 065#B8E6FAF7FFBDF701
(1675526473.442496) vcan0 070#000014F8F8E12000
(1675526473.442639) vcan0 075#0000000000005458
(1675526473.442712) vcan0 080#F34F8000C2002C00
(1675526473.442992) vcan0 0B0#39830EA3DBC139A3
(1675526473.443066) vcan0 145#F992D680FC4810A1
(1675526473.443141) vcan0 290#0000000000000000
(1675526473.443214) vcan0 2C0#5D8700000000A0F1
(1675526473.444112) vcan0 2C5#00D78DBDBAE60070
(1675526473.445415) vcan0 010#000000002FB031F8
(1675526473.445494) vcan0 1D0#0000000000000061
(1675526473.445645) vcan0 390#80FF051D020E5C4F
(1675526473.445723) vcan0 008#3381140932800080
(1675526473.447963) vcan0 0E0#E27323D000807800
(1675526473.450490) vcan0 0F5#42915B917F6F4273
(1675526473.450569) vcan0 120#61918A917FF55589
(1675526473.451883) vcan0 130#DFFA1D7111C1FD11
(1675526473.452033) vcan0 150#5011B9B7B4F7E2C0
(1675526473.453551) vcan0 288#1CDFA05F00000080
(1675526473.453702) vcan0 010#000000002FB031F8
(1675526473.453781) vcan0 072#F000FF3F00788038
(1675526473.454650) vcan0 125#E5287FE4C1D0D735
(1675526473.454728) vcan0 210#67E080A0A869E245
(1675526473.454806) vcan0 2A9#8C26008AC0000084
(1675526473.454882) vcan0 008#338124F932800080
(1675526473.455670) vcan0 260#D0FF0055497487B0
(1675526473.458142) vcan0 1B0#00C0000002B000FC
(1675526473.460958) vcan0 1B5#FF5FA719BFE0FFEF
(1675526473.461031) vcan0 1D8#363339343234E043
(1675526473.461105) vcan0 1E0#001C830300B917E0
(1675526473.461180) vcan0 055#EAF7FB27B22B9C80
(1675526473.462008) vcan0 065#B8E6FAF700BEF701
(1675526473.462093) vcan0 070#000014F8F8E12000
(1675526473.463608) vcan0 075#0000000000005458
(1675526473.463682) vcan0 080#F34F8000C2002C00
(1675526473.463755) vcan0 0B0#39830EA3DBC139A3
(1675526473.463828) vcan0 145#F982D780FC4810A1
(1675526473.463902) vcan0 28C#000020000014FEA9
(1675526473.464044) vcan0 2B5#4B3A486293A68E19
(1675526473.464119) vcan0 010#000000002FB031F8
(1675526473.464194) vcan0 1D0#0000000000000861
(1675526473.464680) vcan0 291#0000000000000000
(1675526473.467421) vcan0 008#338134F823800080
(1675526473.468508) vcan0 0E0#E27326D800805500
(1675526473.469523) vcan0 072#F000FF3F0078A038
(1675526473.470973) vcan0 3B0#00D8423837B0C602
(1675526473.471050) vcan0 0F5#3A915D917F733274
(1675526473.471128) vcan0 120#62916B917FFB5589
(1675526473.471216) vcan0 130#E7FA1D7111B1FD11
(1675526473.471293) vcan0 150#4C11B3C7B5F7D6C0
(1675526473.472453) vcan0 3CA#00000000540000C8
(1675526473.472531) vcan0 290#0000000000000000
(1675526473.473475) vcan0 125#E5287FE4C1D0D735
(1675526473.474922) vcan0 010#000000002FB031F9
(1675526473.475002) vcan0 008#338144F615800080
(1675526473.477509) vcan0 288#24DFA05F00000080
(1675526473.478956) vcan0 210#67E080A0A869E245
(1675526473.481907) vcan0 1B0#00C0000001B000FC
(1675526473.481982) vcan0 1B5#FF6AB21FC5E0FFEF
(1675526473.482054) vcan0 1D8#363339343234E043
(1675526473.482198) vcan0 1E0#0020734300B917E0
(1675526473.482274) vcan0 2C3#5D8700FFFF365450
(1675526473.482348) vcan0 055#EAF7FB27B22B9C80
(1675526473.482422) vcan0 065#BCE6FAF703BEF801
(1675526473.482505) vcan0 070#000014F8F8E12000
(1675526473.482647) vcan0 075#0000000000005458
(1675526473.482721) vcan0 080#F34F8000C2002C00
(1675526473.483070) vcan0 0B0#39830EA3DBC139A3
(1675526473.483144) vcan0 145#F972D880FC4810A1
(1675526473.484108) vcan0 010#000000002FB031F8
(1675526473.485530) vcan0 072#F000FF3F00788038
(1675526473.485603) vcan0 1D0#0000000000000261
(1675526473.485679) vcan0 008#338154E615800080
(1675526473.485821) vcan0 260#D0FF0055497487B0
(1675526473.488155) vcan0 0E0#E2732AE000803100
(1675526473.489535) vcan0 0F5#3A915D917F772276
(1675526473.490704) vcan0 120#6F916C917FFD5589
(1675526473.492078) vcan0 130#EFFA1D6B11A7F711
(1675526473.492151) vcan0 150#4511B5D7B6F7CDC0
(1675526473.493665) vcan0 350#A200000000000080
(1675526473.493749) vcan0 010#000000002FB031F8
(1675526473.493823) vcan0 291#0000000000000000
(1675526473.493896) vcan0 125#E5287FE4C1D0D735
(1675526473.494793) vcan0 2A9#8C260082C0000084
(1675526473.494866) vcan0 008#338164D615800080
(1675526473.497292) vcan0 072#F000FF3F0078A038
(1675526473.500110) vcan0 1B0#00C0000001B000FC
(1675526473.500189) vcan0 1B5#FF76BE24CAE0FFEF
(1675526473.500267) vcan0 1D8#363339343234E043
(1675526473.501141) vcan0 1E0#0024634300B917E0
(1675526473.501215) vcan0 055#EAF7FB27B22B9C80
(1675526473.502157) vcan0 065#BCE6FBF701BEF801
(1675526473.505046) vcan0 070#000014F8F8E12000
(1675526473.505133) vcan0 075#0000000000005458
(1675526473.505274) vcan0 080#F34F8000C2002C00
(1675526473.505351) vcan0 0B0#39830EA3DBC139A3
(1675526473.505395) vcan0 145#F962D980FC4810A1
(1675526473.505540) vcan0 28C#000020000014FEA9
(1675526473.505614) vcan0 290#0000000000000000
(1675526473.505688) vcan0 288#10DFB04F00000080
(1675526473.505762) vcan0 010#000000002FB031F8
(1675526473.505904) vcan0 1D0#0000000000000061
(1675526473.505978) vcan0 210#67E080A0A869E245
(1675526473.506052) vcan0 2B5#4B3A486293A68E19
(1675526473.506126) vcan0 2C0#5D8700000000A0F1
(1675526473.506475) vcan0 008#338174C615800080
(1675526473.506618) vcan0 2C5#00D78DBDBBE60070
(1675526473.506693) vcan0 340#A700000000000000
(1675526473.506766) vcan0 3AF#0000000000000020
(1675526473.509101) vcan0 0E0#E2732CE800800F00
(1675526473.510545) vcan0 0F5#3F9167917F7B1277
(1675526473.510619) vcan0 120#5B9183917FFE5589
(1675526473.510703) vcan0 130#F7FA1D6B1197FA11
(1675526473.510776) vcan0 150#4D11AFE7B6F7B5C0
(1675526473.513180) vcan0 010#000000002FB031F8
(1675526473.514557) vcan0 072#F000FF3F00788038
(1675526473.514631) vcan0 125#E5287FE4C1D0D735
(1675526473.514705) vcan0 330#B800000000000000
(1675526473.514847) vcan0 008#338184B615800080
(1675526473.515602) vcan0 260#D0FF0055497487B0
(1675526473.518144) vcan0 1B0#00C0000001B000FC
(1675526473.520686) vcan0 1B5#FF81C92AD0E0FFEF
(1675526473.523567) vcan0 1D8#363339343234E043
(1675526473.523641) vcan0 1E0#0024630300B917E0
(1675526473.523784) vcan0 2C3#5D8700FFFF375450
(1675526473.523856) vcan0 055#EAF7FB27B22B9C80
(1675526473.523929) vcan0 065#BBE6FAF700BEF701
(1675526473.524006) vcan0 070#000014F8F8E12000
(1675526473.524090) vcan0 075#0000000000005458
(1675526473.524233) vcan0 080#F34F8000C2002C00
(1675526473.524306) vcan0 0B0#39830EA3DBC139A3
(1675526473.524380) vcan0 145#F952DA80FC4810A1
(1675526473.524454) vcan0 370#1722C000611BC735
(1675526473.524597) vcan0 010#000000002FB031F8
(1675526473.524672) vcan0 1D0#0000000000000061
(1675526473.524744) vcan0 291#0000000000000000
(1675526473.524818) vcan0 008#338194BB00800080
(1675526473.527141) vcan0 288#14DFB04F00000080
(1675526473.528516) vcan0 072#F000FF3F0078A038
(1675526473.528594) vcan0 0E0#E2732BF00080F000
(1675526473.529681) vcan0 210#68E080A0A869E24D
(1675526473.529760) vcan0 3C8#5D87008E882C008E
(1675526473.531061) vcan0 0F5#37915A917F7F0279
(1675526473.531140) vcan0 120#5F917D917FFD5589
(1675526473.531226) vcan0 130#FFFA1D6B1187FD11
(1675526473.531305) vcan0 150#4A11B1F7B6F7A8C0
(1675526473.531382) vcan0 290#0000000000000000
(1675526473.533696) vcan0 010#000000002FB031F8
(1675526473.533776) vcan0 2A9#8C26009BC0000084
(1675526473.533853) vcan0 125#E5287FE4C1D0D735
(1675526473.535013) vcan0 008#3381A4AB00800080
(1675526473.537642) vcan0 360#5E8700D2B364A001
(1675526473.540183) vcan0 1B0#00C0000002B000FC
(1675526473.543066) vcan0 1B5#FF8CD42FD6E0FFEF
(1675526473.543140) vcan0 1D8#363339343234E043
(1675526473.543215) vcan0 1E0#0028534300B917E0
(1675526473.543288) vcan0 055#EAF7FB27B22B9C80
(1675526473.543430) vcan0 065#BCE6FAF700BEF701
(1675526473.543504) vcan0 070#000014F8F8E12000
(1675526473.543578) vcan0 075#0000000000005458
(1675526473.543662) vcan0 080#F34F8000C2002C00
(1675526473.543734) vcan0 0B0#39830EA3DBC139A3
(1675526473.543878) vcan0 145#F942DB80FC4810A1
(1675526473.543949) vcan0 28C#000020000014FEA9
(1675526473.544025) vcan0 2B5#4B3A486293A68D19
(1675526473.544098) vcan0 010#000000002FB031F8
(1675526473.544241) vcan0 072#F000FF3F00788038
(1675526473.545564) vcan0 1D0#0000000000000861
(1675526473.545642) vcan0 390#80FF051D02065E4F
(1675526473.545721) vcan0 008#3381B49B00800080
(1675526473.545797) vcan0 260#D0FF0055497487B0
(1675526473.548183) vcan0 0E0#E2732BF80080D000
(1675526473.549558) vcan0 0F5#2E9153917F43F27A
(1675526473.550644) vcan0 120#5B916B917FF65589
(1675526473.552019) vcan0 130#87FA1D6B1177FD11
(1675526473.552098) vcan0 150#4311B407B7F79FC0
(1675526473.553714) vcan0 288#24DFB04F00000080
(1675526473.553792) vcan0 010#000000002FB031F9
(1675526473.553869) vcan0 210#68E08020A869E24D
(1675526473.553947) vcan0 125#E5287FE4C1D0D735
(1675526473.554744) vcan0 291#0000000000000000
(1675526473.554823) vcan0 3D0#8D0F6100340680C3
(1675526473.554901) vcan0 008#3381C48B00800080
(1675526473.557264) vcan0 072#F000FF3F0078A038
(1675526473.560075) vcan0 1B0#00C0000001B000FC
(1675526473.560149) vcan0 1B5#FF97DF35DBE0FFEF
(1675526473.560223) vcan0 1D8#363339343234E043
(1675526473.561119) vcan0 1E0#002C434300B917E0
(1675526473.561195) vcan0 2C3#5D8700FFFF375450
(1675526473.561337) vcan0 055#EAF7FB27B2299C80
(1675526473.564013) vcan0 065#B9E6FAF7FEBDF701
(1675526473.564086) vcan0 070#000014F8F8E12000
(1675526473.564172) vcan0 075#0000000000005458
(1675526473.564314) vcan0 080#F34F8000C2002C00
(1675526473.564389) vcan0 0B0#39830EA3DAC139A3
(1675526473.564463) vcan0 145#F932DC80FC4810A1
(1675526473.564536) vcan0 290#0000000000000000
(1675526473.564680) vcan0 2C0#5D8700000000A0F1
(1675526473.564751) vcan0 2C5#00D78DBDBCE60070
(1675526473.564825) vcan0 010#000000002FB031F8
(1675526473.564900) vcan0 1D0#0000000000000261
(1675526473.565180) vcan0 400#0101040201010112
(1675526473.565255) vcan0 008#3381D47B00800080
(1675526473.565327) vcan0 405#5E87003A002D3502
(1675526473.567650) vcan0 0E0#E2732AC00080B100
(1675526473.570180) vcan0 0F5#2E9155917F47E27B
(1675526473.571553) vcan0 120#50915F917FF75589
(1675526473.571632) vcan0 130#8FFA1D6B1167FD11
(1675526473.571719) vcan0 150#3D11B517B7F795C0
(1675526473.574104) vcan0 125#E5287FE4C1D0D735
(1675526473.574182) vcan0 010#000000002FB031F8
(1675526473.575269) vcan0 072#F000FF3F00788038
(1675526473.576586) vcan0 008#3381E46B00800080
(1675526473.576659) vcan0 2A9#8C260082C0000084
(1675526473.576733) vcan0 260#D0FF00AA497487B0
(1675526473.578043) vcan0 288#10DFB04F00000080
(1675526473.579146) vcan0 210#68E080A0A869E245
(1675526473.580522) vcan0 1B0#00C0000001B000FC
(1675526473.580595) vcan0 1B5#FFA2EB3BE1E0FFEF
(1675526473.580670) vcan0 1D8#363339343234E043
(1675526473.580812) vcan0 1E0#002C430300B917E0
(1675526473.581639) vcan0 055#EAF7FB27B22B9C80
(1675526473.584519) vcan0 065#B7E6FAF7FEBDF701
(1675526473.584595) vcan0 070#000014F8F8E12000
(1675526473.584746) vcan0 075#0000000000005458
(1675526473.584821) vcan0 080#F34F8000C2002C00
(1675526473.584895) vcan0 0B0#39830EA3DAC139A3
(1675526473.584967) vcan0 145#F922DD80FC4810A1
(1675526473.585110) vcan0 28C#000020000014FEA9
(1675526473.585185) vcan0 2B5#4B3A486293A68D19
(1675526473.585258) vcan0 340#A700000000000000
(1675526473.585332) vcan0 010#000000002FB031F8
(1675526473.585416) vcan0 1D0#0000000000000061
(1675526473.585569) vcan0 291#0000000000000000
(1675526473.585648) vcan0 350#A200000000000080
(1675526473.585726) vcan0 008#3381F45B00800080
(1675526473.587101) vcan0 072#F000FF3F0078A038
(1675526473.588549) vcan0 0E0#E27324C800809700
(1675526473.589634) vcan0 3B0#00D8423C37B0C400
(1675526473.592521) vcan0 0F5#34914C917F4BD27D
(1675526473.592618) vcan0 120#429169917FF55589
(1675526473.592696) vcan0 130#97FA1D5F1163F711
(1675526473.592774) vcan0 150#4111AF27B7F781C0
(1675526473.592924) vcan0 3CA#00000000550000C8
(1675526473.593001) vcan0 290#0000000000000000
(1675526473.593656) vcan0 010#000000002FB031F8
(1675526473.593805) vcan0 330#B800000000000000
(1675526473.594748) vcan0 125#E5287FE4C1D0D735
(1675526473.596024) vcan0 008#3381044B00800080
(1675526473.598701) vcan0 1B0#00C0000001B000FC
(1675526473.600076) vcan0 1B5#FFAEF640E6E0FFEF
(1675526473.600151) vcan0 1D8#363339343234E043
(1675526473.601114) vcan0 1E0#0030334300B917E0
(1675526473.601188) vcan0 2C3#5D8700FFFF375450
(1675526473.604001) vcan0 055#EAF7FB27B22B9C80
(1675526473.604076) vcan0 065#B3E6FAF7FDBDF801
(1675526473.604160) vcan0 070#000014F8F8E12000
(1675526473.604304) vcan0 075#0000000000005458
(1675526473.604378) vcan0 080#F34F8000C2002C00
(1675526473.604452) vcan0 0B0#39830EA3DAC139A3
(1675526473.604526) vcan0 145#F912DE80FC4810A1
(1675526473.604669) vcan0 288#24DFC03F00000080
(1675526473.604744) vcan0 010#000000002FB031F8
(1675526473.604817) vcan0 072#F000FF3F00788038
(1675526473.604892) vcan0 1D0#0000000000000061
(1675526473.605035) vcan0 210#68E080A0A869E24D
(1675526473.605177) vcan0 008#3381143B00800080
(1675526473.606495) vcan0 260#D0FF00AA497487B0
(1675526473.609096) vcan0 0E0#E27320D000807B00
(1675526473.610542) vcan0 0F5#34914C917F4FC27E
(1675526473.610621) vcan0 120#4C917B917FFA5589
(1675526473.610699) vcan0 130#9FFA1D5F1153F711
(1675526473.610786) vcan0 150#4211B437B7F770C0
(1675526473.613170) vcan0 010#000000002FB031F8
(1675526473.614546) vcan0 291#0000000000000000
(1675526473.614624) vcan0 125#E5287FE4C1D0D735
(1675526473.614702) vcan0 2A9#8C26009BC0000084
(1675526473.614851) vcan0 008#3381242B00800080
(1675526473.617096) vcan0 072#F000FF3F0078A038
(1675526473.619636) vcan0 1B0#00C0000002B000FC
(1675526473.622519) vcan0 1B5#FFB90146ECE0FFEF
(1675526473.622595) vcan0 1D8#363339343234E043
(1675526473.622667) vcan0 1E0#0034234300B917E0
(1675526473.622811) vcan0 055#EAF7FB27B22B9C80
(1675526473.622884) vcan0 065#B3E6FBF7FFBDF901
(1675526473.622960) vcan0 070#000014F8F8E12000
(1675526473.623033) vcan0 075#0000000000005458
(1675526473.623106) vcan0 080#F34F8000C2002C00
(1675526473.623258) vcan0 0B0#39830EA3DAC139A3
(1675526473.623332) vcan0 145#F902DF80FC4810A1
(1675526473.623680) vcan0 28C#000020000014FEA9
(1675526473.623755) vcan0 290#0000000000000000
(1675526473.625200) vcan0 2B5#4B3A486293A68D1B
(1675526473.625274) vcan0 010#000000002FB031F8
(1675526473.625348) vcan0 1D0#0000000000000861
(1675526473.625413) vcan0 2C0#5D8700000000A0F1
(1675526473.625558) vcan0 2C5#00D78DBDB7E60070
(1675526473.625631) vcan0 370#1722C000611BC735
(1675526473.625705) vcan0 008#3381341B00800080
(1675526473.625779) vcan0 3AF#0000000000000020
(1675526473.625922) vcan0 3E0#000000D932808090
(1675526473.627710) vcan0 288#1CDFC03F00000080
(1675526473.629225) vcan0 210#68E080A0A869E24D
(1675526473.629298) vcan0 0E0#E27322D800805900
(1675526473.630272) vcan0 0F5#279147917F53B280
(1675526473.633088) vcan0 120#5F916B917FF55589
(1675526473.633160) vcan0 130#A7FA1D5F1143F711
(1675526473.633235) vcan0 150#3911B447B7F769C0
(1675526473.634131) vcan0 010#000000002FB031F9
(1675526473.634204) vcan0 072#F000FF3F00788038
(1675526473.634278) vcan0 125#E5287FE4C1D0D735
(1675526473.635175) vcan0 008#3381440B00800080
(1675526473.636564) vcan0 260#D0FF00AA497487B0
(1675526473.639102) vcan0 360#5E8700D2B364A001
(1675526473.642121) vcan0 1B0#00C0000002B000FC
(1675526473.642194) vcan0 1B5#FFC40C4BF2E0FFEF
(1675526473.642268) vcan0 1D8#363339343234E043
(1675526473.642341) vcan0 1E0#0034230300B917E0
(1675526473.642415) vcan0 2C3#5D8700FFFF375450
(1675526473.642558) vcan0 055#EAF7FB27B22B9C80
(1675526473.642641) vcan0 065#B3E6FBF700BEF901
(1675526473.642715) vcan0 070#000014F8F8E12000
(1675526473.642787) vcan0 075#0000000000005458
(1675526473.642931) vcan0 080#F34F8000C2002C00
(1675526473.643144) vcan0 0B0#39830EA3DAC139A3
(1675526473.643287) vcan0 145#F9F2D080FC4810A1
(1675526473.644595) vcan0 010#000000002FB031F8
(1675526473.644669) vcan0 1D0#0000000000000261
(1675526473.644744) vcan0 291#0000000000000000
(1675526473.644817) vcan0 390#80FF051D02065E6F
(1675526473.644960) vcan0 008#338154FB00800080
(1675526473.647105) vcan0 072#F000FF3F0078A038
(1675526473.648548) vcan0 3C8#5D87008E882C008E
(1675526473.648623) vcan0 0E0#E2732AE000803100
(1675526473.649995) vcan0 0F5#29914C917F57A281
(1675526473.650070) vcan0 120#589158917FFB5589
(1675526473.650152) vcan0 130#AFFA1D5F1133F711
(1675526473.651118) vcan0 150#3611B357B7F75CC0
(1675526473.651260) vcan0 290#0000000000000000
(1675526473.653596) vcan0 288#24DFC03F00000080
(1675526473.655109) vcan0 010#000000002FB031F8
(1675526473.655183) vcan0 210#68E080A0A869E245
(1675526473.655257) vcan0 125#E5287FE4C1D0D735
(1675526473.655332) vcan0 2A9#8C260082C0000084
(1675526473.655482) vcan0 008#338164EB00800080
(1675526473.658875) vcan0 1B0#00C0000001B000FC
(1675526473.660251) vcan0 1B5#FFCF1851F7E0FFEF
(1675526473.660328) vcan0 1D8#363339343234E043
(1675526473.660478) vcan0 1E0#0038134300B917E0
(1675526473.663295) vcan0 055#EAF7FB27B22B9C80
(1675526473.663446) vcan0 065#B1E6FBF7FFBDF901
(1675526473.663523) vcan0 070#000014F8F8E12000
(1675526473.663609) vcan0 075#0000000000005458
(1675526473.663688) vcan0 080#F34F8000C2002C00
(1675526473.663766) vcan0 0B0#39830EA3DAC139A3
(1675526473.663843) vcan0 145#F9E2D180FC4810A1
(1675526473.663993) vcan0 28C#000020000014FEA9
(1675526473.664069) vcan0 2B5#4B3A486293A68D1B
(1675526473.664148) vcan0 340#A700000000000000
(1675526473.664370) vcan0 010#000000002FB031F8
(1675526473.664520) vcan0 072#F000FF3F00788038
(1675526473.664599) vcan0 1D0#0000000000000061
(1675526473.664675) vcan0 008#338174DB00800080
(1675526473.665815) vcan0 260#D0FF0055497487B0
(1675526473.668423) vcan0 0E0#E27335E800800600
(1675526473.669869) vcan0 0F5#299147917F5B9283
(1675526473.669943) vcan0 120#4C9155917FFB5589
(1675526473.670907) vcan0 130#B7FA1D58112AF111
(1675526473.670990) vcan0 150#3911B567B8F749C0
(1675526473.673324) vcan0 350#A200000000000080
(1675526473.674837) vcan0 125#E5287FE4C1D0D735
(1675526473.674910) vcan0 010#000000002FB031F8
(1675526473.674985) vcan0 008#338184CB00800080
(1675526473.675127) vcan0 291#0000000000000000
(1675526473.675872) vcan0 330#B800000000000000
(1675526473.678412) vcan0 288#18DFC03F00000080
(1675526473.681295) vcan0 072#F000FF3F0078A038
(1675526473.681438) vcan0 210#68E080A0A869E245
(1675526473.681514) vcan0 1B0#00C0000001B000FC
(1675526473.681588) vcan0 1B5#FFDA2356FDE0FFEF
(1675526473.681660) vcan0 1D8#363339343234E043
(1675526473.681801) vcan0 1E0#003C034300B917E0
(1675526473.681877) vcan0 2C3#5D8700FFFF385450
(1675526473.681950) vcan0 055#EAF7FB27B22B9C80
(1675526473.682033) vcan0 065#B2E6FBF701BEF901
(1675526473.682382) vcan0 070#000014F8F8E12000
(1675526473.682455) vcan0 075#0000000000005458
(1675526473.682598) vcan0 080#F34F8000C2002C00
(1675526473.683906) vcan0 0B0#39830EA3DAC139A3
(1675526473.683981) vcan0 145#F9D2D280FC4810A1
(1675526473.684053) vcan0 290#0000000000000000
(1675526473.684127) vcan0 2C0#5D8700000000A0F1
(1675526473.684269) vcan0 010#000000002FB031F8
(1675526473.684343) vcan0 1D0#0000000000000061
(1675526473.684417) vcan0 2C5#00D78CBDB2E60070
(1675526473.685040) vcan0 008#338194BB00800080
(1675526473.687581) vcan0 0E0#E2733BF00080E000
(1675526473.690255) vcan0 0F5#1F9147917F5F8284
(1675526473.690334) vcan0 120#4B916D917FFD5589
(1675526473.690412) vcan0 130#BFFA1D55111DF711
(1675526473.690508) vcan0 150#3411B177B8F73EC0
(1675526473.692895) vcan0 010#000000002FB031F8
(1675526473.694270) vcan0 072#F000FF3F00788038
(1675526473.694420) vcan0 2A9#8C26008AC0000084
(1675526473.694497) vcan0 125#E5257FE4C1D0D735
(1675526473.695447) vcan0 008#3381A4AB00800080
(1675526473.696753) vcan0 260#D0FF0055497487B0
(1675526473.699363) vcan0 1B0#00C0000002B000FC
(1675526473.700805) vcan0 1B5#FFE62E5C02E0FFEF
(1675526473.700881) vcan0 1D8#363339343234E043
(1675526473.700953) vcan0 1E0#003C030300B917E0
(1675526473.701919) vcan0 055#EAF7FB27B22B9C80
(1675526473.701994) vcan0 065#B0E6FBF7FFBDF901
(1675526473.704806) vcan0 070#000014F8F8E12000
(1675526473.704879) vcan0 075#0000000000005458
(1675526473.704955) vcan0 080#F34F8000C2002C00
(1675526473.705108) vcan0 0B0#39830EA3DAC139A3
(1675526473.705182) vcan0 145#F9C2D380FC4810A1
(1675526473.705255) vcan0 28C#000020000014FEA9
(1675526473.705330) vcan0 2B5#4B3A486293A68C1B
(1675526473.705410) vcan0 288#20DFD02F00000080
(1675526473.705562) vcan0 010#000000002FB031F8
(1675526473.705641) vcan0 1D0#0000000000000861
(1675526473.705718) vcan0 210#68E08020A869E245
(1675526473.705797) vcan0 291#0000000000000000
(1675526473.705874) vcan0 008#3381B49B00800080
(1675526473.707396) vcan0 072#F000FF3F0078A038
(1675526473.708769) vcan0 3B0#00D8423837B0C400
(1675526473.708847) vcan0 0E0#E2733AF80080C100
(1675526473.711737) vcan0 0F5#1A913F917F637285
(1675526473.711816) vcan0 120#499166917FF65589
(1675526473.711965) vcan0 130#C7FA1D511111F711
(1675526473.712052) vcan0 150#2E11B487B8F734C0
(1675526473.712132) vcan0 3CA#00000000560000C8
(1675526473.712207) vcan0 290#0000000000000000
(1675526473.712936) vcan0 010#000000002FB031F9
(1675526473.714311) vcan0 125#E5227FE4C1D0D735
(1675526473.715468) vcan0 008#3381C48B00800080
(1675526473.719106) vcan0 1B0#00C0000001B000FC
(1675526473.720549) vcan0 1B5#FFF1396108E0FFEF
(1675526473.720623) vcan0 1D8#363339343234E043
(1675526473.720697) vcan0 1E0#0000F34300B917E0
(1675526473.720771) vcan0 2C3#5D8700FFFF385450
(1675526473.721669) vcan0 055#EAF7FB27B22B9C80
(1675526473.724553) vcan0 065#AFE6FBF700BEF901
(1675526473.724626) vcan0 070#000014F8F8E12000
(1675526473.724700) vcan0 075#0000000000005458
(1675526473.724843) vcan0 080#F34F8000C2002C00
(1675526473.724928) vcan0 0B0#39830EA3DAC139A3
(1675526473.725002) vcan0 145#F9B2D480FC4810A1
(1675526473.725075) vcan0 370#1722C000611BC735
(1675526473.725150) vcan0 010#000000002FB031F8
(1675526473.725294) vcan0 072#F000FF3F00788038
(1675526473.725380) vcan0 1D0#0000000000000261
(1675526473.725455) vcan0 008#3381D47B00800080
(1675526473.725667) vcan0 260#D0FF0055497487B0
(1675526473.728208) vcan0 288#18DFD02F00000080
(1675526473.729584) vcan0 0E0#E2733DC000809E00
(1675526473.729656) vcan0 210#68E080A0A869E24D
(1675526473.729731) vcan0 0F5#1B913B917F676287
(1675526473.730630) vcan0 120#469151917FF55589
(1675526473.732003) vcan0 130#CFFA1D511101F711
(1675526473.732147) vcan0 150#2811B397B8F72AC0
(1675526473.733522) vcan0 010#000000002FB031F8
(1675526473.733602) vcan0 291#0000000000000000
(1675526473.733678) vcan0 125#E51F7FE4C1D0D735
(1675526473.734641) vcan0 2A9#8C260093C0000084
(1675526473.734784) vcan0 008#3381E46B00800080
(1675526473.737144) vcan0 072#F000FF3F0078A038
(1675526473.738520) vcan0 360#5E8700D2B364A001
(1675526473.741552) vcan0 1B0#00C0000000B000FC
(1675526473.741701) vcan0 1B5#FFFC45670EE0FFEF
(1675526473.741779) vcan0 1D8#363339343234E043
(1675526473.741857) vcan0 1E0#0004E34300B917E0
(1675526473.741935) vcan0 055#EAF7FB27B22B9C80
(1675526473.742012) vcan0 065#ADE6FBF7FFBDF901
(1675526473.742089) vcan0 070#000014F8F8E12000
(1675526473.742671) vcan0 075#0000000000005458
(1675526473.742749) vcan0 080#F34F8000C2002C00
(1675526473.742827) vcan0 0B0#39830EA3DAC139A3
(1675526473.742912) vcan0 145#F9A2D580FC4810A1
(1675526473.742991) vcan0 28C#000020000014FEA9
(1675526473.743788) vcan0 290#0000000000000000
(1675526473.745308) vcan0 2B5#4B3A486293A68C1B
(1675526473.745389) vcan0 010#000000002FB031F8
(1675526473.745465) vcan0 1D0#0000000000000061
(1675526473.745538) vcan0 2C0#5D8700000000A0F1
(1675526473.745612) vcan0 2C5#00D78CBDB0E60070
(1675526473.745753) vcan0 340#A700000000000000
(1675526473.745829) vcan0 008#3381F45B00800080
(1675526473.746793) vcan0 390#80FF051D023E504F
(1675526473.746866) vcan0 3AF#0000000000000020
(1675526473.748244) vcan0 0E0#E27341C800807A00
(1675526473.749416) vcan0 0F5#259138917F6B5288
(1675526473.752228) vcan0 120#3B9166917FF55589
(1675526473.752301) vcan0 130#D7FA1D5111F1F711
(1675526473.752384) vcan0 150#2711B5A7B8F71BC0
(1675526473.753281) vcan0 288#24DFD02F00000080
(1675526473.753354) vcan0 010#000000002FB031F8
(1675526473.754387) vcan0 072#F000FF3F00788038
(1675526473.755915) vcan0 125#E51A7FE4C1D0D735
(1675526473.755993) vcan0 210#68E080A0A869E24D
(1675526473.756071) vcan0 330#B800000000000000
(1675526473.756149) vcan0 008#35810CC900800080
(1675526473.756228) vcan0 3D0#8D0F6100340680C3
(1675526473.756375) vcan0 260#D0FF00AA497487B0
(1675526473.759914) vcan0 1B0#00C0000001B000FC
(1675526473.759992) vcan0 1B5#FF07506C13E0FFEF
(1675526473.760141) vcan0 1D8#363339343234E043
(1675526473.761012) vcan0 1E0#0004E30300B917E0
(1675526473.762388) vcan0 2C3#5D8700FFFF385450
(1675526473.762466) vcan0 055#EAF7FB27B22D9C80
(1675526473.762554) vcan0 065#ACE6FBF7FFBDF901
(1675526473.762631) vcan0 070#000014F8F8E12000
(1675526473.762781) vcan0 075#0000000000005458
(1675526473.764084) vcan0 080#F34F8000C2002C00
(1675526473.764163) vcan0 0B0#39830EA3DAC139A3
(1675526473.764240) vcan0 145#F992D680FC4810A1
(1675526473.764317) vcan0 350#A200000000000080
(1675526473.764395) vcan0 010#000000002FB031F8
(1675526473.764545) vcan0 1D0#0000000000000061
(1675526473.765134) vcan0 291#0000000000000000
(1675526473.765205) vcan0 008#37811CA90E800080
(1675526473.767720) vcan0 3C8#5D87008E882C008E
