(1675525579.462681) vcan0 065#00A0FFD7008E0002
(1675525579.462795) vcan0 070#00000D5800E20D00
(1675525579.462873) vcan0 075#0000000000005498
(1675525579.464126) vcan0 080#FF4F8000C2003400
(1675525579.464202) vcan0 0B0#458454A200C245A4
(1675525579.464280) vcan0 145#FDD2D280FCC010A1
(1675525579.464356) vcan0 008#A6807CE900800080
(1675525579.465621) vcan0 010#00000000000000E8
(1675525579.465750) vcan0 210#D8DF00A0A809FE41
(1675525579.465829) vcan0 291#0000000000000000
(1675525579.465905) vcan0 330#0000000000000000
(1675525579.465987) vcan0 3D0#8E0F6100D11480C2
(1675525579.468324) vcan0 1B0#0080000000B000EC
(1675525579.469689) vcan0 1B5#F900000000C0FF2F
(1675525579.469768) vcan0 1D8#000000000000CB63
(1675525579.471133) vcan0 1E0#00381B8180BD16E0
(1675525579.471190) vcan0 2C3#669C00FFFF005450
(1675525579.471268) vcan0 072#F000FF0700008000
(1675525579.472653) vcan0 290#01B6C8243638D2C6
(1675525579.474179) vcan0 008#A6808CD900800080
(1675525579.475602) vcan0 010#00000000000000E8
(1675525579.475730) vcan0 1D0#0000000000000861
(1675525579.477152) vcan0 0F5#008000807F5F8200
(1675525579.478687) vcan0 120#008000804F005489
(1675525579.478815) vcan0 130#BC991C000083FF11
(1675525579.480121) vcan0 150#00000070FFC783C0
(1675525579.481663) vcan0 055#F1F7FF27F2009880
(1675525579.483136) vcan0 065#00A0FFD7008E0002
(1675525579.483265) vcan0 070#00000D5800E20D00
(1675525579.483345) vcan0 075#0000000000005498
(1675525579.483421) vcan0 080#FF4F8000C2003400
(1675525579.483499) vcan0 0B0#458454A200C245A4
(1675525579.486157) vcan0 145#FDC2D380FCC010A1
(1675525579.486285) vcan0 28C#80002000002EBE00
(1675525579.486365) vcan0 2B5#4B00004293A6D800
(1675525579.486452) vcan0 008#A6809CC900800080
(1675525579.486533) vcan0 370#0725E0004A0FCB00
(1675525579.486611) vcan0 010#00000000000000E8
(1675525579.486690) vcan0 072#F000FF070000A000
(1675525579.486842) vcan0 2A9#8C0600CAC0000084
(1675525579.487626) vcan0 1B0#0080000000B000EC
(1675525579.489195) vcan0 1B5#F900000000C0FF2F
(1675525579.489254) vcan0 1D8#000000000000CB63
(1675525579.489330) vcan0 1E0#003C0BC180BD16E0
(1675525579.490647) vcan0 210#D8DF00A0A809FE41
(1675525579.493441) vcan0 008#A680ACB900800080
(1675525579.494842) vcan0 010#00000000000000E8
(1675525579.494920) vcan0 1D0#0000000000000061
(1675525579.495070) vcan0 291#0000000000000000
(1675525579.497687) vcan0 0F5#008000807F637200
(1675525579.499113) vcan0 120#008000804F005489
(1675525579.499278) vcan0 130#C4991C000073FF11
(1675525579.499357) vcan0 150#00000080FFC773C0
(1675525579.499435) vcan0 3CA#00000000520000C8
(1675525579.499512) vcan0 072#F000FF0700008000
(1675525579.500670) vcan0 3B0#00D893280000C402
(1675525579.502197) vcan0 055#F1F7FF27F2009880
(1675525579.502275) vcan0 065#00A0FFD7008E0002
(1675525579.505217) vcan0 070#00000D5800E20D00
(1675525579.505276) vcan0 075#0000000000005498
(1675525579.505353) vcan0 080#FF4F8000C2003400
(1675525579.505431) vcan0 0B0#458454A200C245A4
(1675525579.505585) vcan0 145#FDB2D480FCC010A1
(1675525579.505661) vcan0 290#01B6C8243638D2C6
(1675525579.505744) vcan0 2C0#000000000000A0E1
(1675525579.505821) vcan0 008#A680BCA900800080
(1675525579.505898) vcan0 2C5#0087000000E00000
(1675525579.505984) vcan0 010#00000000000000E8
(1675525579.507861) vcan0 1B0#0080000000B000EC
(1675525579.509402) vcan0 1B5#F900000000C0FF2F
(1675525579.509481) vcan0 1D8#000000000000CB63
(1675525579.509630) vcan0 1E0#0000FBC180BD16E0
(1675525579.509708) vcan0 2C3#669C00FFFF005450
(1675525579.513396) vcan0 008#A680CC9900800080
(1675525579.514922) vcan0 010#00000000000000E8
(1675525579.515000) vcan0 072#F000FF0700008000
(1675525579.516366) vcan0 1D0#0000000000000061
(1675525579.516494) vcan0 210#D8DF0020A809FE41
(1675525579.517916) vcan0 0F5#008000807F676200
(1675525579.519431) vcan0 120#008000804F005489
(1675525579.519487) vcan0 130#CC991C000063FF11
(1675525579.519565) vcan0 150#00000090FFC763C0
(1675525579.522073) vcan0 055#F1F7FF27F2009880
(1675525579.523420) vcan0 065#00A0FFD7008E0002
(1675525579.526412) vcan0 070#00000D5800E20D00
(1675525579.526540) vcan0 075#0000000000005498
(1675525579.526618) vcan0 080#FF4F8000C2003400
(1675525579.526694) vcan0 0B0#458454A200C245A4
(1675525579.526773) vcan0 145#FDA2D580FCC010A1
(1675525579.526852) vcan0 28C#80002000002EBE00
(1675525579.526930) vcan0 2B5#4B00004293A6D800
(1675525579.527081) vcan0 008#A680DC8900800080
(1675525579.527159) vcan0 340#0000000000000000
(1675525579.527237) vcan0 010#00000000000000E8
(1675525579.527314) vcan0 291#0000000000000000
(1675525579.527396) vcan0 2A9#8C0600C2C0000084
(1675525579.527837) vcan0 1B0#0080000000B000EC
(1675525579.529436) vcan0 1B5#F900000000C0FF2F
(1675525579.529516) vcan0 1D8#000000000000CB63
