(1675525567.343206) vcan0 010#000000002FB031F8
(1675525567.344281) vcan0 072#F000FF3F0078A038
(1675525567.345298) vcan0 2A9#8C260093C0000084
(1675525567.345376) vcan0 008#6180E41B23800080
(1675525567.346394) vcan0 0E0#E27301D800807A00
(1675525567.347483) vcan0 0F5#1B9D2F9D7F43F21E
(1675525567.351822) vcan0 120#0D9D399D7F015689
(1675525567.351901) vcan0 130#87FF1D391D9DFA11
(1675525567.351987) vcan0 150#251DF707F8F7B1C0
(1675525567.352066) vcan0 288#D0DF10EF00000080
(1675525567.352144) vcan0 125#E5F07FE4C1D0D735
(1675525567.352800) vcan0 010#000000002FB031F8
(1675525567.353889) vcan0 1D0#0000000000000061
(1675525567.354905) vcan0 210#07E080A0C369C645
(1675525567.355054) vcan0 291#0000000000000000
(1675525567.356081) vcan0 008#6180F40B23800080
(1675525567.357026) vcan0 1B0#00C0000002B000FC
(1675525567.357103) vcan0 1B5#FFC3F62133E0FFEF
(1675525567.358119) vcan0 1D8#363339343234E043
(1675525567.358197) vcan0 1E0#0014A34300B917E0
(1675525567.358275) vcan0 055#F7F70828B26B9C80
(1675525567.358351) vcan0 065#83E508F800DE2302
(1675525567.358503) vcan0 070#000007F823E20F00
(1675525567.359158) vcan0 075#0000000000005458
(1675525567.359243) vcan0 080#18508000C2002C00
(1675525567.359322) vcan0 0B0#52830DA3E1C152A3
(1675525567.362213) vcan0 072#F000FF3F00788038
(1675525567.362293) vcan0 145#F972D880FC4810A1
(1675525567.362371) vcan0 2C3#669C00FFFF5B5450
(1675525567.362447) vcan0 370#0726C0008403CB1F
(1675525567.362598) vcan0 3B0#00D87F3C78B4C400
(1675525567.362676) vcan0 260#D0FF0055497487B0
(1675525567.363257) vcan0 010#000000002FB031F8
(1675525567.364274) vcan0 330#2800000000000000
(1675525567.365290) vcan0 008#5F8004EE32800080
(1675525567.366453) vcan0 0E0#627304E000805700
(1675525567.367469) vcan0 0F5#129D159D7F47E221
(1675525567.367547) vcan0 120#269D4B9D7FFA5589
(1675525567.370439) vcan0 130#8FFD1D341D92F411
(1675525567.370518) vcan0 150#131DF217F8F7B3C0
(1675525567.370604) vcan0 290#0000000000000000
(1675525567.371477) vcan0 125#E5F37FE4C1D0D735
(1675525567.372566) vcan0 288#F1DF10EF00000080
(1675525567.373583) vcan0 010#000000002FB031F8
(1675525567.374672) vcan0 072#F000FF3F0078A038
(1675525567.375714) vcan0 1D0#0000000000000861
(1675525567.375799) vcan0 008#5D8014D240800080
(1675525567.376744) vcan0 1B0#00C0000004B000FC
(1675525567.377834) vcan0 1B5#FFD6092B3CE0FFEF
(1675525567.377912) vcan0 1D8#363339343234E043
(1675525567.380588) vcan0 1E0#0018934300B917E0
(1675525567.380739) vcan0 055#F7F70828B2659C80
(1675525567.380817) vcan0 065#83E508F800DE2302
(1675525567.380896) vcan0 070#000007F821E20F00
(1675525567.380974) vcan0 075#0000000000005458
(1675525567.381052) vcan0 080#17508000C2002C00
(1675525567.381139) vcan0 0B0#52830DA3E1C152A3
(1675525567.381216) vcan0 145#F962D980FC4810A1
(1675525567.381294) vcan0 210#07E080A0C369C64D
(1675525567.381372) vcan0 28C#00000000002EFEA5
(1675525567.381521) vcan0 2B5#4B19336293A66D3F
(1675525567.381744) vcan0 010#000000002FB031F8
(1675525567.382760) vcan0 291#0000000000000000
(1675525567.383850) vcan0 2A9#8C26008AC0000084
(1675525567.384865) vcan0 008#5D8024C240800080
(1675525567.387761) vcan0 0E0#627308E800803300
(1675525567.387838) vcan0 0F5#079D189D7F4BD223
(1675525567.387916) vcan0 120#569D459D7FF75589
(1675525567.387994) vcan0 130#97FD1D341D82F711
(1675525567.388072) vcan0 150#0F1DFD27F8F7A7C0
(1675525567.388800) vcan0 072#F000FF3F00788038
(1675525567.389890) vcan0 360#719C00D1B746A001
(1675525567.389986) vcan0 3C8#669C008E882C008E
(1675525567.390931) vcan0 125#E5F67FE4C1D0D735
(1675525567.392018) vcan0 260#D0FF00AA497487B0
(1675525567.393105) vcan0 010#000000002FB031F8
(1675525567.394051) vcan0 1D0#0000000000000061
(1675525567.395140) vcan0 390#80FF051D021A596F
(1675525567.395217) vcan0 008#5B80349E56800080
(1675525567.396168) vcan0 1B0#00C0000004B000FC
(1675525567.399063) vcan0 1B5#FFE81C3446E0FFEF
(1675525567.399141) vcan0 1D8#363339343234E043
(1675525567.399220) vcan0 1E0#0018930300B917E0
(1675525567.399297) vcan0 2C3#669C00FFFF5B5450
(1675525567.399447) vcan0 055#F7F70628B25E9C80
(1675525567.399526) vcan0 065#83E508F800DE2102
(1675525567.399603) vcan0 070#000007F81BE20F00
(1675525567.399681) vcan0 075#0000000000005458
(1675525567.399765) vcan0 080#12508000C2002C00
(1675525567.399845) vcan0 0B0#52830DA3E1C152A3
(1675525567.400140) vcan0 145#F952DA80FC4810A1
(1675525567.400216) vcan0 288#E5DF10EF00000080
(1675525567.400295) vcan0 290#0000000000000000
(1675525567.400373) vcan0 2C0#669C00000000A0F1
(1675525567.401100) vcan0 2C5#0EE773ED83E50070
(1675525567.405007) vcan0 010#000000002FB031F9
(1675525567.405084) vcan0 072#F000FF3F0078A038
(1675525567.405235) vcan0 210#06E080A0C369C645
(1675525567.405311) vcan0 008#5B80448E56800080
(1675525567.406120) vcan0 3D0#990F6100D11480C3
(1675525567.406198) vcan0 0E0#E27302F000801900
(1675525567.407141) vcan0 0F5#FE9C1B9D7F4FC225
(1675525567.407220) vcan0 120#679D489D7FFA5589
(1675525567.408234) vcan0 130#9FFD1D341D72F711
(1675525567.408322) vcan0 150#0C1DF937F9F79AC0
(1675525567.409266) vcan0 125#E5F67FE4C1D0D735
(1675525567.410282) vcan0 010#000000002FB031F8
(1675525567.411371) vcan0 1D0#0000000000000261
(1675525567.412385) vcan0 291#0000000000000000
(1675525567.414846) vcan0 008#5B80547E56800080
(1675525567.417672) vcan0 1B0#00C0000001B000FC
(1675525567.417749) vcan0 1B5#FFFB2F3D4FE0FFEF
(1675525567.417827) vcan0 1D8#363339343234E043
(1675525567.417904) vcan0 1E0#001C834300B917E0
(1675525567.417983) vcan0 055#F7F70528B2539C7F
(1675525567.418710) vcan0 065#80E507F8FEDD1B02
(1675525567.418787) vcan0 070#000007F816E20F00
(1675525567.418939) vcan0 075#0000000000005458
(1675525567.419017) vcan0 080#0A508000C2002C00
(1675525567.419819) vcan0 0B0#52830DA3E1C152A3
(1675525567.419905) vcan0 145#F942DB80FC4810A1
(1675525567.419984) vcan0 28C#00000000002EFEA5
(1675525567.420062) vcan0 2B5#4B19336293A66D38
(1675525567.420139) vcan0 340#8B00000000000000
(1675525567.420795) vcan0 072#F000FF3F00788038
(1675525567.423617) vcan0 350#A200000000000080
(1675525567.423695) vcan0 260#D0FF00AA497487B0
(1675525567.424712) vcan0 288#CCDF20DF00000080
(1675525567.425804) vcan0 008#5B80648440800080
(1675525567.425881) vcan0 010#000000002FB031F8
(1675525567.425960) vcan0 2A9#8C260082C0000084
(1675525567.426037) vcan0 0E0#E27307F80080F400
(1675525567.426765) vcan0 0F5#FE9C159D7F53B228
(1675525567.427927) vcan0 120#3F9D569D7FFD5589
(1675525567.428004) vcan0 130#A7FF1D341D62F711
(1675525567.428082) vcan0 150#091DF147F9F78DC0
(1675525567.428168) vcan0 3CA#00000000540000C8
(1675525567.428896) vcan0 290#0000000000000000
(1675525567.429914) vcan0 210#06E080A0C369C645
(1675525567.431078) vcan0 125#E5F97FE4C1D0D735
(1675525567.433394) vcan0 010#000000002FB031F8
(1675525567.434554) vcan0 072#F000FF3F0078A038
(1675525567.435568) vcan0 1D0#0000000000000061
(1675525567.435648) vcan0 008#5B80747440800080
(1675525567.438398) vcan0 1B0#00C0000001B000FC
(1675525567.438477) vcan0 1B5#FF0E424759E0FFEF
(1675525567.438554) vcan0 1D8#363339343234E043
(1675525567.438630) vcan0 1E0#0020734300B917E0
(1675525567.438709) vcan0 055#F7F70328B23F9C7D
(1675525567.438787) vcan0 065#7BE506F8FCDD1602
(1675525567.438936) vcan0 070#000007F811E20F00
(1675525567.439016) vcan0 075#0000000000005458
(1675525567.439463) vcan0 080#02508000C2002C00
(1675525567.439539) vcan0 0B0#52830DA3E1C152A3
(1675525567.439619) vcan0 145#F932DC80FC4810A1
(1675525567.439696) vcan0 2C3#669C00FFFF5C5450
(1675525567.440496) vcan0 010#000000002FB031F8
(1675525567.441585) vcan0 291#0000000000000000
(1675525567.442674) vcan0 330#2800000000000000
(1675525567.445205) vcan0 008#5B80847232800080
(1675525567.446298) vcan0 0E0#E2730EC00080CD00
(1675525567.447314) vcan0 0F5#0F9D1E9D7F57A22A
(1675525567.447392) vcan0 120#2C9D4B9D7FFA5589
(1675525567.447469) vcan0 130#AFFF1D341D52FA11
(1675525567.448413) vcan0 150#161DF457FAF770C0
(1675525567.449427) vcan0 072#F000FF3F00788038
(1675525567.449505) vcan0 288#DDDF20DF00000080
(1675525567.452326) vcan0 125#E5F97FE4C1D0D735
(1675525567.452425) vcan0 260#D0FF00AA497487B0
(1675525567.453297) vcan0 010#000000002FB031F8
(1675525567.454457) vcan0 1D0#0000000000000861
(1675525567.455473) vcan0 210#06E08020C369C64D
(1675525567.455551) vcan0 008#5B80946232800080
(1675525567.456505) vcan0 1B0#00C0000004B000FC
(1675525567.457593) vcan0 1B5#FF21555062E0FFEF
(1675525567.457670) vcan0 1D8#363339343234E043
(1675525567.457749) vcan0 1E0#0020730300B917E0
(1675525567.457826) vcan0 055#F7F70228B22D9C7E
(1675525567.458626) vcan0 065#79E504F8FEDD1202
(1675525567.458703) vcan0 070#000007F80EE20F00
(1675525567.458854) vcan0 075#0000000000005458
(1675525567.458931) vcan0 080#FE4F8000C2002C00
(1675525567.461461) vcan0 0B0#52830DA3E1C152A3
(1675525567.461612) vcan0 145#F922DD80FC4810A1
(1675525567.461700) vcan0 28C#00000000002EFEA5
(1675525567.461777) vcan0 290#0000000000000000
(1675525567.461856) vcan0 2B5#4B19336293A66C2F
(1675525567.461935) vcan0 2C0#669C00000000A0F1
(1675525567.462010) vcan0 2C5#0CE773ED80E50070
(1675525567.462163) vcan0 370#0727C0008403CB1F
(1675525567.462240) vcan0 3AF#0000000000000020
(1675525567.462316) vcan0 3E0#000000D934808092
(1675525567.462612) vcan0 010#000000002FB031F8
(1675525567.463627) vcan0 072#F000FF3F0078A038
(1675525567.464714) vcan0 2A9#8C26009BC0000084
(1675525567.465804) vcan0 008#5B80A46123800080
(1675525567.466821) vcan0 0E0#E2730EC80080AD00
(1675525567.469497) vcan0 0F5#019D0D9D7F5B922D
(1675525567.469574) vcan0 120#519D379D7FF25589
(1675525567.469725) vcan0 130#B7FF1D341D42FF11
(1675525567.469812) vcan0 150#071DFD67FAF76FC0
(1675525567.470539) vcan0 125#E5F97FE4C1D0D735
(1675525567.471626) vcan0 288#F5DF20DF00000080
(1675525567.472642) vcan0 010#000000002FB031F8
(1675525567.473802) vcan0 1D0#0000000000000061
(1675525567.474818) vcan0 291#0000000000000000
(1675525567.475864) vcan0 008#5B80B45F15800080
(1675525567.478759) vcan0 1B0#00C0000002B000FC
(1675525567.478835) vcan0 1B5#FF34685A6BE0FFEF
(1675525567.478915) vcan0 1D8#363339343234E043
(1675525567.478993) vcan0 1E0#0024634300B917E0
(1675525567.479069) vcan0 055#F7F70128B21D9C7E
(1675525567.479221) vcan0 065#79E504F800DE1202
(1675525567.479297) vcan0 070#000007F80AE20F00
(1675525567.479375) vcan0 075#0000000000005458
(1675525567.479454) vcan0 080#FA4F8000C2002C00
(1675525567.479541) vcan0 0B0#52830DA3E1C152A3
(1675525567.479906) vcan0 072#F000FF3F00788038
(1675525567.479984) vcan0 145#F912DE80FC4810A1
(1675525567.480060) vcan0 210#06E080A0C369C645
(1675525567.480139) vcan0 2C3#669C00FFFF5C5450
(1675525567.480938) vcan0 3B0#00D87F3878B4C400
(1675525567.483759) vcan0 260#D0FF0055497487B0
(1675525567.484778) vcan0 010#000000002FB031F9
(1675525567.485874) vcan0 008#5B80C44F15800080
(1675525567.485951) vcan0 0E0#E27308D000809300
(1675525567.486970) vcan0 0F5#019D0F9D7F5F822F
(1675525567.487984) vcan0 120#599D569D7FFC5589
(1675525567.488063) vcan0 130#BFFF1D341D32FF11
(1675525567.488212) vcan0 150#081DFF77FBF75EC0
(1675525567.488291) vcan0 290#0000000000000000
(1675525567.489018) vcan0 360#719C00D2B746A001
(1675525567.490044) vcan0 125#E5F97FE4C1D0D735
(1675525567.491132) vcan0 010#000000002FB031F8
(1675525567.492148) vcan0 072#F000FF3F0078A038
(1675525567.494607) vcan0 1D0#0000000000000261
(1675525567.495624) vcan0 390#80FF051D02125B4F
(1675525567.495776) vcan0 008#5B80D45400800080
(1675525567.498526) vcan0 1B0#00C0000004B000FC
(1675525567.498675) vcan0 1B5#FF477B6375E0FFEF
(1675525567.498754) vcan0 1D8#363339343234E043
(1675525567.498831) vcan0 1E0#0028534300B917E0
(1675525567.498910) vcan0 055#F7F70128B2129C7E
(1675525567.498986) vcan0 065#7BE503F802DE0F02
(1675525567.499065) vcan0 070#000007F807E20F00
(1675525567.499142) vcan0 075#0000000000005458
(1675525567.499292) vcan0 080#F94F8000C2002C00
(1675525567.499587) vcan0 0B0#52830DA3E2C152A3
(1675525567.499673) vcan0 145#F902DF80FC4810A1
(1675525567.499750) vcan0 288#E5DF20DF00000080
(1675525567.499828) vcan0 28C#00000000002EFEA5
(1675525567.500628) vcan0 2B5#4B1A336293A66B29
(1675525567.500705) vcan0 340#8B00000000000000
(1675525567.504612) vcan0 010#000000002FB031F8
(1675525567.504690) vcan0 210#06E080A0C369C64D
(1675525567.505634) vcan0 291#0000000000000000
(1675525567.505717) vcan0 2A9#8C260082C0000084
(1675525567.505795) vcan0 008#5B80E44400800080
(1675525567.506740) vcan0 0E0#E27305D800807600
(1675525567.507755) vcan0 0F5#049D0D9D7F637231
(1675525567.507834) vcan0 120#4E9D459D7FF85589
(1675525567.507911) vcan0 130#C7FF1D341D22FF11
(1675525567.507990) vcan0 150#081DF987FCF74EC0
(1675525567.508067) vcan0 350#A200000000000080
(1675525567.508875) vcan0 3C8#669C008E882C008E
(1675525567.509819) vcan0 072#F000FF3F00788038
(1675525567.510982) vcan0 125#E5F97FE4C1D0D735
(1675525567.511997) vcan0 260#D0FF0055497487B0
(1675525567.514459) vcan0 008#5B80F43400800080
(1675525567.515548) vcan0 581#FFFFFFFFFFFF0081
(1675525567.518375) vcan0 010#000000002FB031F8
(1675525567.518455) vcan0 1D0#0000000000000061
(1675525567.518531) vcan0 400#010102010102010C
(1675525567.518609) vcan0 405#48314C3437564D11
(1675525567.518759) vcan0 1B0#00C0000002B000FC
(1675525567.518836) vcan0 1B5#FF5A8E6C7EE0FFEF
(1675525567.518913) vcan0 1D8#363339343234E043
(1675525567.518992) vcan0 1E0#0028530300B917E0
(1675525567.519068) vcan0 055#F7F70028B20C9C7F
(1675525567.519219) vcan0 065#7DE502F801DE0C02
(1675525567.519305) vcan0 070#000007F805E20F00
(1675525567.519384) vcan0 075#0000000000005458
(1675525567.519463) vcan0 080#F84F8000C2002C00
(1675525567.519541) vcan0 0B0#52830DA3E2C152A3
(1675525567.519619) vcan0 145#F9F2D080FC4810A1
(1675525567.522367) vcan0 290#0000000000000000
(1675525567.522517) vcan0 2C0#669C00000000A0F1
(1675525567.522596) vcan0 2C3#669C00FFFF5C5450
(1675525567.522674) vcan0 2C5#07E773EE7CE50070
(1675525567.523473) vcan0 288#E9DF30CF00000080
(1675525567.524562) vcan0 008#5B80042400800080
(1675525567.525575) vcan0 0E0#E2730CE000804F00
(1675525567.526597) vcan0 010#000000002FB031F8
(1675525567.527758) vcan0 072#F000FF3F0078A038
(1675525567.527835) vcan0 0F5#079D0F9D7F676234
(1675525567.527913) vcan0 120#3C9D429D7FFA5589
(1675525567.527998) vcan0 130#CFFF1D341D12FF11
(1675525567.528726) vcan0 150#0B1DFB97FCF73BC0
(1675525567.528877) vcan0 330#2800000000000000
(1675525567.529749) vcan0 125#E5F97FE4C1D0D735
(1675525567.532208) vcan0 210#06E080A0C369C64D
(1675525567.535029) vcan0 008#5B80141400800080
(1675525567.536110) vcan0 010#000000002FB031F8
(1675525567.536185) vcan0 1D0#0000000000000861
(1675525567.537151) vcan0 291#0000000000000000
(1675525567.537228) vcan0 1B0#00C0000002B000FC
(1675525567.537302) vcan0 1B5#FF6DA17688E0FFEF
(1675525567.537376) vcan0 1D8#363339343234E043
(1675525567.538274) vcan0 1E0#002C434300B917E0
(1675525567.538348) vcan0 055#F7F7FF27B2079C7F
(1675525567.538422) vcan0 065#80E501F803DE0902
(1675525567.538497) vcan0 070#000007F803E20F00
(1675525567.539268) vcan0 075#0000000000005458
(1675525567.539342) vcan0 080#F44F8000C2002C00
(1675525567.539415) vcan0 0B0#52830DA3E2C152A3
(1675525567.539560) vcan0 145#F9E2D180FC4810A1
(1675525567.542174) vcan0 28C#00000000002EFEA5
(1675525567.542247) vcan0 2B5#4B1A336293A66B22
(1675525567.542322) vcan0 072#F000FF3F00788038
(1675525567.542397) vcan0 260#D0FF0055497487B0
(1675525567.543156) vcan0 010#000000002FB031F8
(1675525567.544260) vcan0 008#5B80240400800080
(1675525567.545296) vcan0 2A9#8C26009BC0000084
(1675525567.546406) vcan0 0E0#E27315E800802600
(1675525567.547442) vcan0 0F5#159D0F9D7F6B5236
(1675525567.547514) vcan0 120#459D459D7FF55589
(1675525567.547590) vcan0 130#D7FF1D341D02FF11
(1675525567.548488) vcan0 150#121DFDA7FCF724C0
(1675525567.548571) vcan0 290#0000000000000000
(1675525567.548713) vcan0 3CA#00000000550000C8
(1675525567.549543) vcan0 288#F9DF30CF00000080
(1675525567.551885) vcan0 125#E5F97FE4C1D0D735
(1675525567.552991) vcan0 010#000000002FB031F8
(1675525567.555874) vcan0 072#F000FF3F0078A038
(1675525567.555948) vcan0 1D0#0000000000000061
(1675525567.556026) vcan0 008#5B8034F400800080
(1675525567.556177) vcan0 210#06E080A0C369C645
(1675525567.556978) vcan0 1B0#00C0000004B000FC
(1675525567.557055) vcan0 1B5#FF80B37F91E0FFEF
(1675525567.558001) vcan0 1D8#363339343234E043
(1675525567.558081) vcan0 1E0#0030334300B917E0
(1675525567.558158) vcan0 055#F7F7FF27B2019C7F
(1675525567.558308) vcan0 065#7FE500F801DE0502
(1675525567.559108) vcan0 070#000007F801E20F00
(1675525567.559196) vcan0 075#0000000000005458
(1675525567.559274) vcan0 080#F04F8000C2002C00
(1675525567.559351) vcan0 0B0#52830DA3E2C152A3
(1675525567.559430) vcan0 145#F9D2D280FC4810A1
(1675525567.562036) vcan0 2C3#669C00FFFF5D5450
(1675525567.562116) vcan0 370#0727C0008403CB1F
(1675525567.563060) vcan0 010#000000002FB031F9
(1675525567.564149) vcan0 291#0000000000000000
(1675525567.565239) vcan0 425#0000000000000000
(1675525567.565320) vcan0 008#588044E700800080
(1675525567.566178) vcan0 0E0#E27316F000800500
(1675525567.567268) vcan0 0F5#FE9C159D7F6F4238
(1675525567.567347) vcan0 120#299D4B9D7FFB5589
(1675525567.567424) vcan0 130#DFFF1D341DF2FF11
(1675525567.568370) vcan0 150#091D02B8FDF71DC0
(1675525567.569386) vcan0 072#F000FF3F00788038
(1675525567.570485) vcan0 125#E5F97FE4C1D0D735
(1675525567.571431) vcan0 260#D0FF00AA497487B0
(1675525567.573965) vcan0 288#FEDF30CF00000080
(1675525567.576743) vcan0 010#000000002FB031F8
(1675525567.576885) vcan0 1D0#0000000000000261
(1675525567.576960) vcan0 008#588054D700800080
(1675525567.577034) vcan0 1B0#00C0000004B000FC
(1675525567.577863) vcan0 1B5#FF93C6889AE0FFEF
(1675525567.577938) vcan0 1D8#363339343234E043
(1675525567.578013) vcan0 1E0#0030330300B917E0
(1675525567.578085) vcan0 055#F7F7FF27B2009C80
(1675525567.578229) vcan0 065#7FE5FFF700DE0102
(1675525567.578922) vcan0 070#000007F800E20F00
(1675525567.578996) vcan0 075#0000000000005458
(1675525567.579071) vcan0 080#EE4F8000C2002C00
(1675525567.579214) vcan0 0B0#52830DA3E2C152A3
(1675525567.579918) vcan0 145#F9C2D380FC4810A1
(1675525567.579993) vcan0 210#06E080A0C369C64D
(1675525567.582744) vcan0 28C#00000000002EBEA5
(1675525567.582819) vcan0 290#0000000000000000
(1675525567.582961) vcan0 2B5#4B1A336293A6721D
(1675525567.583034) vcan0 2C0#669C00000000A0F1
(1675525567.583109) vcan0 2C5#04E773EE7EE50070
(1675525567.583184) vcan0 340#8B00000000000000
(1675525567.583327) vcan0 3AF#0000000000000020
(1675525567.583814) vcan0 010#000000002FB031F8
(1675525567.584919) vcan0 072#F000FF3F0078A038
(1675525567.584992) vcan0 2A9#8C260082C0000084
(1675525567.585935) vcan0 008#588064C700800080
(1675525567.586086) vcan0 0E0#E27311F80080EA00
(1675525567.587030) vcan0 0F5#0A9D0D9D7F73323B
(1675525567.588120) vcan0 120#4E9D2F9D7FF55589
(1675525567.588219) vcan0 130#E7FD1D341DE2FF11
(1675525567.589527) vcan0 150#0B1D01C8FDF70BC0
(1675525567.589605) vcan0 360#719C00D2B746A001
(1675525567.590623) vcan0 125#E5F97FE4C1D0D735
(1675525567.591642) vcan0 010#000000002FB031F8
(1675525567.592732) vcan0 1D0#0000000000000061
(1675525567.593676) vcan0 291#0000000000000000
(1675525567.594762) vcan0 390#80FF051D02125B4F
(1675525567.595787) vcan0 008#588074B700800080
(1675525567.600048) vcan0 1B0#00C0000002B000FC
(1675525567.600122) vcan0 1B5#FFA6D992A4E0FFEF
(1675525567.600196) vcan0 1D8#363339343234E043
(1675525567.600271) vcan0 1E0#0034234300B917E0
(1675525567.600413) vcan0 2C3#669C00FFFF5D5450
(1675525567.600489) vcan0 055#F7F7FF27B2009C80
(1675525567.600562) vcan0 065#7EE5FFF700DE0002
(1675525567.600646) vcan0 070#000007F8FFE10F00
(1675525567.600719) vcan0 075#0000000000005458
(1675525567.600863) vcan0 080#ED4F8000C2002C00
(1675525567.600937) vcan0 0B0#52830DA3E2C152A3
(1675525567.601010) vcan0 072#F000FF3F00788038
(1675525567.601085) vcan0 145#F9B2D480FC4810A1
(1675525567.601227) vcan0 288#F1DF30CF00000080
(1675525567.601301) vcan0 350#A200000000000080
(1675525567.601375) vcan0 3B0#00FC863878B4C600
(1675525567.602205) vcan0 260#D0FF00AA497487B0
(1675525567.603239) vcan0 010#000000002FB031F8
(1675525567.604204) vcan0 210#06E08020C369C645
(1675525567.605308) vcan0 330#2800000000000000
(1675525567.608121) vcan0 008#588084A700800080
(1675525567.608273) vcan0 3D0#990F6100D11480C3
(1675525567.608350) vcan0 0E0#E2730EC00080CD00
(1675525567.608437) vcan0 0F5#019D0A9D7F77223D
(1675525567.608515) vcan0 120#429D269D7FF25589
(1675525567.608594) vcan0 130#EFFD1D341DD2FF11
(1675525567.608671) vcan0 150#051DFDD7FDF701C0
(1675525567.608821) vcan0 290#0000000000000000
(1675525567.609260) vcan0 430#2808280000002DC6
(1675525567.610276) vcan0 125#E5F97FE4C1D0D735
(1675525567.611364) vcan0 010#000000002FB031F8
(1675525567.612452) vcan0 072#F000FF3F0078A038
(1675525567.613468) vcan0 008#5880949700800080
(1675525567.614485) vcan0 1D0#0000000000000861
(1675525567.615497) vcan0 1B0#00C0000001B000FC
(1675525567.618332) vcan0 1B5#FFB9EC9BADE0FFEF
(1675525567.618476) vcan0 1D8#363339343234E043
(1675525567.618550) vcan0 1E0#0038134300B917E0
(1675525567.618624) vcan0 055#F8F7FF27B2009C80
(1675525567.618707) vcan0 065#7BE5FFF7FEDDFF01
(1675525567.618852) vcan0 070#000006F8FDE10F00
(1675525567.618925) vcan0 075#0000000000005458
(1675525567.619410) vcan0 080#EC4F8000C2002C00
(1675525567.619553) vcan0 0B0#52830DA3E3C152A3
(1675525567.619627) vcan0 145#F9A2D580FC4810A1
(1675525567.619702) vcan0 28C#00000000002EBEA5
(1675525567.619775) vcan0 2B5#4B1A336293A6741A
(1675525567.620536) vcan0 288#02E040BF00000080
(1675525567.621571) vcan0 008#5880A48700800080
(1675525567.622674) vcan0 010#000000002FB031F8
(1675525567.625216) vcan0 291#0000000000000000
(1675525567.626315) vcan0 0E0#E27313C80080A800
(1675525567.626393) vcan0 2A9#8C26008AC0000084
(1675525567.627338) vcan0 0F5#019D0D9D7F7B123F
(1675525567.627415) vcan0 120#159D3C9D7FFD5589
(1675525567.627504) vcan0 130#F7FD1D341DC2FF11
(1675525567.628304) vcan0 150#071D02E8FEF7EFC0
(1675525567.629392) vcan0 3C8#669C008E882C008E
(1675525567.630481) vcan0 072#F000FF3F00788038
(1675525567.630560) vcan0 210#06E080A0C369C645
(1675525567.633307) vcan0 125#E5F97FE4C1D0D735
(1675525567.633385) vcan0 260#D0FF00AA497487B0
(1675525567.634330) vcan0 010#000000002FB031F8
(1675525567.635417) vcan0 1D0#0000000000000061
(1675525567.635495) vcan0 008#5880B47700800080
(1675525567.636481) vcan0 1B0#00C0000002B000FC
(1675525567.637584) vcan0 1B5#FFCCFFA5B7E0FFEF
(1675525567.637659) vcan0 1D8#363339343234E043
(1675525567.637733) vcan0 1E0#0038130300B917E0
(1675525567.637807) vcan0 2C3#669C00FFFF5E5450
(1675525567.640423) vcan0 055#F8F7FE27B2009C80
(1675525567.640506) vcan0 065#7AE5FFF7FFDDFD01
(1675525567.640580) vcan0 070#000006F8FCE10F00
(1675525567.640655) vcan0 075#0000000000005458
(1675525567.640798) vcan0 080#EC4F8000C2002C00
(1675525567.640870) vcan0 0B0#52830DA3E4C152A3
(1675525567.640943) vcan0 145#F992D680FC4810A1
(1675525567.641019) vcan0 290#0000000000000000
(1675525567.641162) vcan0 2C0#669C00000000A0F1
(1675525567.641237) vcan0 2C5#00E772EF7DE50070
(1675525567.641519) vcan0 010#000000002FB031F9
(1675525567.642554) vcan0 072#F000FF3F0078A038
(1675525567.643587) vcan0 008#5880C46700800080
(1675525567.644693) vcan0 0E0#E27313D000808800
(1675525567.645659) vcan0 0F5#049DFC9C7F7F0242
(1675525567.646969) vcan0 120#319D3C9D7FF15589
(1675525567.648058) vcan0 130#FFFA1D311DB5FF11
(1675525567.648147) vcan0 150#001DFFF7FEF7E6C0
(1675525567.649165) vcan0 288#F9DF40BF00000080
(1675525567.650182) vcan0 125#E5F97FE4C1D0D735
(1675525567.654088) vcan0 010#000000002FB031F8
(1675525567.655180) vcan0 1D0#0000000000000261
(1675525567.655256) vcan0 210#06E080A0C369C64D
(1675525567.655335) vcan0 291#0000000000000000
(1675525567.655413) vcan0 008#5880D45700800080
(1675525567.656196) vcan0 1B0#00C0000002B000FC
(1675525567.657232) vcan0 1B5#FFDF12AEC0E0FFEF
(1675525567.657306) vcan0 1D8#363339343234E043
(1675525567.658273) vcan0 1E0#003C034300B917E0
(1675525567.658348) vcan0 055#F8F7FE27B2009C80
(1675525567.658422) vcan0 065#77E5FEF7FEDDFB01
(1675525567.658566) vcan0 070#000006F8FAE10F00
(1675525567.658640) vcan0 075#0000000000005458
(1675525567.659341) vcan0 080#EC4F8000C2002C00
(1675525567.659416) vcan0 072#F000FF3F00788038
(1675525567.662239) vcan0 0B0#52830DA3E4C152A3
(1675525567.662382) vcan0 145#F982D780FC4810A1
(1675525567.662457) vcan0 28C#00000000002EBEA5
(1675525567.662530) vcan0 2B5#4B1A326293A67416
(1675525567.662604) vcan0 340#8B00000000000000
(1675525567.662747) vcan0 370#0726C0008403CB1F
(1675525567.662821) vcan0 260#D0FF00AA497487B0
(1675525567.663377) vcan0 010#000000002FB031F8
(1675525567.664412) vcan0 2A9#8C260093C0000084
(1675525567.665447) vcan0 008#5880E44700800080
(1675525567.666476) vcan0 0E0#E27312D800806900
(1675525567.667579) vcan0 0F5#FC9C019D7F43F244
(1675525567.667654) vcan0 120#379D299D7FF25589
(1675525567.667727) vcan0 130#87FD1D311DA5FF11
(1675525567.667809) vcan0 150#FE1C0208FEF7D9C0
(1675525567.670426) vcan0 290#0000000000000000
(1675525567.670500) vcan0 3CA#00000000560000C8
(1675525567.671465) vcan0 125#E5F97FE4C1D0D735
(1675525567.672500) vcan0 288#F9DF40BF00000080
(1675525567.673604) vcan0 010#000000002FB031F8
(1675525567.674569) vcan0 072#F000FF3F0078A038
(1675525567.675605) vcan0 1D0#0000000000000061
(1675525567.675678) vcan0 008#5880F43700800080
(1675525567.676702) vcan0 1B0#00C0000001B000FC
(1675525567.677739) vcan0 1B5#FFF125B7C9E0FFEF
(1675525567.677881) vcan0 1D8#363339343234E043
(1675525567.677956) vcan0 1E0#0000F34300B917E0
(1675525567.680639) vcan0 055#F8F7FD27B2009C80
(1675525567.680713) vcan0 065#78E5FEF700DEFB01
(1675525567.680787) vcan0 070#000006F8F9E10F00
(1675525567.680872) vcan0 075#0000000000005458
(1675525567.680947) vcan0 080#EB4F8000C2002C00
(1675525567.681088) vcan0 0B0#52830DA3E4C152A3
(1675525567.681164) vcan0 145#F972D880FC4810A1
(1675525567.681236) vcan0 210#06E080A0C369C64D
(1675525567.681310) vcan0 2C3#669C00FFFF5E5450
(1675525567.681728) vcan0 010#000000002FB031F8
(1675525567.682763) vcan0 291#0000000000000000
(1675525567.683798) vcan0 330#2800000000000000
(1675525567.684901) vcan0 008#5880042700800080
(1675525567.685954) vcan0 0E0#E2730BE000805000
(1675525567.688776) vcan0 0F5#FC9CFC9C7F47E247
(1675525567.688855) vcan0 120#629D1E9D7FFD5589
(1675525567.689005) vcan0 130#8FFD1D311D95FF11
(1675525567.689083) vcan0 150#FC1CFF17FFF7CBC0
(1675525567.689161) vcan0 350#A200000000000080
(1675525567.689248) vcan0 072#F000FF3F00788038
(1675525567.689833) vcan0 360#719C00D2B746A001
(1675525567.690922) vcan0 125#E5F67FE4C1D0D735
(1675525567.692009) vcan0 260#D0FF0055497487B0
(1675525567.693027) vcan0 010#000000002FB031F8
(1675525567.694043) vcan0 1D0#0000000000000861
(1675525567.695060) vcan0 390#80FF051D020A5D4F
(1675525567.695210) vcan0 008#5880141700800080
(1675525567.696144) vcan0 1B0#00C0000000B000FC
(1675525567.699034) vcan0 1B5#FF0438C1D3E0FFEF
(1675525567.699109) vcan0 1D8#363339343234E043
(1675525567.699251) vcan0 1E0#0000F30300B917E0
(1675525567.699326) vcan0 055#F8F7FD27B2009C80
(1675525567.699400) vcan0 065#75E5FEF7FEDDFA01
(1675525567.699473) vcan0 070#000006F8F8E10F00
(1675525567.699617) vcan0 075#0000000000005458
(1675525567.699710) vcan0 080#EB4F8000C2002C00
(1675525567.699783) vcan0 0B0#52830DA3E3C152A3
(1675525567.699858) vcan0 145#F962D980FC4810A1
(1675525567.700140) vcan0 288#02E040BF00000080
(1675525567.700215) vcan0 28C#00000000002EBEA5
(1675525567.700287) vcan0 290#0000000000000000
(1675525567.700431) vcan0 2B5#4B1A326293A67415
(1675525567.701193) vcan0 2C0#669C00000000A0F1
(1675525567.704015) vcan0 2C5#00E772EF7BE50070
(1675525567.704157) vcan0 3AF#0000000000000020
(1675525567.705133) vcan0 010#000000002FB031F8
(1675525567.705197) vcan0 072#F000FF3F0078A038
(1675525567.705274) vcan0 210#06E080A0C369C645
(1675525567.705417) vcan0 2A9#8C26008AC0000084
(1675525567.705492) vcan0 008#5880240700800080
(1675525567.706156) vcan0 0E0#E27309E800803200
(1675525567.707200) vcan0 0F5#F49CFC9C7F4BD249
(1675525567.707276) vcan0 120#2C9D379D7F035689
(1675525567.708242) vcan0 130#97FD1D311D85FF11
(1675525567.708384) vcan0 150#F81C0228FFF7BFC0
(1675525567.709352) vcan0 125#E5F67FE4C1D0D735
(1675525567.710386) vcan0 010#000000002FB031F8
(1675525567.711489) vcan0 1D0#0000000000000061
(1675525567.713966) vcan0 291#0000000000000000
(1675525567.715002) vcan0 008#588034F700800080
(1675525567.717897) vcan0 1B0#00C0000001B000FC
(1675525567.718048) vcan0 1B5#FF174ACADCE0FFEF
(1675525567.718127) vcan0 1D8#363339343234E043
(1675525567.718205) vcan0 1E0#0004E34300B917E0
(1675525567.718283) vcan0 2C3#669C00FFFF5F5450
(1675525567.718361) vcan0 055#F8F7FD27B2009C80
(1675525567.719016) vcan0 065#74E5FDF700DEF801
(1675525567.719106) vcan0 070#000007F8F7E10F00
(1675525567.719183) vcan0 075#0000000000005458
(1675525567.719260) vcan0 080#EB4F8000C2002C00
(1675525567.719339) vcan0 0B0#52830CA3E3C152A3
(1675525567.720066) vcan0 145#F952DA80FC4810A1
(1675525567.720145) vcan0 072#F000FF3F00788038
(1675525567.720294) vcan0 3B0#00D8863878B4C400
(1675525567.721093) vcan0 260#D0FF0055497487B0
(1675525567.723699) vcan0 288#EDDF50AF00000080
(1675525567.724788) vcan0 008#588044E700800080
(1675525567.725872) vcan0 010#000000002FB031F9
(1675525567.725948) vcan0 0E0#E27306F000801500
(1675525567.726914) vcan0 0F5#019D0D9D7F4FC24B
(1675525567.728018) vcan0 120#189D379D7F005689
(1675525567.728091) vcan0 130#9FFA1D311D75FF11
(1675525567.728164) vcan0 150#071DFF37FFF79FC0
(1675525567.728260) vcan0 290#0000000000000000
(1675525567.728953) vcan0 210#06E080A0C369C64D
(1675525567.731772) vcan0 125#E5F97FE4C1D0D735
(1675525567.732879) vcan0 010#000000002FB031F8
(1675525567.733913) vcan0 072#F000FF3F0078A038
(1675525567.735014) vcan0 1D0#0000000000000261
(1675525567.735994) vcan0 008#588054D700800080
(1675525567.737030) vcan0 1B0#00C0000002B000FC
(1675525567.737105) vcan0 1B5#FF2A5DD3E5E0FFEF
(1675525567.738140) vcan0 1D8#363339343234E043
(1675525567.738215) vcan0 1E0#0008D34300B917E0
(1675525567.741033) vcan0 055#F8F7FC27B2009C80
(1675525567.741107) vcan0 065#71E5FDF7FEDDF701
(1675525567.741250) vcan0 070#000007F8F5E10F00
(1675525567.741324) vcan0 075#0000000000005458
(1675525567.741398) vcan0 080#F04F8000C2002C00
(1675525567.741480) vcan0 0B0#52830CA3E3C152A3
(1675525567.741556) vcan0 145#F942DB80FC4810A1
(1675525567.741697) vcan0 28C#00000000002EFEA5
(1675525567.741771) vcan0 2B5#4B1A326293A67413
(1675525567.741846) vcan0 340#8B00000000000000
(1675525567.742126) vcan0 010#000000002FB031F8
(1675525567.743163) vcan0 291#0000000000000000
(1675525567.744198) vcan0 2A9#8C260093C0000084
(1675525567.745231) vcan0 008#588064C700800080
(1675525567.746264) vcan0 0E0#E2730AF80080F100
(1675525567.749161) vcan0 0F5#FC9C019D7F53B24E
(1675525567.749238) vcan0 120#4B9D2C9D7FFC5589
(1675525567.749317) vcan0 130#A7FD1D311D65FF11
(1675525567.749394) vcan0 150#FE1CFF47FFF799C0
(1675525567.749473) vcan0 288#EDDF50AF00000080
(1675525567.750200) vcan0 072#F000FF3F00788038
(1675525567.750288) vcan0 3C8#669C008E882C008E
(1675525567.751304) vcan0 125#E5F97FE4C1D0D735
(1675525567.752322) vcan0 260#D0FF0055497487B0
(1675525567.753412) vcan0 010#000000002FB031F8
(1675525567.754356) vcan0 1D0#0000000000000061
(1675525567.755445) vcan0 210#06E08020C369C645
(1675525567.755521) vcan0 008#588074B700800080
(1675525567.756510) vcan0 1B0#00C0000002B000FC
(1675525567.758030) vcan0 1B5#FF3D70DDEFE0FFEF
(1675525567.758104) vcan0 1D8#363339343234E043
(1675525567.758178) vcan0 1E0#0008D30300B917E0
(1675525567.758321) vcan0 055#F8F7FC27B2149C82
(1675525567.758396) vcan0 065#6FE5FDF7FFDDF701
(1675525567.758470) vcan0 070#000006F8F4E10F00
(1675525567.759095) vcan0 075#0000000000005458
(1675525567.759168) vcan0 080#FD4F8000C2002C00
(1675525567.759251) vcan0 0B0#52830CA3E3C152A3
(1675525567.759395) vcan0 145#F932DC80FC4810A1
(1675525567.763248) vcan0 290#0000000000000000
(1675525567.763391) vcan0 2C0#669C00000000A0F1
(1675525567.763464) vcan0 2C3#669C00FFFF5F5450
(1675525567.763540) vcan0 2C5#00E772EF71E50070
(1675525567.763615) vcan0 370#0726C0008403CB1F
(1675525567.763757) vcan0 3E0#000000D934808092
(1675525567.764381) vcan0 010#000000002FB031F8
(1675525567.765416) vcan0 072#F000FF3F0078A038
(1675525567.765492) vcan0 330#2800000000000000
(1675525567.765634) vcan0 400#010102010101010D
(1675525567.765718) vcan0 008#588084A700800080
(1675525567.765793) vcan0 405#2AF8295E111B6701
(1675525567.766419) vcan0 0E0#E27308C00080D300
(1675525567.767455) vcan0 0F5#F79CFC9C7F57A250
(1675525567.767538) vcan0 120#429D429D7F015689
(1675525567.767682) vcan0 130#AFFD1D311D55FF11
(1675525567.768580) vcan0 150#F91CFB57FFF78EC0
(1675525567.769615) vcan0 125#E5F67FE4C1D0D735
(1675525567.770581) vcan0 288#EDDF50AF00000080
(1675525567.773058) vcan0 010#000000002FB031F8
(1675525567.774162) vcan0 1D0#0000000000000861
(1675525567.775197) vcan0 291#0000000000000000
(1675525567.775269) vcan0 008#5880949700800080
(1675525567.778052) vcan0 1B0#00C0000002B000FC
(1675525567.778130) vcan0 1B5#FF5083E6F8E0FFEF
(1675525567.778280) vcan0 1D8#363339343234E043
(1675525567.778358) vcan0 1E0#000CC34300B917E0
(1675525567.778436) vcan0 055#F8F7FC27B2299C83
(1675525567.778515) vcan0 065#6CE5FDF7FEDDF501
(1675525567.778592) vcan0 070#000006F8F3E10F00
(1675525567.779041) vcan0 075#0000000000005458
(1675525567.779119) vcan0 080#00508000C2002C00
(1675525567.779268) vcan0 0B0#52830CA3E3C152A3
(1675525567.779347) vcan0 072#F000FF3F00788038
(1675525567.780147) vcan0 145#F922DD80FC4810A1
(1675525567.780226) vcan0 210#06E080A0C369C64D
(1675525567.780303) vcan0 28C#00000000002EFEA5
(1675525567.780380) vcan0 2B5#4B1A326293A66C11
(1675525567.782986) vcan0 350#A200000000000080
(1675525567.783064) vcan0 260#D0FF00AA497487B0
(1675525567.784080) vcan0 010#000000002FB031F8
(1675525567.785100) vcan0 2A9#8C26008AC0000084
(1675525567.785177) vcan0 008#5880A48700800080
(1675525567.786199) vcan0 0E0#E2730FC80080AC00
(1675525567.787235) vcan0 0F5#EC9CFC9C7F5B9252
(1675525567.787378) vcan0 120#349D2C9D7FF95589
(1675525567.788216) vcan0 130#B7FD1D311D45FF11
(1675525567.788359) vcan0 150#F41CFC67FFF783C0
(1675525567.788433) vcan0 290#0000000000000000
(1675525567.788507) vcan0 3CA#00000000400000C8
(1675525567.789337) vcan0 360#719C00D2B746A001
(1675525567.790370) vcan0 125#E5F67FE4C1D0D735
(1675525567.792846) vcan0 010#000000002FB031F8
(1675525567.793950) vcan0 072#F000FF3F0078A038
(1675525567.794917) vcan0 1D0#0000000000000061
(1675525567.794988) vcan0 390#80FF051D020A5D4F
(1675525567.795994) vcan0 008#5880B47700800080
(1675525567.798883) vcan0 1B0#00C0000001B000FC
(1675525567.798957) vcan0 1B5#FF6396F002E0FFEF
(1675525567.799100) vcan0 1D8#363339343234E043
(1675525567.799175) vcan0 1E0#0010B34300B917E0
(1675525567.799248) vcan0 055#F8F7FC27B23C9C82
(1675525567.799332) vcan0 065#68E5FCF7FCDDF501
(1675525567.799475) vcan0 070#000006F8F2E10F00
(1675525567.799549) vcan0 075#0000000000005458
(1675525567.799623) vcan0 080#05508000C2002C00
(1675525567.799696) vcan0 0B0#52830CA3E3C152A3
(1675525567.799978) vcan0 145#F912DE80FC4810A1
(1675525567.800052) vcan0 288#DDDF50AF00000080
(1675525567.800195) vcan0 2C3#669C00FFFF5F5450
(1675525567.801023) vcan0 010#000000002FB031F9
(1675525567.802128) vcan0 210#06E080A0C369C645
(1675525567.805014) vcan0 291#0000000000000000
(1675525567.805157) vcan0 008#5880C46700800080
(1675525567.806100) vcan0 3D0#990F6100D11480C3
(1675525567.806177) vcan0 0E0#E2730DD000808E00
(1675525567.807197) vcan0 0F5#EE9C079D7F5F8255
(1675525567.807275) vcan0 120#0F9D2C9D7FFF5589
(1675525567.808230) vcan0 130#BFFD1D2C1D3AFD11
(1675525567.808309) vcan0 150#FA1CF777FFF76DC0
(1675525567.809327) vcan0 072#F000FF3F00788038
(1675525567.810271) vcan0 125#E5F67FE4C1D0D735
(1675525567.811362) vcan0 260#D0FF00AA497487B0
(1675525567.812450) vcan0 010#000000002FB031F8
(1675525567.813470) vcan0 1D0#0000000000000261
(1675525567.814559) vcan0 008#5880D45700800080
(1675525567.816961) vcan0 1B0#00C0000002B000FC
(1675525567.817036) vcan0 1B5#FF76A9F90BE0FFEF
(1675525567.818002) vcan0 1D8#363339343234E043
(1675525567.820892) vcan0 1E0#0010B30300B917E0
(1675525567.821034) vcan0 055#F8F7FC27B2469C81
(1675525567.821109) vcan0 065#62E5FCF7FADDF401
(1675525567.821183) vcan0 070#000006F8F3E10F00
(1675525567.821257) vcan0 075#0000000000005458
(1675525567.821411) vcan0 080#09508000C2002C00
(1675525567.821486) vcan0 0B0#52830CA3E3C152A3
(1675525567.821560) vcan0 145#F902DF80FC4810A1
(1675525567.821634) vcan0 28C#00000000002EFEA5
(1675525567.821777) vcan0 290#0000000000000000
(1675525567.821851) vcan0 2B5#4B1A326293A66A10
(1675525567.821925) vcan0 2C0#669C00000000A0F1
(1675525567.822000) vcan0 2C5#00E772EF6CE50070
(1675525567.822143) vcan0 340#8B00000000000000
(1675525567.822218) vcan0 3AF#0000000000000020
(1675525567.824970) vcan0 288#DDDF609F00000080
(1675525567.825043) vcan0 008#5880E44700800080
(1675525567.826030) vcan0 010#000000002FB031F8
(1675525567.826109) vcan0 072#F000FF3F0078A038
(1675525567.826186) vcan0 0E0#E27305D800807600
(1675525567.826264) vcan0 2A9#8C260082C0000084
(1675525567.827074) vcan0 0F5#FC9C079D7F637257
(1675525567.827223) vcan0 120#219D319D7FFC5589
(1675525567.828168) vcan0 130#C7FA1D2C1D2AFD11
(1675525567.828247) vcan0 150#011DF887FFF755C0
(1675525567.829193) vcan0 210#06E080A0C369C645
(1675525567.830281) vcan0 125#E5F97FE4C1D0D735
(1675525567.831373) vcan0 010#000000002FB031F8
(1675525567.832392) vcan0 1D0#0000000000000061
(1675525567.833482) vcan0 291#0000000000000000
(1675525567.835941) vcan0 008#5880F43700800080
(1675525567.838900) vcan0 1B0#00C0000003B000FC
(1675525567.838974) vcan0 1B5#FF89BC0214E0FFEF
(1675525567.839049) vcan0 1D8#363339343234E043
(1675525567.839191) vcan0 1E0#0014A34300B917E0
(1675525567.839265) vcan0 2C3#669C00FFFF605450
(1675525567.839339) vcan0 055#F8F7FC27B2519C81
(1675525567.839422) vcan0 065#6BE5FCF7FADDF401
(1675525567.839496) vcan0 070#000006F8F5E10F00
(1675525567.839639) vcan0 075#0000000000005458
(1675525567.839714) vcan0 080#0F508000C2002C00
(1675525567.839993) vcan0 072#F000FF3F00788038
(1675525567.840068) vcan0 0B0#52830CA3E3C152A3
(1675525567.840141) vcan0 145#F9F2D080FC4810A1
(1675525567.840216) vcan0 3B0#00D8863878B4C400
(1675525567.841043) vcan0 260#D0FF00AA497487B0
(1675525567.844964) vcan0 010#000000002FB031F8
(1675525567.845039) vcan0 330#2800000000000000
(1675525567.846026) vcan0 008#5880042700800080
(1675525567.846104) vcan0 0E0#E27306E000805500
(1675525567.847121) vcan0 0F5#DE9CE69C7F676259
(1675525567.847199) vcan0 120#1B9D159D7FFA5589
(1675525567.848146) vcan0 130#CFFD1D1B1D2BF711
(1675525567.848233) vcan0 150#E21CF997FFF765C0
(1675525567.848311) vcan0 290#0000000000000000
(1675525567.849256) vcan0 288#E9DF609F00000080
(1675525567.850200) vcan0 125#E5F97FE4C1D0D735
(1675525567.851292) vcan0 010#000000002FB031F8
(1675525567.852309) vcan0 072#F000FF3F0078A038
(1675525567.853397) vcan0 1D0#0000000000000861
(1675525567.855795) vcan0 210#06E080A0C369C64D
(1675525567.855869) vcan0 008#5880141700800080
(1675525567.858829) vcan0 1B0#00C0000005B000FC
(1675525567.858903) vcan0 1B5#FF9BCF0C1EE0FFEF
(1675525567.858976) vcan0 1D8#363339343234E043
(1675525567.859050) vcan0 1E0#0018934300B917E0
(1675525567.859193) vcan0 055#F8F7FD27B25C9C82
(1675525567.859268) vcan0 065#78E5FDF708DEF701
(1675525567.859342) vcan0 070#000006F8F7E10F00
(1675525567.859425) vcan0 075#0000000000005458
(1675525567.859570) vcan0 080#15508000C2002C00
(1675525567.859641) vcan0 0B0#52830CA3E3C152A3
(1675525567.859922) vcan0 145#F9E2D180FC4810A1
(1675525567.859997) vcan0 28C#00000000002EFEA5
(1675525567.860071) vcan0 2B5#4B1A326293A66A14
(1675525567.860143) vcan0 370#1726C0008403CB1F
(1675525567.860904) vcan0 010#000000002FB031F8
(1675525567.864753) vcan0 291#0000000000000000
(1675525567.864896) vcan0 2A9#8C26009BC0000084
(1675525567.865883) vcan0 008#5880240700800080
(1675525567.865960) vcan0 0E0#E27301E800803A00
(1675525567.866906) vcan0 0F5#EE9CFE9C7F6B525C
(1675525567.867995) vcan0 120#239D159D7FFB5589
(1675525567.868072) vcan0 130#D7FA1D1B1D1BF111
(1675525567.868152) vcan0 150#F61CF5A7FFF741C0
(1675525567.868250) vcan0 350#A200000000000080
(1675525567.869050) vcan0 072#F000FF3F00788038
(1675525567.870141) vcan0 3C8#669C008E882C008E
(1675525567.871159) vcan0 125#E5F97FE4C1D0D735
(1675525567.872175) vcan0 260#D0FF0055497487B0
(1675525567.873193) vcan0 288#C8DF609F00000080
(1675525567.874282) vcan0 010#000000002FB031F8
(1675525567.875588) vcan0 1D0#0000000000000061
(1675525567.875666) vcan0 008#588034E90E800080
(1675525567.878630) vcan0 1B0#00C0000004B000FC
(1675525567.878705) vcan0 1B5#FFAEE11527E0FFEF
(1675525567.878779) vcan0 1D8#363339343234E043
(1675525567.878921) vcan0 1E0#0018930300B917E0
(1675525567.878997) vcan0 2C3#669C00FFFF605450
(1675525567.879071) vcan0 055#F8F7FE27B26B9C82
(1675525567.879145) vcan0 065#85E5FDF70CDEF801
(1675525567.879298) vcan0 070#000006F8F9E10F00
(1675525567.879373) vcan0 075#0000000000005458
(1675525567.879722) vcan0 080#1C508000C2002C00
(1675525567.879795) vcan0 0B0#52830DA3E3C152A3
(1675525567.879868) vcan0 145#F9D2D280FC4810A1
(1675525567.880013) vcan0 210#06E080A0C369C645
(1675525567.880773) vcan0 290#0000000000000000
(1675525567.880847) vcan0 2C0#669C00000000A0F1
(1675525567.883599) vcan0 2C5#02E771EE7EE50070
(1675525567.884703) vcan0 010#000000002FB031F9
(1675525567.884777) vcan0 072#F000FF3F0078A038
(1675525567.885735) vcan0 008#588044D90E800080
(1675525567.885887) vcan0 0E0#E27302F000801900
(1675525567.886834) vcan0 0F5#E69CFE9C7F6F425E
(1675525567.887924) vcan0 120#219D189D7FFB5589
(1675525567.888003) vcan0 130#DFFA1D1B1D0BEF11
(1675525567.888090) vcan0 150#F21CF0B7FFF735C0
(1675525567.888963) vcan0 360#719C00D2B746A001
(1675525567.890053) vcan0 125#E5F97FE4C1D0D735
(1675525567.891071) vcan0 010#000000002FB031F8
(1675525567.892160) vcan0 1D0#0000000000000261
(1675525567.894552) vcan0 291#0000000000000000
(1675525567.895643) vcan0 390#80FF051D02025F4F
(1675525567.895723) vcan0 008#588054C90E800080
(1675525567.898545) vcan0 1B0#00C0000002B000FC
(1675525567.898619) vcan0 1B5#FFC1F41E30E0FFEF
(1675525567.898762) vcan0 1D8#363339343234E043
(1675525567.898836) vcan0 1E0#001C834300B917E0
(1675525567.898909) vcan0 055#F8F7FE27B27F9C83
(1675525567.898985) vcan0 065#88E5FCF706DEF401
(1675525567.899127) vcan0 070#000007F8FBE10F00
(1675525567.899201) vcan0 075#0000000000005458
(1675525567.899285) vcan0 080#24508000C2002C00
(1675525567.899634) vcan0 0B0#52830DA3E3C152A3
(1675525567.899709) vcan0 145#F9C2D380FC4810A1
(1675525567.899851) vcan0 072#F000FF3F00788038
(1675525567.899926) vcan0 288#C0DF609F00000080
(1675525567.900687) vcan0 28C#00000000002EFEA5
(1675525567.900830) vcan0 2B5#4B1A326293A66C09
(1675525567.903515) vcan0 340#8B00000000000000
(1675525567.903658) vcan0 260#D0FF0055497487B0
(1675525567.904625) vcan0 010#000000002FB031F8
(1675525567.904699) vcan0 210#06E08020C369C64D
(1675525567.905668) vcan0 2A9#8C260082C0000084
(1675525567.905814) vcan0 008#588064B90E800080
(1675525567.905892) vcan0 0E0#E27309F80080F200
(1675525567.906766) vcan0 0F5#EC9CFC9C7F733260
(1675525567.907783) vcan0 120#189D2C9D7FF85589
(1675525567.907943) vcan0 130#E7FA1D1B1DFBF111
(1675525567.908022) vcan0 150#F41CEDC7FFF723C0
(1675525567.908100) vcan0 290#0000000000000000
(1675525567.908900) vcan0 3CA#00000000510000C8
(1675525567.909988) vcan0 125#E5F97FE4C1D0D735
(1675525567.911008) vcan0 010#000000002FB031F8
(1675525567.913540) vcan0 072#F000FF3F0078A038
(1675525567.914556) vcan0 1D0#0000000000000061
(1675525567.915645) vcan0 008#588074A90E800080
(1675525567.918538) vcan0 1B0#00C0000001B000FC
(1675525567.918613) vcan0 1B5#FFD407283AE0FFEF
(1675525567.918685) vcan0 1D8#363339343234E043
(1675525567.918831) vcan0 1E0#0020734300B917E0
(1675525567.918905) vcan0 2C3#669C00FFFF615450
(1675525567.918978) vcan0 055#F8F7FF27B28D9C82
(1675525567.919053) vcan0 065#7BE5FBF7FCDDED01
(1675525567.919135) vcan0 070#000007F8FDE10F00
(1675525567.919279) vcan0 075#0000000000005458
(1675525567.919629) vcan0 080#28508000C2002C00
(1675525567.919703) vcan0 0B0#52830DA3E3C152A3
(1675525567.919777) vcan0 145#F9B2D480FC4810A1
(1675525567.920676) vcan0 288#DDDF708F00000080
(1675525567.921711) vcan0 008#588084990E800080
(1675525567.922815) vcan0 010#000000002FB031F8
(1675525567.925637) vcan0 291#0000000000000000
(1675525567.925718) vcan0 0E0#E2730CC00080CF00
(1675525567.926758) vcan0 330#2800000000000000
(1675525567.927794) vcan0 0F5#E69CE99C7F772263
(1675525567.927868) vcan0 120#1B9D219D7FFB5589
(1675525567.927942) vcan0 130#EFFA1D1B1DEBF411
(1675525567.928086) vcan0 150#E71CF4D7FFF720C0
(1675525567.928847) vcan0 072#F000FF3F00788038
(1675525567.929824) vcan0 210#06E080A0C369C64D
(1675525567.930929) vcan0 125#E5F97FE4C1D0D735
(1675525567.931963) vcan0 260#D0FF0055497487B0
(1675525567.932997) vcan0 010#000000002FB031F8
(1675525567.934104) vcan0 1D0#0000000000000861
(1675525567.935139) vcan0 008#588094890E800080
(1675525567.937969) vcan0 1B0#00C0000003B000FC
(1675525567.938047) vcan0 1B5#FFE71A3143E0FFEF
(1675525567.938198) vcan0 1D8#363339343234E043
(1675525567.938275) vcan0 1E0#0020730300B917E0
(1675525567.938353) vcan0 055#F7F7FF27B2989C81
(1675525567.938430) vcan0 065#71E5FAF7F7DDEE01
(1675525567.939087) vcan0 070#000007F8FFE10F00
(1675525567.939164) vcan0 075#0000000000005458
(1675525567.939243) vcan0 080#2A508000C2002C00
(1675525567.939320) vcan0 0B0#52830DA3E3C152A3
(1675525567.939407) vcan0 145#F9A2D580FC4810A1
(1675525567.940136) vcan0 28C#00000000002EFEA5
(1675525567.942960) vcan0 290#0000000000000000
(1675525567.943038) vcan0 2B5#4B1A326293A6710A
(1675525567.943188) vcan0 2C0#669C00000000A0F1
(1675525567.943267) vcan0 2C5#06E771EE83E50070
(1675525567.943343) vcan0 3AF#0000000000000020
(1675525567.944069) vcan0 010#000000002FB031F8
(1675525567.945087) vcan0 072#F000FF3F0078A038
(1675525567.945237) vcan0 008#5880A4790E800080
(1675525567.945316) vcan0 2A9#8C26009BC0000084
(1675525567.946199) vcan0 0E0#E2730BC80080B000
(1675525567.947235) vcan0 0F5#D89CE99C7F7B1265
(1675525567.947378) vcan0 120#1E9D129D7FFB5589
(1675525567.947452) vcan0 130#F7FA1D1B1DDBFA11
(1675525567.948351) vcan0 150#E01CFBE7FFF717C0
(1675525567.949397) vcan0 288#E1DF708F00000080
(1675525567.952219) vcan0 125#E5F97FE4C1D0D735
(1675525567.953323) vcan0 010#000000002FB031F8
(1675525567.954357) vcan0 1D0#0000000000000061
(1675525567.955392) vcan0 210#06E080A0C369C645
(1675525567.955535) vcan0 008#5880B4690E800080
(1675525567.955609) vcan0 291#0000000000000000
(1675525567.956530) vcan0 1B0#00C0000003B000FC
(1675525567.957565) vcan0 1B5#FFFA2D3A4DE0FFEF
(1675525567.957639) vcan0 1D8#363339343234E043
(1675525567.957714) vcan0 1E0#0024634300B917E0
(1675525567.957857) vcan0 2C3#669C00FFFF615450
(1675525567.959168) vcan0 055#F8F7FF27B29E9C81
(1675525567.959242) vcan0 065#68E5FBF7F8DDF601
(1675525567.959317) vcan0 070#000007F800E20F00
(1675525567.959461) vcan0 075#0000000000005458
(1675525567.959543) vcan0 080#2D508000C2002C00
(1675525567.959618) vcan0 072#F000FF3F00788038
(1675525567.960243) vcan0 0B0#52830CA3E3C152A3
(1675525567.960317) vcan0 145#F992D680FC4810A1
(1675525567.960460) vcan0 350#A200000000000080
(1675525567.960533) vcan0 370#1726C0008403CB1F
(1675525567.964520) vcan0 3B0#00D8863C78B4C402
(1675525567.964595) vcan0 260#D0FF0055497487B0
(1675525567.964669) vcan0 010#000000002FB031F9
(1675525567.965565) vcan0 008#5880C4590E800080
(1675525567.965639) vcan0 0E0#E27309D000809200
(1675525567.966675) vcan0 0F5#D59CE39C7F7F0268
(1675525567.967694) vcan0 120#2C9D1E9D7FF75589
(1675525567.967771) vcan0 130#FFFA1D1B1DCBFF11
(1675525567.967921) vcan0 150#DC1CF8F7FFF70BC0
