(1675526212.295763) vcan0 145#FD42DB80FCC810A1
(1675526212.296489) vcan0 010#000000002FB031F8
(1675526212.299380) vcan0 28C#000000000012BEAA
(1675526212.299458) vcan0 290#0000000000000000
(1675526212.299534) vcan0 2B5#4B59006293A68800
(1675526212.299685) vcan0 2C0#6B87004B0300A0F1
(1675526212.299762) vcan0 2C5#01DFA23D38E70070
(1675526212.299840) vcan0 340#7000000000000000
(1675526212.299917) vcan0 370#0720C000711BC71F
(1675526212.299996) vcan0 3AF#0000000000000020
(1675526212.300073) vcan0 3E0#000000D930808090
(1675526212.300585) vcan0 210#2DDD80A0A869D14D
(1675526212.300661) vcan0 1B0#00C0000003B000FC
(1675526212.300739) vcan0 1B5#FF104D1B4BE0FFEF
(1675526212.301611) vcan0 1D8#363339343234DC43
(1675526212.301689) vcan0 1E0#0004E34300B917E0
(1675526212.302706) vcan0 008#E085049603810080
(1675526212.305135) vcan0 010#000000002FB031F8
(1675526212.306221) vcan0 072#F000FF3F008C8038
(1675526212.306298) vcan0 1D0#0000000000000061
(1675526212.306377) vcan0 0E0#E2733EC000809D00
(1675526212.307248) vcan0 288#8FDDB04F00000080
(1675526212.309851) vcan0 0F5#02874E877F4BD2A9
(1675526212.310937) vcan0 120#21875E877FEF5589
(1675526212.311014) vcan0 130#97FF1D2407A8FF11
(1675526212.311091) vcan0 150#2307342723F7A9C0
(1675526212.312036) vcan0 125#E57C7AE4C1D0D735
(1675526212.313051) vcan0 008#D98514860A810080
(1675526212.317310) vcan0 055#D9F7D927B2009C80
(1675526212.317460) vcan0 065#E5E6D9F7EF8DE605
(1675526212.317538) vcan0 070#000025F8E6E15300
(1675526212.317615) vcan0 075#0000000000005458
(1675526212.317693) vcan0 080#9C4F8000C2002C00
(1675526212.317781) vcan0 0B0#398318A3E6C139A3
(1675526212.317857) vcan0 010#000000002FB031F8
(1675526212.317936) vcan0 145#FD32DC80FCC810A1
(1675526212.318084) vcan0 260#D0FF00AA497487B0
(1675526212.318163) vcan0 291#0000000000000000
(1675526212.318241) vcan0 2A9#8C260093C0000084
(1675526212.318390) vcan0 072#F000FF3F008CA038
(1675526212.319477) vcan0 1B0#00C0000002B000FC
(1675526212.320565) vcan0 1B5#FF15521D4DE0FFEF
(1675526212.321580) vcan0 1D8#363339343234DC43
(1675526212.321656) vcan0 1E0#0004E30300B917E0
(1675526212.321806) vcan0 2C3#6B8700FFFFA45450
(1675526212.322676) vcan0 008#D485248203810080
(1675526212.323693) vcan0 290#0000000000000000
(1675526212.325000) vcan0 010#000000002FB031F8
(1675526212.326088) vcan0 1D0#0000000000000061
(1675526212.326189) vcan0 210#5FDD80A0A869D145
(1675526212.326266) vcan0 0E0#E27337C800808400
(1675526212.330094) vcan0 0F5#0A8750877F4FC2AA
(1675526212.331180) vcan0 120#108762877FF15589
(1675526212.331258) vcan0 130#9FFF1D240798FF11
(1675526212.331336) vcan0 150#2E07323725F78EC0
(1675526212.331413) vcan0 125#E5857AE4C1D0D735
(1675526212.332285) vcan0 288#97DDB04F00000080
(1675526212.333298) vcan0 008#CD8534720A810080
(1675526212.334387) vcan0 055#DAF7DA27B2009C80
(1675526212.334465) vcan0 065#D4E6D9F7F08DE605
(1675526212.334542) vcan0 070#000024F8E6E15200
(1675526212.335421) vcan0 075#0000000000005458
(1675526212.335500) vcan0 080#9D4F8000C2002C00
(1675526212.335577) vcan0 0B0#398318A3E6C139A3
(1675526212.335654) vcan0 145#FD22DD80FCC810A1
(1675526212.336462) vcan0 010#000000002FB031F9
(1675526212.337838) vcan0 072#F000FF3F008C8038
(1675526212.337915) vcan0 28C#000000000012BEA9
(1675526212.337994) vcan0 2B5#4B59006293A68700
(1675526212.338070) vcan0 330#2800000000000000
(1675526212.340818) vcan0 1B0#00C0000002B000FC
(1675526212.340897) vcan0 1B5#FF19571F4FE0FFEF
(1675526212.340974) vcan0 1D8#363339343234DC43
(1675526212.341846) vcan0 1E0#0008D34300B917E0
(1675526212.342933) vcan0 350#A200000000000080
(1675526212.343010) vcan0 008#C985445818810080
(1675526212.343953) vcan0 010#000000002FB031F8
(1675526212.345048) vcan0 1D0#0000000000000261
(1675526212.346063) vcan0 260#D0FF0055497487B0
(1675526212.346142) vcan0 291#0000000000000000
(1675526212.346219) vcan0 0E0#E27335D000806600
(1675526212.348469) vcan0 072#F000FF3F008CA038
(1675526212.351287) vcan0 210#5FDD80A0A869D145
(1675526212.351365) vcan0 0F5#FB8644877F53B2AA
(1675526212.351442) vcan0 120#0B8752877FF15589
(1675526212.351520) vcan0 130#A7FF1D240788FF11
(1675526212.351598) vcan0 150#2207394726F78AC0
(1675526212.351675) vcan0 125#E5907AE4C1D0D735
(1675526212.352403) vcan0 008#C285543235810080
(1675526212.353346) vcan0 055#D9F7D927B2009C80
(1675526212.354505) vcan0 065#C3E6D9F7EF8DE605
(1675526212.354583) vcan0 070#000025F8E6E15100
(1675526212.355535) vcan0 075#0000000000005458
(1675526212.355613) vcan0 080#9C4F8000C2002C00
(1675526212.355690) vcan0 010#000000002FB031F8
(1675526212.355768) vcan0 0B0#398318A3E6C139A3
(1675526212.355846) vcan0 145#FD12DE80FCC810A1
(1675526212.358385) vcan0 290#0000000000000000
(1675526212.358462) vcan0 2A9#8C26008AC0000084
(1675526212.358540) vcan0 2C0#6B87002C0300A0F1
(1675526212.358618) vcan0 2C5#01DF9F3FF2E60070
(1675526212.358695) vcan0 288#97DDC03F00000080
(1675526212.359494) vcan0 360#6F8700D2BF66A001
(1675526212.360507) vcan0 1B0#00C0000004B000FC
(1675526212.360585) vcan0 1B5#FF1E5B2152E0FFEF
(1675526212.361599) vcan0 1D8#363339343234DC43
(1675526212.361676) vcan0 1E0#000CC34300B917E0
(1675526212.361754) vcan0 2C3#6B8700FFFFA45450
(1675526212.362624) vcan0 008#BB85641B43810080
(1675526212.363711) vcan0 010#000000002FB031F8
(1675526212.366101) vcan0 072#F000FF3F008C8038
(1675526212.366180) vcan0 1D0#0000000000000861
(1675526212.366330) vcan0 390#80FF051D023A514F
(1675526212.366416) vcan0 0E0#E27337D800804400
(1675526212.370026) vcan0 0F5#108764877F57A2AB
(1675526212.371041) vcan0 120#1A8755877FF55589
(1675526212.371117) vcan0 130#AFFD1D240778FF11
(1675526212.371267) vcan0 150#3507345727F767C0
(1675526212.371345) vcan0 125#E59E7AE4C1D0D735
(1675526212.372145) vcan0 008#B48574EE67810080
(1675526212.373159) vcan0 055#DAF7DA27B2009C80
(1675526212.374248) vcan0 065#B2E6DAF7EE8DE605
(1675526212.374326) vcan0 070#000024F8E6E15100
(1675526212.375277) vcan0 075#0000000000005458
(1675526212.375356) vcan0 080#9D4F8000C2002C00
(1675526212.375433) vcan0 0B0#398318A3E5C139A3
(1675526212.375511) vcan0 010#000000002FB031F8
(1675526212.376380) vcan0 145#FD02DF80FCC810A1
(1675526212.379124) vcan0 210#5FDD80A0A869D14D
(1675526212.379212) vcan0 260#D0FF0055497487B0
(1675526212.379361) vcan0 28C#000000000012BEA9
(1675526212.379439) vcan0 291#0000000000000000
(1675526212.379517) vcan0 2B5#4B59006293A68700
(1675526212.379596) vcan0 340#7200000000000000
(1675526212.379673) vcan0 3D0#9A0F6100170480C3
(1675526212.380256) vcan0 072#F000FF3F008CA038
(1675526212.380333) vcan0 1B0#00C0000005B000FC
(1675526212.381349) vcan0 1B5#FF22602454E0FFEF
(1675526212.381427) vcan0 1D8#363339343234DC43
(1675526212.381504) vcan0 1E0#000CC30300B917E0
(1675526212.384109) vcan0 288#9BDDC03F00000080
(1675526212.384259) vcan0 008#AB8584B49A810080
(1675526212.384338) vcan0 290#0000000000000000
(1675526212.385289) vcan0 010#000000002FB031F8
(1675526212.385367) vcan0 1D0#0000000000000061
(1675526212.386245) vcan0 0E0#E27333E000802800
(1675526212.387402) vcan0 0F5#038748877F5B92AC
(1675526212.388489) vcan0 120#098761877FF15589
(1675526212.389578) vcan0 130#B7FD1D240768FF11
(1675526212.390593) vcan0 150#3107366729F75BC0
(1675526212.391679) vcan0 125#E5AC7AE4C1D0D735
(1675526212.393053) vcan0 3CA#00000000D50000C8
(1675526212.393134) vcan0 008#A4859480C5810080
(1675526212.396022) vcan0 055#DAF7EC27B2039C80
(1675526212.396101) vcan0 065#A2E6DAF7F08DE505
(1675526212.396179) vcan0 070#000025F8F3E15000
(1675526212.396329) vcan0 075#0000000000005458
(1675526212.396407) vcan0 080#CE4F8000C2002C00
(1675526212.396485) vcan0 0B0#398318A3E5C139A3
(1675526212.396562) vcan0 145#FDF2D080FCC810A1
(1675526212.396640) vcan0 370#0720C000711BC71F
(1675526212.396728) vcan0 010#000000002FB031F8
(1675526212.396806) vcan0 072#F000FF3F008C8038
(1675526212.397100) vcan0 2A9#8C260082C0000084
(1675526212.398261) vcan0 210#5FDD8020A869D145
(1675526212.399349) vcan0 1B0#00C0000005B000FC
(1675526212.400364) vcan0 1B5#FF27652657E0FFEF
(1675526212.401451) vcan0 1D8#363339343234DC43
(1675526212.402755) vcan0 1E0#0010B34300B917E0
(1675526212.402832) vcan0 2C3#6B8700FFFFA45450
(1675526212.402910) vcan0 3C8#6B87008E886C008E
(1675526212.403060) vcan0 008#9985A457E9810080
(1675526212.403931) vcan0 010#000000002FB031F8
(1675526212.406823) vcan0 1D0#0000000000000061
(1675526212.406901) vcan0 260#D0FF0055497487B0
(1675526212.406979) vcan0 291#0000000000000000
(1675526212.407056) vcan0 0E0#E27330E800800B00
(1675526212.407935) vcan0 288#A4DDC03F00000080
(1675526212.408950) vcan0 072#F000FF3F008CA038
(1675526212.410040) vcan0 3B0#00D8193837BCC400
(1675526212.411129) vcan0 0F5#058752877F5F82AC
(1675526212.411207) vcan0 120#058762877FF25589
(1675526212.411285) vcan0 130#BFFF1D240758FF11
(1675526212.411363) vcan0 150#250733772BF757C0
(1675526212.411441) vcan0 125#E5BC7AE4C1D0D735
(1675526212.412168) vcan0 008#9085B42B0D820080
(1675526212.413260) vcan0 055#DAF7F427B2149C82
(1675526212.414272) vcan0 065#8DE6E3F7EE8DF305
(1675526212.417162) vcan0 070#000024F8F8E14F00
(1675526212.417241) vcan0 075#0000000000005458
(1675526212.417317) vcan0 080#E24F8000C2002C00
(1675526212.417467) vcan0 0B0#398318A3E5C139A3
(1675526212.417544) vcan0 010#000000002FB031F9
(1675526212.417633) vcan0 145#FDE2D180FCC810A1
(1675526212.417711) vcan0 28C#000000000012FEA9
(1675526212.417789) vcan0 290#0000000000000000
(1675526212.417867) vcan0 2B5#4B59006293A6860C
(1675526212.418016) vcan0 2C0#6B8700BC0200A0F1
(1675526212.418094) vcan0 2C5#01DF9C40D0E60070
(1675526212.418172) vcan0 330#2800000000000000
(1675526212.418250) vcan0 3AF#0000000000000020
(1675526212.419841) vcan0 1B0#00C0000001B000FC
(1675526212.420929) vcan0 1B5#FF2B6A2859E0FFEF
(1675526212.421008) vcan0 1D8#363339343234DC43
(1675526212.421083) vcan0 1E0#0014A34300B917E0
(1675526212.421955) vcan0 008#8785C40031820080
(1675526212.423044) vcan0 010#000000002FB031F8
(1675526212.424056) vcan0 072#F000FF3F008C8038
(1675526212.425153) vcan0 1D0#0000000000000261
(1675526212.426250) vcan0 0E0#E2732FF00080EC00
(1675526212.426327) vcan0 210#5FDD80A0A869D14D
(1675526212.430083) vcan0 0F5#FE864B877F6372AD
(1675526212.431169) vcan0 120#0F875A877FF55589
(1675526212.431246) vcan0 130#C7FD1D240748FF11
(1675526212.431396) vcan0 150#290739872CF743C0
(1675526212.431473) vcan0 125#E5D07AE4C1D0D735
(1675526212.432200) vcan0 288#A8DDC03F00000080
(1675526212.433649) vcan0 350#A200000000000080
(1675526212.433726) vcan0 008#7E85D4CE5C820080
(1675526212.434783) vcan0 055#DAF7FF27B2279C82
(1675526212.434861) vcan0 065#80E6EEF7F18DF805
(1675526212.434940) vcan0 070#000024F800E24E00
(1675526212.435810) vcan0 075#0000000000005458
(1675526212.435888) vcan0 080#FF4F8000C2002C00
(1675526212.435966) vcan0 010#000000002FB031F8
(1675526212.436052) vcan0 0B0#398318A3E5C139A3
(1675526212.436131) vcan0 145#FDD2D280FCC810A1
(1675526212.438664) vcan0 260#D0FF0055497487B0
(1675526212.438741) vcan0 291#0000000000000000
(1675526212.438820) vcan0 2A9#8C26009BC0000084
(1675526212.439764) vcan0 072#F000FF3F008CA038
(1675526212.440778) vcan0 1B0#00C0000001B000FC
(1675526212.440856) vcan0 1B5#FF306E2A5BE0FFEF
(1675526212.440935) vcan0 1D8#363339343234DC43
(1675526212.441879) vcan0 1E0#0014A30300B917E0
(1675526212.441957) vcan0 2C3#6B8700FFFFA45450
(1675526212.442974) vcan0 008#7085E4AF79820080
(1675526212.443991) vcan0 290#0000000000000000
(1675526212.445085) vcan0 010#000000002FB031F8
(1675526212.446102) vcan0 1D0#0000000000000861
(1675526212.446180) vcan0 0E0#E27324F80080D700
(1675526212.450018) vcan0 210#5FDD80A0A869D145
(1675526212.451034) vcan0 0F5#01874B877F6762AD
(1675526212.451115) vcan0 120#0E875B877FF55589
(1675526212.451192) vcan0 130#CFFD1D240738FF11
(1675526212.451342) vcan0 150#230739972EF739C0
(1675526212.451420) vcan0 125#E5E37AE4C1D0D735
(1675526212.453879) vcan0 008#6585F47FA4820080
(1675526212.453956) vcan0 055#DAF70928B2419C83
(1675526212.454982) vcan0 065#7AE6F7F7F68DFC05
(1675526212.455132) vcan0 070#000024F807E24E00
(1675526212.455211) vcan0 075#0000000000005458
(1675526212.455289) vcan0 080#18508000C2002C00
(1675526212.455366) vcan0 0B0#398318A3E5C139A3
(1675526212.456096) vcan0 010#000000002FB031F8
(1675526212.456173) vcan0 072#F000FF3F008C8038
(1675526212.456324) vcan0 145#FDC2D380FCC810A1
(1675526212.456410) vcan0 28C#000000000012FEA9
(1675526212.457141) vcan0 2B5#4B59006293A6841C
(1675526212.457216) vcan0 340#7200000000000000
(1675526212.457294) vcan0 288#B4DDD02F00000080
(1675526212.458236) vcan0 360#6F8700D2BF66A001
(1675526212.460767) vcan0 1B0#00C0000000B000FC
(1675526212.460845) vcan0 1B5#FF35732D5EE0FFEF
(1675526212.460923) vcan0 1D8#363339343234DC43
(1675526212.461796) vcan0 1E0#0018934300B917E0
(1675526212.462883) vcan0 008#57850452CF820080
(1675526212.465852) vcan0 260#D0FF00AA497487B0
(1675526212.465929) vcan0 010#000000002FB031F8
(1675526212.466006) vcan0 1D0#0000000000000061
(1675526212.466084) vcan0 0E0#E2731BC00080C000
(1675526212.466883) vcan0 291#0000000000000000
(1675526212.467034) vcan0 390#80FF051D0236524F
(1675526212.467997) vcan0 072#F000FF3F008CA038
(1675526212.469015) vcan0 0F5#02874C877F6B52AE
(1675526212.470102) vcan0 120#0B8758877FF45589
(1675526212.471119) vcan0 130#D7FD1D240728FF11
(1675526212.471270) vcan0 150#26073EA730F726C0
(1675526212.474088) vcan0 125#E5FC7AE4C1D0D735
(1675526212.474165) vcan0 008#4785141E02830080
(1675526212.474242) vcan0 055#DAF71528B25C9C83
(1675526212.474321) vcan0 065#79E600F8FC8D0306
(1675526212.475126) vcan0 070#000024F810E24D00
(1675526212.475203) vcan0 075#0000000000005458
(1675526212.475283) vcan0 080#38508000C2002C00
(1675526212.475361) vcan0 010#000000002FB031F8
(1675526212.475438) vcan0 0B0#398318A3E4C139A3
(1675526212.476235) vcan0 145#FDB2D480FCC810A1
(1675526212.476313) vcan0 210#5FDD80A0A869D14D
(1675526212.476399) vcan0 290#0000000000000000
(1675526212.476478) vcan0 2A9#8C260082C0000084
(1675526212.479005) vcan0 2C0#6B8700310200A0F1
(1675526212.479083) vcan0 2C5#01DF984479E60070
(1675526212.480099) vcan0 1B0#00C0000000B000FC
(1675526212.481185) vcan0 1B5#FF39782F60E0FFEF
(1675526212.481263) vcan0 1D8#363339343234DC43
(1675526212.481342) vcan0 1E0#001C834300B917E0
(1675526212.481491) vcan0 2C3#6B8700FFFFA45450
(1675526212.482290) vcan0 288#B0DDD02F00000080
(1675526212.483304) vcan0 008#398524EA34830080
(1675526212.484392) vcan0 0E0#E27319C80080A200
(1675526212.485485) vcan0 010#000000002FB031F8
(1675526212.486574) vcan0 072#F000FF3F008C8038
(1675526212.486652) vcan0 1D0#0000000000000061
(1675526212.487886) vcan0 400#0401010202010210
(1675526212.487974) vcan0 405#0000000000000000
(1675526212.488052) vcan0 581#FFFFFFFFFFFF0081
(1675526212.490947) vcan0 0F5#06874C877F6F42AF
(1675526212.491023) vcan0 120#0E874D877FF35589
(1675526212.491174) vcan0 130#DFFD1D240718FF11
(1675526212.491253) vcan0 150#24073DB732F718C0
(1675526212.492051) vcan0 125#E5177BE4C1D0D735
(1675526212.493066) vcan0 008#2C8534B467830080
(1675526212.494154) vcan0 055#D9F72728B2799C84
(1675526212.494231) vcan0 065#82E60AF8028E0A06
(1675526212.495204) vcan0 070#000024F81EE24D00
(1675526212.495283) vcan0 075#0000000000005458
(1675526212.495359) vcan0 080#68508000C2002C00
(1675526212.495437) vcan0 0B0#398317A3E4C139A3
(1675526212.496308) vcan0 145#FDA2D580FCC810A1
(1675526212.496385) vcan0 260#D0FF00AA497487B0
(1675526212.496473) vcan0 28C#000000000012FEA9
(1675526212.497632) vcan0 2B5#4B59006293A6832D
(1675526212.497710) vcan0 010#000000002FB031F9
(1675526212.497860) vcan0 291#0000000000000000
(1675526212.497938) vcan0 330#2800000000000000
(1675526212.498016) vcan0 370#0720C000711BC71F
(1675526212.500694) vcan0 072#F000FF3F0088A038
(1675526212.500772) vcan0 1B0#00C000000BB000FC
(1675526212.501787) vcan0 1B5#FF3E7D3162E0FFEF
(1675526212.501865) vcan0 1D8#363339343234DC43
(1675526212.501943) vcan0 1E0#001C830300B917E0
(1675526212.502020) vcan0 210#5FDD80A0A869D14D
(1675526212.502819) vcan0 008#1A85448499830080
(1675526212.503906) vcan0 290#0000000000000000
(1675526212.504931) vcan0 010#000000002FB031F8
(1675526212.506020) vcan0 1D0#0000000000000261
(1675526212.506106) vcan0 0E0#E2731ED000807D00
(1675526212.507123) vcan0 288#D1DDD02F00000080
(1675526212.509510) vcan0 0F5#6387A9877F7332AF
(1675526212.512259) vcan0 120#19875C877FF45589
(1675526212.512337) vcan0 130#E7FD1D3A07F20112
(1675526212.512416) vcan0 150#64073FC735F7C8C0
(1675526212.512494) vcan0 125#E5367BE4C1D0D735
(1675526212.512571) vcan0 3CA#00000000D60000C8
(1675526212.513371) vcan0 008#0A855459C4830080
(1675526212.514458) vcan0 055#D9F73B28B2969C84
(1675526212.514536) vcan0 065#86E618F8058E1606
(1675526212.514620) vcan0 070#000025F82DE24C00
(1675526212.514698) vcan0 075#0000000000005458
(1675526212.515498) vcan0 080#9C508000C2002C00
(1675526212.515576) vcan0 0B0#398317A3E4C139A3
(1675526212.515727) vcan0 010#000000002FB031F8
(1675526212.515822) vcan0 072#F000FF3F00888038
(1675526212.516622) vcan0 145#FD92D680FCC810A1
(1675526212.519369) vcan0 2A9#8C26009BC0000084
(1675526212.520459) vcan0 1B0#00C0000010B000FC
(1675526212.520537) vcan0 1B5#FF42813465E0FFEF
(1675526212.521555) vcan0 1D8#363339343234DC43
(1675526212.521633) vcan0 1E0#0020734300B917E0
(1675526212.521710) vcan0 2C3#6B8700FFFFA45450
(1675526212.522584) vcan0 3C8#6B87008E886C008E
(1675526212.522662) vcan0 350#A200000000000080
(1675526212.522739) vcan0 008#FA84641805840080
(1675526212.523681) vcan0 260#D0FF00AA497487B0
(1675526212.524708) vcan0 010#000000002FB031F8
(1675526212.526087) vcan0 1D0#0000000000000861
(1675526212.526166) vcan0 0E0#E27316D800806500
(1675526212.526242) vcan0 210#5FDD80A0A869D145
(1675526212.527050) vcan0 291#0000000000000000
(1675526212.529944) vcan0 072#F000FF3F0088A038
(1675526212.530023) vcan0 3B0#00D8193837BCC400
(1675526212.530964) vcan0 0F5#19875C877F7722B0
(1675526212.531044) vcan0 120#148757877FF15589
(1675526212.531121) vcan0 130#EF011E5007CC0712
(1675526212.531198) vcan0 150#630746D739F7B9C0
(1675526212.532071) vcan0 125#E5577BE4C1D0D735
(1675526212.532148) vcan0 288#D1DDD02F00000080
(1675526212.533091) vcan0 008#E58474EB37840080
(1675526212.534180) vcan0 055#D9F74728B2AE9C83
(1675526212.534259) vcan0 065#41E62FF8E08D2C06
(1675526212.535211) vcan0 070#000025F835E24C00
(1675526212.535362) vcan0 075#0000000000005458
(1675526212.535439) vcan0 080#BA508000C2002C00
(1675526212.535517) vcan0 0B0#398317A3E3C139A3
(1675526212.536687) vcan0 010#000000002FB031F8
(1675526212.536765) vcan0 145#FD82D780FCC810A1
(1675526212.536842) vcan0 28C#000000000012FEA9
(1675526212.536920) vcan0 290#0000000000000000
(1675526212.536997) vcan0 2B5#4B59006293A68441
(1675526212.537146) vcan0 2C0#6B8700BA0100A0F1
(1675526212.537729) vcan0 2C5#02DF964589E60070
(1675526212.537808) vcan0 340#7300000000000000
(1675526212.537886) vcan0 3AF#0000000000000020
(1675526212.540487) vcan0 1B0#00C000000DB000FC
(1675526212.540565) vcan0 1B5#FF47863667E0FFEF
(1675526212.541438) vcan0 1D8#363339343234DC43
(1675526212.541515) vcan0 1E0#0024634300B917E0
(1675526212.542530) vcan0 008#D38484A57F840080
(1675526212.543547) vcan0 010#000000002FB031F8
(1675526212.544644) vcan0 072#F000FF3F00888038
(1675526212.545597) vcan0 1D0#0000000000000061
(1675526212.545749) vcan0 0E0#E27317E000804400
(1675526212.548065) vcan0 210#5FDD8020A869D145
(1675526212.550957) vcan0 0F5#3D878F877F7B12B0
(1675526212.551035) vcan0 120#26876A877FF35589
(1675526212.551112) vcan0 130#F70A1E5007BC0D12
(1675526212.551189) vcan0 125#E57E7BE4C1D0D735
(1675526212.551915) vcan0 150#350743E73CF7D7C0
(1675526212.553003) vcan0 008#BF84947DAB840080
(1675526212.554162) vcan0 055#D9F75228B2B59C81
(1675526212.554239) vcan0 065#17E63CF8D88D3406
(1675526212.555119) vcan0 070#000025F83FE24B00
(1675526212.555198) vcan0 075#0000000000005458
(1675526212.555275) vcan0 080#D8508000C2002C00
(1675526212.555426) vcan0 010#000000002FB031F8
(1675526212.556224) vcan0 0B0#398317A3E3C139A3
(1675526212.556311) vcan0 145#FD72D880FCC810A1
(1675526212.556388) vcan0 260#D0FF0055497487B0
(1675526212.557547) vcan0 291#0000000000000000
(1675526212.557626) vcan0 2A9#8C260082C0000084
(1675526212.557703) vcan0 288#CCDDE01F00000080
(1675526212.558576) vcan0 072#F000FF3F0088A038
(1675526212.561394) vcan0 360#6F8700D2BF66A001
(1675526212.561471) vcan0 1B0#00C000000FB000FC
(1675526212.561621) vcan0 1B5#FF4C8B386AE0FFEF
(1675526212.561699) vcan0 1D8#363339343234DC43
(1675526212.561778) vcan0 1E0#0024630300B917E0
(1675526212.561855) vcan0 2C3#6B8700FFFFA45450
(1675526212.562509) vcan0 008#AC84A44EDD840080
(1675526212.563525) vcan0 290#0000000000000000
(1675526212.564621) vcan0 010#000000002FB031F8
(1675526212.565710) vcan0 1D0#0000000000000061
(1675526212.565797) vcan0 390#80FF051D0232534F
(1675526212.565874) vcan0 0E0#E27315E800802600
(1675526212.568117) vcan0 0F5#58878C877F7F02B1
(1675526212.571080) vcan0 120#258766877FF55589
(1675526212.571158) vcan0 130#FF0A1E6507971212
(1675526212.571235) vcan0 125#E5A57BE4C1D0D735
(1675526212.572106) vcan0 150#830746F740F779C0
(1675526212.573193) vcan0 008#9884B41F0F850080
(1675526212.574208) vcan0 055#DAF75828B2C29C81
(1675526212.574285) vcan0 065#F2E548F8DB8D3E06
(1675526212.575310) vcan0 070#000024F844E24A00
(1675526212.575388) vcan0 075#0000000000005458
(1675526212.575464) vcan0 080#E7508000C2002C00
(1675526212.575543) vcan0 0B0#398317A3E3C139A3
(1675526212.575621) vcan0 010#000000002FB031F9
(1675526212.576348) vcan0 072#F000FF3F00888038
(1675526212.576435) vcan0 145#FD62D980FCC810A1
(1675526212.576585) vcan0 210#5FDD80A0A869D14D
(1675526212.577816) vcan0 28C#000000000012FEA8
(1675526212.577894) vcan0 2B5#4B59016293A68651
(1675526212.577971) vcan0 330#2800000000000000
(1675526212.578048) vcan0 3D0#9A0F6100170480C3
(1675526212.580793) vcan0 1B0#00C0000005B000FC
(1675526212.580872) vcan0 1B5#FF50903B6CE0FFEF
(1675526212.580949) vcan0 1D8#363339343234DC43
(1675526212.581893) vcan0 1E0#0028534300B917E0
(1675526212.582981) vcan0 288#E1DDE01F00000080
(1675526212.583059) vcan0 008#8384C4151E850080
(1675526212.584074) vcan0 010#000000002FB031F8
(1675526212.585100) vcan0 1D0#0000000000000261
(1675526212.586188) vcan0 260#D0FF0055497487B0
(1675526212.586265) vcan0 0E0#E27316F000800500
(1675526212.586352) vcan0 291#0000000000000000
(1675526212.588668) vcan0 072#F000FF3F0088A038
(1675526212.591489) vcan0 0F5#5F8795877F43F2B2
(1675526212.591565) vcan0 120#3C8777877FF45589
(1675526212.591643) vcan0 130#87181E6507871812
(1675526212.591794) vcan0 125#E5CB7BE4C1D0D735
(1675526212.591871) vcan0 150#64074D0744F788C0
(1675526212.592599) vcan0 008#6D84D4E950850080
(1675526212.593687) vcan0 055#DAF75D28B2C99C81
(1675526212.594784) vcan0 065#C4E551F8D68D4306
(1675526212.594862) vcan0 070#000024F848E24A00
(1675526212.594940) vcan0 075#0000000000005458
(1675526212.595018) vcan0 080#F4508000C2002C00
(1675526212.595888) vcan0 0B0#398317A3E3C139A3
(1675526212.595967) vcan0 145#FD52DA80FCC810A1
(1675526212.596045) vcan0 290#0000000000000000
(1675526212.596130) vcan0 010#000000002FB031F8
(1675526212.598805) vcan0 2A9#8C26008AC0000084
(1675526212.598884) vcan0 2C0#6B87007D0100A0F1
(1675526212.598961) vcan0 2C5#08DF914DE1E50070
(1675526212.599111) vcan0 370#0720C000711BC71F
(1675526212.599188) vcan0 3E0#000000D930808090
(1675526212.599915) vcan0 210#16DE80A0A869D145
(1675526212.600932) vcan0 1B0#00C0000007B000FC
(1675526212.601010) vcan0 1B5#FF55953D6FE0FFEF
(1675526212.601087) vcan0 1D8#363339343234DC43
(1675526212.601165) vcan0 1E0#002C434300B917E0
(1675526212.602035) vcan0 2C3#6B8700FFFFA45450
(1675526212.603125) vcan0 008#5A84E4DD5F850080
(1675526212.604213) vcan0 010#000000002FB031F8
(1675526212.605311) vcan0 072#F000FF3F00888038
(1675526212.606687) vcan0 1D0#0000000000000861
(1675526212.606784) vcan0 0E0#E2731AF80080E100
(1675526212.607731) vcan0 288#EDDDE01F00000080
(1675526212.610694) vcan0 0F5#7787B1877F47E2B2
(1675526212.610773) vcan0 120#5C8786877FF75589
(1675526212.610850) vcan0 130#8F1D1E7407681D12
(1675526212.611794) vcan0 150#8F07541749F74DC0
(1675526212.611873) vcan0 125#E5F57BE4C1D0D735
(1675526212.612891) vcan0 350#A200000000000080
(1675526212.612969) vcan0 008#4684F4C57B850080
(1675526212.613839) vcan0 055#DBF76328B2CD9C80
(1675526212.615008) vcan0 065#8EE557F8CA8D4706
(1675526212.615085) vcan0 070#000023F84EE24800
(1675526212.615164) vcan0 075#0000000000005458
(1675526212.615314) vcan0 080#04518000C2002C00
(1675526212.615391) vcan0 0B0#398315A3E3C139A3
(1675526212.616046) vcan0 145#FD42DB80FCC810A1
(1675526212.616131) vcan0 010#000000002FB031F8
(1675526212.618878) vcan0 260#D0FF0055497487B0
(1675526212.618956) vcan0 28C#000000000012FEA7
(1675526212.619107) vcan0 291#0000000000000000
(1675526212.619185) vcan0 2B5#4B59036293A6845D
(1675526212.619262) vcan0 340#7300000000000000
(1675526212.619989) vcan0 072#F000FF3F0088A038
(1675526212.621077) vcan0 1B0#00C0000004B000FC
(1675526212.621155) vcan0 1B5#FF5A9A4071E0FFEF
(1675526212.621306) vcan0 1D8#363339343234DC43
(1675526212.621383) vcan0 1E0#002C430300B917E0
(1675526212.622185) vcan0 008#348404B191850080
(1675526212.624724) vcan0 290#0000000000000000
(1675526212.625668) vcan0 010#000000002FB031F8
(1675526212.625746) vcan0 1D0#0000000000000061
(1675526212.625823) vcan0 210#16DE80A0A869D14D
(1675526212.626848) vcan0 0E0#E27319C00080C200
(1675526212.630751) vcan0 0F5#8087B5877F4BD2B3
(1675526212.630828) vcan0 120#608799877FF35589
(1675526212.630979) vcan0 130#97231E7707551D12
(1675526212.631849) vcan0 150#900755274EF73CC0
(1675526212.631927) vcan0 125#E51C7CE4C1D0D735
(1675526212.632005) vcan0 3CA#00000000C00000C8
(1675526212.632876) vcan0 288#06DEE01F00000080
(1675526212.632955) vcan0 008#1D8414AA9F850080
(1675526212.633970) vcan0 055#DCF76728B2D29C81
(1675526212.634048) vcan0 065#46E55CF8C08D4D06
(1675526212.635065) vcan0 070#000022F853E24700
(1675526212.635216) vcan0 075#0000000000005458
(1675526212.635294) vcan0 080#12518000C2002C00
(1675526212.636453) vcan0 0B0#398310A3E4C139A3
(1675526212.636532) vcan0 010#000000002FB031F8
(1675526212.636618) vcan0 072#F000FF3F00888038
(1675526212.636696) vcan0 145#FD32DC80FCC810A1
(1675526212.636774) vcan0 2A9#8C260093C0000084
(1675526212.640529) vcan0 1B0#00C0000002B000FC
(1675526212.640606) vcan0 1B5#FF5E9E4274E0FFEF
(1675526212.641621) vcan0 1D8#363339343234DC43
(1675526212.641700) vcan0 1E0#0030334300B917E0
(1675526212.641777) vcan0 2C3#6B8700FFFFA45450
(1675526212.642719) vcan0 3C8#6B87008E886C008E
(1675526212.642798) vcan0 008#098424AE9F850080
(1675526212.643670) vcan0 010#000000002FB031F8
(1675526212.644765) vcan0 1D0#0000000000000061
(1675526212.645854) vcan0 260#D0FF00AA497487B0
(1675526212.645932) vcan0 0E0#E27316C80080A500
(1675526212.647019) vcan0 291#0000000000000000
(1675526212.649404) vcan0 072#F000FF3F0088A038
(1675526212.652230) vcan0 210#16DE80A0A869D145
(1675526212.652309) vcan0 3B0#00FC193837BCC400
(1675526212.652386) vcan0 0F5#8F87C7877F4FC2B3
(1675526212.652464) vcan0 120#5F879D877FF65589
(1675526212.652542) vcan0 130#9F2B1E8507372312
(1675526212.652691) vcan0 150#9C07593753F720C0
(1675526212.652768) vcan0 125#E5427CE4C1D0D735
(1675526212.653280) vcan0 008#F68334B29F850080
(1675526212.654368) vcan0 055#DDF76B28B2D89C81
(1675526212.654446) vcan0 065#06E55CF8C08D4C06
(1675526212.654523) vcan0 070#000022F858E24600
(1675526212.655360) vcan0 075#0000000000005458
(1675526212.655440) vcan0 080#2F518000C2002C00
(1675526212.655518) vcan0 0B0#3D8309A3E4C13DA3
(1675526212.655666) vcan0 010#000000002FB031F9
(1675526212.658344) vcan0 145#FD22DD80FCC810A1
(1675526212.658430) vcan0 28C#000000000012FEA5
(1675526212.658507) vcan0 290#0000000000000000
(1675526212.658585) vcan0 2B5#4B59036293A68070
(1675526212.658664) vcan0 2C0#6B8700600100A0F1
(1675526212.658741) vcan0 2C5#0BDF8D5272E50070
(1675526212.658818) vcan0 330#2800000000000000
(1675526212.658968) vcan0 288#1ADEF00F00000080
(1675526212.659046) vcan0 3AF#0000000000000020
(1675526212.659340) vcan0 360#6F8700D2BF66A001
(1675526212.660428) vcan0 1B0#00C0000004B000FC
(1675526212.660579) vcan0 1B5#FF63A34476E0FFEF
(1675526212.661523) vcan0 1D8#363339343234DC43
(1675526212.661672) vcan0 1E0#0034234300B917E0
(1675526212.662546) vcan0 008#E48344C291850080
(1675526212.665013) vcan0 010#000000002FB031F8
(1675526212.666029) vcan0 072#F000FF3F00888038
(1675526212.666115) vcan0 1D0#0000000000000261
(1675526212.666193) vcan0 0E0#E2731AD000808100
(1675526212.666271) vcan0 390#80FF051D022E544F
(1675526212.670025) vcan0 0F5#9987CC877F53B2B4
(1675526212.671113) vcan0 120#8A87AE877FFD5589
(1675526212.671191) vcan0 130#A72E1E9B07112912
(1675526212.671270) vcan0 150#B307604758F7F9C0
(1675526212.671347) vcan0 125#E5667CE4C1D0D735
(1675526212.672073) vcan0 008#D28354D283850080
(1675526212.673161) vcan0 055#DDF77028B2E59C81
(1675526212.674175) vcan0 065#BFE461F8C48D5202
(1675526212.675342) vcan0 070#000021F85EE24400
(1675526212.675420) vcan0 075#0000000000005458
(1675526212.675499) vcan0 080#53518000C2002C00
(1675526212.676801) vcan0 0B0#418300A3E4C141A3
(1675526212.676953) vcan0 010#000000002FB031F8
(1675526212.677039) vcan0 145#FD12DE80FCC810A1
(1675526212.677116) vcan0 210#16DE80A0A869D14D
(1675526212.677194) vcan0 260#D0FF00AA497487B0
(1675526212.677272) vcan0 291#0000000000000000
(1675526212.677350) vcan0 2A9#8C26008AC0000084
(1675526212.679736) vcan0 072#F000FF3F0088A038
(1675526212.680894) vcan0 1B0#00C0000001B000FC
(1675526212.680973) vcan0 1B5#FF68A84779E0FFEF
(1675526212.681051) vcan0 1D8#363339343234DD43
(1675526212.681994) vcan0 1E0#0034230300B917E0
(1675526212.682072) vcan0 2C3#6B8700FFFFA55450
(1675526212.683014) vcan0 288#47DEF00F00000080
(1675526212.683092) vcan0 008#C08364D483850080
(1675526212.684108) vcan0 290#0000000000000000
(1675526212.685142) vcan0 010#000000002FB031F8
(1675526212.686221) vcan0 1D0#0000000000000861
(1675526212.686306) vcan0 0E0#E2731DD800805E00
(1675526212.689991) vcan0 0F5#8A87B4877F57A2B5
(1675526212.691077) vcan0 120#9687C0877FFA5589
(1675526212.691227) vcan0 130#AF341E9B07012912
(1675526212.691305) vcan0 125#E58A7CE4C1D0D735
(1675526212.691384) vcan0 150#B2076F575DF7EAC0
(1675526212.692110) vcan0 008#B083740750850080
(1675526212.695077) vcan0 055#DEF77428B2F19C82
(1675526212.695155) vcan0 065#90E466F8C58D5902
(1675526212.695232) vcan0 070#000020F864E24200
(1675526212.695311) vcan0 075#0000000000005458
(1675526212.695387) vcan0 080#6D518000C2002C00
(1675526212.695465) vcan0 0B0#4583F2A2E4C145A3
(1675526212.696120) vcan0 145#FD02DF80FCC810A1
(1675526212.696197) vcan0 010#000000002FB031F8
(1675526212.696275) vcan0 072#F000FF3F00888038
(1675526212.696362) vcan0 28C#000000000012FEA2
(1675526212.696512) vcan0 2B5#4B5A036293A6807B
(1675526212.697167) vcan0 340#7400000000000000
(1675526212.697244) vcan0 370#0720C000711BC71F
(1675526212.698260) vcan0 210#16DE8020A869D14D
(1675526212.699421) vcan0 1B0#00C0000004B000FC
(1675526212.700797) vcan0 1B5#FF6DAD497BE0FFEF
(1675526212.700875) vcan0 1D8#363339343234DC43
(1675526212.701893) vcan0 1E0#0038134300B917E0
(1675526212.702908) vcan0 350#A200000000000080
(1675526212.703059) vcan0 008#A083841542850080
(1675526212.705519) vcan0 010#000000002FB031F8
(1675526212.705599) vcan0 1D0#0000000000000061
(1675526212.706540) vcan0 260#D0FF00AA497487B0
(1675526212.706618) vcan0 0E0#E27322E000803900
(1675526212.706768) vcan0 291#0000000000000000
(1675526212.707647) vcan0 288#50DEF00F00000080
(1675526212.708733) vcan0 072#F000FF3F0088A038
(1675526212.711726) vcan0 0F5#8787BE877F5B92B5
(1675526212.711805) vcan0 120#8F87D0877FF85589
(1675526212.711881) vcan0 130#B7341E9B07F12612
(1675526212.711960) vcan0 125#E5AB7CE4C1D0D735
(1675526212.712039) vcan0 150#A4076F6763F7E8C0
(1675526212.712838) vcan0 008#9283943025850080
(1675526212.713781) vcan0 055#DFF77828B2FC9C82
(1675526212.714950) vcan0 065#77E46BF8DA8D6302
(1675526212.715027) vcan0 070#00001FF86AE24100
(1675526212.715105) vcan0 075#0000000000005458
(1675526212.715182) vcan0 080#7D518000C2002C00
(1675526212.715260) vcan0 0B0#4983E8A2E4C149A3
(1675526212.716060) vcan0 010#000000002FB031F8
(1675526212.716138) vcan0 145#FDF2D080FCC810A1
(1675526212.716223) vcan0 290#0000000000000000
(1675526212.718829) vcan0 2A9#8C260093C0000084
(1675526212.718907) vcan0 2C0#6B87004E0100A0F1
(1675526212.718984) vcan0 2C5#13DF7E5F82E40070
(1675526212.719927) vcan0 1B0#00C0000001B000FC
(1675526212.720942) vcan0 1B5#FF72B34C7EE0FFEF
(1675526212.721020) vcan0 1D8#363339343234DD43
(1675526212.721097) vcan0 1E0#003C034300B917E0
(1675526212.722040) vcan0 2C3#6B8700FFFFA55450
(1675526212.723129) vcan0 008#8283A46BEB840080
(1675526212.724218) vcan0 010#000000002FB031F8
(1675526212.725524) vcan0 072#F000FF3F00888038
(1675526212.726613) vcan0 1D0#0000000000000061
(1675526212.726764) vcan0 0E0#E27322E800801900
(1675526212.726842) vcan0 210#16DE80A0A869D145
(1675526212.730600) vcan0 0F5#8B87CB877F5F82B6
(1675526212.730687) vcan0 120#B587DD877FFA5589
(1675526212.730766) vcan0 130#BF311EA907D32612
(1675526212.731638) vcan0 125#E5C77CE4C1D0D735
(1675526212.731788) vcan0 150#A107777768F7DBC0
(1675526212.732731) vcan0 288#5CDEF00F00000080
(1675526212.732809) vcan0 008#7583B493C0840080
(1675526212.733826) vcan0 055#E0F77C28B20D9D82
(1675526212.734844) vcan0 065#70E470F8EC8D6A02
(1675526212.734921) vcan0 070#00001FF871E23F00
(1675526212.734999) vcan0 075#0000000000005458
(1675526212.735075) vcan0 080#98518000C2002C00
(1675526212.735948) vcan0 0B0#4D83E1A2E4C14DA3
(1675526212.736026) vcan0 010#000000002FB031F9
(1675526212.736104) vcan0 145#FDE2D180FCC810A1
(1675526212.738780) vcan0 260#D0FF00AA497487B0
(1675526212.738930) vcan0 28C#000000000012FEA0
(1675526212.739018) vcan0 291#0000000000000000
(1675526212.739095) vcan0 2B5#4B5A026293A6828E
(1675526212.739174) vcan0 330#2800000000000000
(1675526212.739251) vcan0 400#0A02010204010111
(1675526212.739329) vcan0 405#2AF88D8F49186701
(1675526212.739406) vcan0 425#0000000000000000
(1675526212.739916) vcan0 072#F000FF3F0088A038
(1675526212.740931) vcan0 1B0#00C0000002B000FC
(1675526212.741010) vcan0 1B5#FF77B84E80E0FFEF
(1675526212.741087) vcan0 1D8#363339343234DD43
(1675526212.741166) vcan0 1E0#003C030300B917E0
(1675526212.743406) vcan0 008#6983C4C887840080
(1675526212.744421) vcan0 290#0000000000000000
(1675526212.745448) vcan0 010#000000002FB031F8
(1675526212.745525) vcan0 1D0#0000000000000261
(1675526212.746542) vcan0 0E0#E27321F00080FA00
(1675526212.749095) vcan0 210#16DE80A0A869D145
(1675526212.750112) vcan0 0F5#9087C0877F6372B7
(1675526212.751200) vcan0 120#B587E4877FFF5589
(1675526212.751350) vcan0 130#C72B1EB507B72612
(1675526212.751428) vcan0 125#E5E07CE4C1D0D735
(1675526212.751505) vcan0 150#A20776876DF7CAC0
(1675526212.752232) vcan0 3CA#00000000D10000C8
(1675526212.756583) vcan0 008#5E83D4EF5B840080
(1675526212.756662) vcan0 055#E0F78128B2229D83
(1675526212.756740) vcan0 065#83E471F8038E6902
(1675526212.756816) vcan0 070#00001FF878E23D00
(1675526212.756895) vcan0 075#0000000000005458
(1675526212.756972) vcan0 080#B7518000C2002C00
(1675526212.757122) vcan0 0B0#5183E1A2E4C151A3
(1675526212.757200) vcan0 010#000000002FB031F8
(1675526212.757278) vcan0 072#F000FF3F00888038
(1675526212.757364) vcan0 145#FDD2D280FCC810A1
(1675526212.757442) vcan0 2A9#8C26008AC0000084
(1675526212.757665) vcan0 288#7DDE00FF00000080
(1675526212.758681) vcan0 360#6F8700D2BF66A001
(1675526212.759769) vcan0 1B0#00C0000003B000FC
(1675526212.760784) vcan0 1B5#FF7CBD5183E0FFEF
(1675526212.760934) vcan0 1D8#363339343234DD43
(1675526212.761876) vcan0 1E0#0000F34300B917E0
(1675526212.761955) vcan0 2C3#6B8700FFFFA55450
(1675526212.762970) vcan0 3C8#6B87008E886C008E
(1675526212.763048) vcan0 008#5583E4281B840080
(1675526212.765371) vcan0 010#000000002FB031F8
(1675526212.765449) vcan0 1D0#0000000000000861
(1675526212.765527) vcan0 260#D0FF0055497487B0
(1675526212.768345) vcan0 291#0000000000000000
(1675526212.768422) vcan0 0E0#E27326F80080D500
(1675526212.768509) vcan0 390#80FF051D022A556F
(1675526212.769309) vcan0 072#F000FF3F0088A038
(1675526212.770397) vcan0 3B0#00D8193C37BCC600
(1675526212.770548) vcan0 0F5#9387C8877F6762B7
(1675526212.771564) vcan0 120#AD87EF877FFC5589
(1675526212.771641) vcan0 130#CF261EB507A72012
(1675526212.771718) vcan0 125#E5F37CE4C1D0D735
(1675526212.771796) vcan0 150#AE07819772F7AEC0
(1675526212.772523) vcan0 008#4C83F46AD3830080
(1675526212.773611) vcan0 055#E1F78728B23E9D83
(1675526212.774702) vcan0 065#BBE475F8228E6F02
(1675526212.774782) vcan0 070#00001FF880E23C00
(1675526212.774861) vcan0 075#0000000000005458
(1675526212.777537) vcan0 080#D6518000C2002C00
(1675526212.777619) vcan0 0B0#5583E7A2E3C155A3
(1675526212.777694) vcan0 010#000000002FB031F8
(1675526212.777791) vcan0 145#FDC2D380FCC810A1
(1675526212.777870) vcan0 210#16DE80A0A869D14D
(1675526212.778020) vcan0 28C#000000000012FE9F
(1675526212.778098) vcan0 290#0000000000000000
(1675526212.778175) vcan0 2B5#4B5A046293A68C91
(1675526212.778252) vcan0 2C0#6B87004C0100A0F1
(1675526212.778329) vcan0 2C5#17DF756574E40070
(1675526212.778407) vcan0 340#7400000000000000
(1675526212.778557) vcan0 3AF#0000000000000020
(1675526212.778636) vcan0 3D0#9A0F6100170480C3
(1675526212.778715) vcan0 430#2808280000001186
(1675526212.779802) vcan0 1B0#00C0000002B000FC
(1675526212.781179) vcan0 1B5#FF81C25385E0FFEF
(1675526212.781257) vcan0 1D8#363339343234DD43
(1675526212.781334) vcan0 1E0#0004E34300B917E0
(1675526212.782279) vcan0 288#89DE00FF00000080
(1675526212.783305) vcan0 008#458304B183830080
(1675526212.784393) vcan0 010#000000002FB031F8
(1675526212.785355) vcan0 072#F000FF3F00888038
(1675526212.786467) vcan0 1D0#0000000000000061
(1675526212.786545) vcan0 0E0#E27324C00080B700
(1675526212.790376) vcan0 0F5#A587D5877F6B52B8
(1675526212.791465) vcan0 120#BD87ED877FF75589
(1675526212.791544) vcan0 130#D71D1EB507971B12
(1675526212.791621) vcan0 125#E5037DE4C1D0D735
(1675526212.791698) vcan0 150#B70785A777F795C0
(1675526212.792426) vcan0 350#A200000000000080
(1675526212.795424) vcan0 008#3E8314E843830080
(1675526212.795504) vcan0 055#E0F78E28B2579D83
(1675526212.795581) vcan0 065#F6E473F8308E6C02
(1675526212.795659) vcan0 070#000020F888E23C00
(1675526212.795738) vcan0 075#0000000000005458
(1675526212.795826) vcan0 080#F9518000C2002C00
(1675526212.795975) vcan0 0B0#5983F3A2E3C159A3
(1675526212.796053) vcan0 145#FDB2D480FCC810A1
(1675526212.796131) vcan0 260#D0FF0055497487B0
(1675526212.796500) vcan0 010#000000002FB031F8
(1675526212.796578) vcan0 291#0000000000000000
(1675526212.796654) vcan0 2A9#8C260082C0000084
(1675526212.796732) vcan0 370#0720C000711BC71F
(1675526212.797534) vcan0 072#F000FF3F0088A038
(1675526212.798622) vcan0 210#16DE80A0A869D145
(1675526212.801516) vcan0 1B0#00C0000003B000FC
(1675526212.801593) vcan0 1B5#FF86C75688E0FFEF
(1675526212.801670) vcan0 1D8#363339343234DD43
(1675526212.801820) vcan0 1E0#0004E30300B917E0
(1675526212.801898) vcan0 2C3#6B8700FFFFA55450
(1675526212.802555) vcan0 008#3783242002830080
(1675526212.803651) vcan0 290#0000000000000000
(1675526212.804744) vcan0 010#000000002FB031F8
(1675526212.805760) vcan0 1D0#0000000000000061
(1675526212.805911) vcan0 0E0#E27327C800809400
(1675526212.806858) vcan0 288#8DDE00FF00000080
(1675526212.809387) vcan0 0F5#C687ED877F6F42B8
(1675526212.812135) vcan0 120#C787F1877FF45589
(1675526212.812214) vcan0 130#DF181EBD077F1812
(1675526212.812290) vcan0 125#E50F7DE4C1D0D735
(1675526212.812368) vcan0 150#C70786B77CF775C0
(1675526212.813167) vcan0 008#3083346FAB820080
(1675526212.814326) vcan0 055#E0F79628B26F9D83
(1675526212.814404) vcan0 065#07E570F81D8E6B02
(1675526212.814554) vcan0 070#000021F891E23B00
(1675526212.815365) vcan0 075#0000000000005458
(1675526212.815443) vcan0 080#16528000C2002C00
(1675526212.815531) vcan0 0B0#5D83FEA2E2C15DA3
(1675526212.815610) vcan0 145#FDA2D580FCC810A1
(1675526212.815687) vcan0 010#000000002FB031F9
(1675526212.816505) vcan0 072#F000FF3F00888038
(1675526212.816585) vcan0 28C#000000000012FEA2
(1675526212.819259) vcan0 2B5#4B5A086293A6A58B
(1675526212.819337) vcan0 330#2800000000000000
(1675526212.820353) vcan0 1B0#00C0000005B000FC
(1675526212.821442) vcan0 1B5#FF8BCC588AE0FFEF
(1675526212.821519) vcan0 1D8#363339343234DD43
(1675526212.821598) vcan0 1E0#0008D34300B917E0
(1675526212.822541) vcan0 008#2A83449080820080
(1675526212.823557) vcan0 010#000000002FB031F8
(1675526212.824652) vcan0 1D0#0000000000000261
(1675526212.825668) vcan0 210#16DE80A0A869D14D
(1675526212.826755) vcan0 0E0#E27322D000807900
(1675526212.828150) vcan0 260#D0FF0055497487B0
(1675526212.828228) vcan0 291#0000000000000000
(1675526212.831117) vcan0 072#F000FF3F0088A038
(1675526212.831268) vcan0 0F5#CB87F7877F7332B9
(1675526212.831346) vcan0 120#C187EB877FFD5589
(1675526212.831422) vcan0 130#E7151EC707651812
(1675526212.831501) vcan0 125#E51A7DE4C1D0D735
(1675526212.831577) vcan0 150#DC0785C780F750C0
(1675526212.832232) vcan0 288#8DDE00FF00000080
(1675526212.833321) vcan0 008#238354B94E820080
(1675526212.834336) vcan0 055#E0F79E28B2819D83
(1675526212.834416) vcan0 065#17E572F8108E7202
(1675526212.834563) vcan0 070#000022F89AE23A00
(1675526212.835516) vcan0 075#0000000000005458
(1675526212.835594) vcan0 080#2A528000C2002C00
(1675526212.835673) vcan0 0B0#6183FFA2E2C161A3
(1675526212.835758) vcan0 010#000000002FB031F8
(1675526212.836844) vcan0 145#FD92D680FCC810A1
(1675526212.836923) vcan0 290#0000000000000000
(1675526212.837001) vcan0 2A9#8C26009BC0000084
(1675526212.837078) vcan0 2C0#6B87004B0100A0F1
(1675526212.837157) vcan0 2C5#22DF6C6C05E50070
(1675526212.839469) vcan0 1B0#00C0000001B000FC
(1675526212.840556) vcan0 1B5#FF90D15B8DE0FFEF
(1675526212.841571) vcan0 1D8#363339343234DD43
(1675526212.841649) vcan0 1E0#000CC34300B917E0
(1675526212.841801) vcan0 2C3#6B8700FFFFA55450
(1675526212.842672) vcan0 008#1E8364D923820080
(1675526212.843686) vcan0 010#000000002FB031F8
(1675526212.844854) vcan0 072#F000FF3F00888038
(1675526212.845869) vcan0 1D0#0000000000000861
(1675526212.845947) vcan0 0E0#E2731FD800805C00
(1675526212.849779) vcan0 210#16DE8020A869D145
(1675526212.850867) vcan0 0F5#C987F1877F7722BA
(1675526212.850945) vcan0 120#D287EE877FFC5589
(1675526212.851023) vcan0 130#EF151ECB07511212
(1675526212.851821) vcan0 125#E5257DE4C1D0D735
(1675526212.851971) vcan0 150#D7078DD783F745C0
(1675526212.854793) vcan0 008#178374FDF7810080
(1675526212.854872) vcan0 055#E0F7A728B28C9D82
(1675526212.854949) vcan0 065#42E57CF8248E8302
(1675526212.855099) vcan0 070#000022F8A4E23A00
(1675526212.855176) vcan0 075#0000000000005458
(1675526212.855253) vcan0 080#26528000C2002C00
(1675526212.855836) vcan0 0B0#658303A3E1C165A3
(1675526212.855986) vcan0 010#000000002FB031F8
(1675526212.856064) vcan0 145#FD82D780FCC810A1
(1675526212.856142) vcan0 260#D0FF00AA497487B0
(1675526212.856229) vcan0 28C#000000000012FEA3
(1675526212.856956) vcan0 291#0000000000000000
(1675526212.857033) vcan0 2B5#4B5B0C6293A6C2A1
(1675526212.857110) vcan0 340#7400000000000000
(1675526212.857982) vcan0 288#AADE10EF00000080
(1675526212.860944) vcan0 072#F000FF3F0088A038
(1675526212.861022) vcan0 360#6F8700D2BF66A001
(1675526212.861099) vcan0 1B0#00C0000002B000FC
(1675526212.861177) vcan0 1B5#FF95D65D8FE0FFEF
(1675526212.861255) vcan0 1D8#363339343234DD43
(1675526212.861982) vcan0 1E0#000CC30300B917E0
(1675526212.863069) vcan0 008#1183840FDB810080
(1675526212.864085) vcan0 290#0000000000000000
(1675526212.865181) vcan0 010#000000002FB031F8
(1675526212.866269) vcan0 1D0#0000000000000061
(1675526212.866347) vcan0 390#80FF051D0226564F
(1675526212.866433) vcan0 0E0#E27322E000803900
(1675526212.868747) vcan0 0F5#E38706887F7B12BA
(1675526212.871492) vcan0 120#DF8703887FFA5589
(1675526212.871571) vcan0 130#F7181ED807341812
(1675526212.871648) vcan0 125#E5337DE4C1D0D735
(1675526212.871727) vcan0 150#E40790E786F728C0
(1675526212.871876) vcan0 3CA#00000000D20000C8
(1675526212.872604) vcan0 008#0A839406DB810080
(1675526212.873691) vcan0 055#E0F7B128B2909D81
(1675526212.874711) vcan0 065#5EE582F8248E8202
(1675526212.874788) vcan0 070#000023F8AEE23A00
(1675526212.874867) vcan0 075#0000000000005458
(1675526212.875016) vcan0 080#23528000C2002C00
(1675526212.875742) vcan0 0B0#658309A3E1C165A3
(1675526212.875892) vcan0 010#000000002FB031F8
(1675526212.875969) vcan0 072#F000FF3F00888038
(1675526212.876056) vcan0 145#FD72D880FCC810A1
(1675526212.877216) vcan0 210#16DE80A0A869D14D
(1675526212.877293) vcan0 2A9#8C260082C0000084
(1675526212.878235) vcan0 1B0#00C0000005B000FC
(1675526212.881052) vcan0 1B5#FF9ADC6092E0FFEF
(1675526212.881132) vcan0 1D8#363339343234DD43
(1675526212.881280) vcan0 1E0#0010B34300B917E0
(1675526212.882151) vcan0 2C3#6B8700FFFFA55450
(1675526212.882229) vcan0 288#9DDE10EF00000080
(1675526212.883172) vcan0 350#A200000000000080
(1675526212.883323) vcan0 008#0383A4FDDB810080
(1675526212.883401) vcan0 3C8#6B87008E886C008E
(1675526212.884274) vcan0 010#000000002FB031F8
(1675526212.885291) vcan0 1D0#0000000000000061
(1675526212.886379) vcan0 0E0#E27325E800801600
(1675526212.886457) vcan0 260#D0FF00AA497487B0
(1675526212.886556) vcan0 291#0000000000000000
(1675526212.888799) vcan0 0F5#FF8728887F7F02BB
(1675526212.891687) vcan0 072#F000FF3F0088A038
(1675526212.891764) vcan0 120#DB8708887FF55589
(1675526212.891842) vcan0 125#E5417DE4C1D0D735
(1675526212.891921) vcan0 130#FF1A1EF0070C1D12
(1675526212.891998) vcan0 150#00088BF788F7FBC0
(1675526212.892148) vcan0 3B0#00D8193837BCC402
(1675526212.892732) vcan0 008#FC82B4F5DB810080
(1675526212.893819) vcan0 055#E0F7B728B2909D80
(1675526212.894911) vcan0 065#6FE592F8168E9602
(1675526212.894989) vcan0 070#000024F8B5E23A00
(1675526212.895068) vcan0 075#0000000000005458
(1675526212.895145) vcan0 080#23528000C2002C00
(1675526212.895945) vcan0 0B0#6B830BA3E1C16BA3
(1675526212.896022) vcan0 145#FD62D980FCC810A1
(1675526212.896108) vcan0 010#000000002FB031F9
(1675526212.898788) vcan0 28C#000000000012FEA5
(1675526212.898865) vcan0 290#0000000000000000
(1675526212.898942) vcan0 2B5#4B5B116293A6C6BD
(1675526212.899020) vcan0 2C0#6B8700460100A0F1
(1675526212.899097) vcan0 2C5#27DF6B6E4AE50070
(1675526212.899247) vcan0 330#2800000000000000
(1675526212.899325) vcan0 370#0720C000711BC71F
(1675526212.899404) vcan0 3AF#0000000000000020
(1675526212.899481) vcan0 3E0#000000D930808093
(1675526212.899849) vcan0 210#EFDE80A0A869D14D
(1675526212.900938) vcan0 1B0#00C0000006B000FC
(1675526212.901017) vcan0 1B5#FF9FE16295E0FFEF
(1675526212.901094) vcan0 1D8#363339343234DD43
(1675526212.901172) vcan0 1E0#0014A34300B917E0
(1675526212.902043) vcan0 008#F382C4EEDB810080
(1675526212.904510) vcan0 010#000000002FB031F8
(1675526212.905530) vcan0 072#F000FF3F00888038
(1675526212.905609) vcan0 1D0#0000000000000261
(1675526212.906625) vcan0 0E0#E27325F00080F600
(1675526212.907714) vcan0 288#A1DE10EF00000080
(1675526212.910535) vcan0 0F5#168837887F43F2BC
(1675526212.910613) vcan0 120#F08713887FF55589
(1675526212.911627) vcan0 130#87201E0808E32312
(1675526212.911705) vcan0 125#E54E7DE4C1D0D735
(1675526212.911783) vcan0 150#1F088A078AF7CCC0
(1675526212.912728) vcan0 008#EC82D4C1FF810080
(1675526212.913745) vcan0 055#DFF7BB28B2909D80
(1675526212.914765) vcan0 065#7DE59EF8108EA002
(1675526212.914843) vcan0 070#000026F8B9E23A00
(1675526212.914993) vcan0 075#0000000000005458
(1675526212.915071) vcan0 080#22528000C2002C00
(1675526212.916313) vcan0 0B0#6B830AA3E1C16BA3
(1675526212.916391) vcan0 010#000000002FB031F8
(1675526212.916469) vcan0 145#FD52DA80FCC810A1
(1675526212.916545) vcan0 260#D0FF00AA497487B0
(1675526212.916623) vcan0 291#0000000000000000
(1675526212.916774) vcan0 2A9#8C26009BC0000084
(1675526212.920317) vcan0 072#F000FF3F0088A038
(1675526212.920468) vcan0 1B0#00C0000004B000FC
(1675526212.921412) vcan0 1B5#FFA4E66597E0FFEF
(1675526212.921491) vcan0 1D8#363339343234DD43
(1675526212.921568) vcan0 1E0#0014A30300B917E0
(1675526212.921646) vcan0 2C3#6B8700FFFFA55450
(1675526212.922446) vcan0 008#E382E4AB0D820080
(1675526212.923533) vcan0 290#0000000000000000
(1675526212.924623) vcan0 010#000000002FB031F8
(1675526212.925713) vcan0 1D0#0000000000000861
(1675526212.925798) vcan0 210#EFDE80A0A869D145
(1675526212.926816) vcan0 0E0#E27324F80080D700
(1675526212.930571) vcan0 0F5#2B8848887F47E2BC
(1675526212.930651) vcan0 120#FF872E887FF75589
(1675526212.931666) vcan0 130#8F261E1A08C12912
(1675526212.931742) vcan0 125#E5627DE4C1D0D735
(1675526212.931820) vcan0 150#36088B178BF7A5C0
(1675526212.932692) vcan0 288#9DDE10EF00000080
(1675526212.934215) vcan0 008#D882F4892A820080
(1675526212.934293) vcan0 055#DFF7BE28B2909D80
(1675526212.934370) vcan0 065#70E5A8F8FF8DA902
(1675526212.935244) vcan0 070#000027F8BCE23A00
(1675526212.935322) vcan0 075#0000000000005458
(1675526212.935399) vcan0 080#22528000C2002C00
(1675526212.935479) vcan0 0B0#6B8308A3E0C16BA3
(1675526212.935627) vcan0 010#000000002FB031F8
(1675526212.936290) vcan0 072#F000FF3F00888038
(1675526212.936368) vcan0 145#FD42DB80FCC810A1
(1675526212.939116) vcan0 28C#000000000012FEA5
(1675526212.939194) vcan0 2B5#4B5C146293A6C7D1
(1675526212.939271) vcan0 340#7400000000000000
(1675526212.940215) vcan0 1B0#00C0000003B000FC
(1675526212.941230) vcan0 1B5#FFAAEB689AE0FFEF
(1675526212.941307) vcan0 1D8#363339343234DD43
(1675526212.941458) vcan0 1E0#0018934300B917E0
(1675526212.942329) vcan0 008#CF82047438820080
(1675526212.943343) vcan0 010#000000002FB031F8
(1675526212.944431) vcan0 1D0#0000000000000061
(1675526212.945523) vcan0 291#0000000000000000
(1675526212.946537) vcan0 0E0#E27320C00080BB00
(1675526212.946616) vcan0 260#D0FF0055497487B0
(1675526212.949000) vcan0 072#F000FF3F0088A038
(1675526212.953198) vcan0 210#EFDE80A0A869D145
(1675526212.953276) vcan0 0F5#3A884F887F4BD2BD
(1675526212.953354) vcan0 120#11883A887FF55589
(1675526212.953431) vcan0 130#972E1E3808932E12
(1675526212.953507) vcan0 125#E5757DE4C1D0D735
(1675526212.953658) vcan0 150#49088B278CF782C0
(1675526212.953738) vcan0 008#C382144563820080
(1675526212.954246) vcan0 055#E0F7C028B28E9D80
(1675526212.954325) vcan0 065#66E5B2F8FA8DB402
(1675526212.955272) vcan0 070#000027F8BFE23900
(1675526212.955421) vcan0 075#0000000000005458
(1675526212.955499) vcan0 010#000000002FB031F8
(1675526212.955578) vcan0 080#20528000C2002C00
(1675526212.956376) vcan0 0B0#6B8305A3E1C16BA3
(1675526212.956454) vcan0 145#FD32DC80FCC810A1
(1675526212.956532) vcan0 290#0000000000000000
(1675526212.956619) vcan0 2A9#8C260082C0000084
(1675526212.956769) vcan0 2C0#6B87003A0100A0F1
(1675526212.957422) vcan0 2C5#30DF6C6F6EE50070
(1675526212.957502) vcan0 288#AADE20DF00000080
(1675526212.960249) vcan0 360#6F8700D2BF66A001
(1675526212.960327) vcan0 1B0#00C0000002B000FC
(1675526212.961342) vcan0 1B5#FFAFF16A9DE0FFEF
(1675526212.961420) vcan0 1D8#363339343234DD43
(1675526212.961498) vcan0 1E0#001C834300B917E0
(1675526212.961576) vcan0 2C3#6B8700FFFFA55450
(1675526212.962375) vcan0 008#B88224148F820080
(1675526212.963535) vcan0 010#000000002FB031F8
(1675526212.964626) vcan0 072#F000FF3F00888038
(1675526212.965641) vcan0 1D0#0000000000000061
(1675526212.966727) vcan0 0E0#E2731AC80080A100
(1675526212.968029) vcan0 390#80FF051D0222574F
(1675526212.971072) vcan0 0F5#44885F887F4FC2BE
(1675526212.971151) vcan0 120#288847887FF75589
(1675526212.971229) vcan0 130#9F361E3A08813412
(1675526212.971307) vcan0 125#E58B7DE4C1D0D735
(1675526212.972105) vcan0 150#520890378DF769C0
(1675526212.973191) vcan0 350#A200000000000080
(1675526212.973270) vcan0 008#AC8234ECB3820080
(1675526212.974284) vcan0 055#E0F7C128B2909D80
(1675526212.974364) vcan0 065#52E5B9F8F18DBB02
(1675526212.974441) vcan0 070#000027F8C1E23900
(1675526212.975314) vcan0 075#0000000000005458
(1675526212.975391) vcan0 080#1F528000C2002C00
(1675526212.975470) vcan0 0B0#6B8302A3E1C16BA3
(1675526212.975620) vcan0 010#000000002FB031F9
(1675526212.976419) vcan0 145#FD22DD80FCC810A1
(1675526212.977866) vcan0 210#EFDE80A0A869D14D
(1675526212.977953) vcan0 260#D0FF0055497487B0
(1675526212.978030) vcan0 28C#000000000012FEA5
(1675526212.978180) vcan0 291#0000000000000000
(1675526212.978259) vcan0 2B5#4B5C176293A6C7DB
(1675526212.978337) vcan0 330#2800000000000000
(1675526212.978413) vcan0 3D0#9A0F6100170480C3
(1675526212.978925) vcan0 072#F000FF3F0088A038
(1675526212.983258) vcan0 1B0#00C0000004B000FC
(1675526212.983335) vcan0 1B5#FFB4F66D9FE0FFEF
(1675526212.983414) vcan0 1D8#363339343234DD43
(1675526212.983564) vcan0 1E0#001C830300B917E0
(1675526212.983642) vcan0 288#BADE20DF00000080
(1675526212.983720) vcan0 008#A18244CBCF820080
(1675526212.984374) vcan0 290#0000000000000000
(1675526212.985489) vcan0 010#000000002FB031F8
(1675526212.985567) vcan0 1D0#0000000000000261
(1675526212.986520) vcan0 0E0#E27318D000808300
(1675526212.986670) vcan0 400#0101040201010112
(1675526212.986751) vcan0 405#6F870032002C3C02
(1675526212.987620) vcan0 0F5#598872887F53B2BE
(1675526212.988781) vcan0 120#3C885A887FF75589
(1675526212.989869) vcan0 130#A73C1E5708543912
(1675526212.991173) vcan0 125#E5A47DE4C1D0D735
(1675526212.991252) vcan0 150#670895478EF744C0
(1675526212.992268) vcan0 3CA#00000000D30000C8
(1675526212.995160) vcan0 008#938254ACEC820080
(1675526212.995238) vcan0 055#E0F7C128B2909D80
(1675526212.995315) vcan0 065#41E5BCF8F08DC102
(1675526212.995393) vcan0 070#000026F8C3E23800
(1675526212.995471) vcan0 075#0000000000005458
(1675526212.995549) vcan0 080#1D528000C2002C00
(1675526212.995699) vcan0 0B0#6B83FDA2E1C16BA3
(1675526212.995784) vcan0 145#FD12DE80FCC810A1
(1675526212.996296) vcan0 370#0720C000711BC71F
(1675526212.996373) vcan0 010#000000002FB031F8
(1675526212.996451) vcan0 072#F000FF3F00848038
(1675526212.996602) vcan0 2A9#8C26008AC0000084
(1675526212.997400) vcan0 210#EFDE8020A869D145
(1675526212.998417) vcan0 1B0#00C0000003B000FC
(1675526212.999579) vcan0 1B5#FFB9FB70A2E0FFEF
(1675526213.000882) vcan0 1D8#363339343234DD43
(1675526213.001970) vcan0 1E0#0020734300B917E0
(1675526213.002048) vcan0 2C3#6B8700FFFFA65450
(1675526213.002126) vcan0 3C8#6B87008E886C008E
(1675526213.003141) vcan0 008#888264731F830080
(1675526213.005888) vcan0 010#000000002FB031F8
(1675526213.005966) vcan0 1D0#0000000000000861
(1675526213.006045) vcan0 291#0000000000000000
(1675526213.006130) vcan0 0E0#E27316D800806500
(1675526213.006208) vcan0 260#D0FF0055497487B0
(1675526213.007007) vcan0 288#D3DE20DF00000080
(1675526213.008094) vcan0 072#F000FF3F0084A038
(1675526213.009181) vcan0 3B0#00D8193837BCC400
(1675526213.010269) vcan0 0F5#61887D887F57A2BF
(1675526213.011357) vcan0 120#4A8867887FF65589
(1675526213.011435) vcan0 130#AF421E5D083E3F12
(1675526213.011513) vcan0 125#E5C07DE4C1D0D735
(1675526213.011590) vcan0 150#6B08A0578FF730C0
(1675526213.014120) vcan0 008#7A8274632D830080
(1675526213.014198) vcan0 055#E0F7C128B2909D80
(1675526213.014275) vcan0 065#37E5BEF8F68DC302
(1675526213.015221) vcan0 070#000025F8C4E23800
(1675526213.015298) vcan0 075#0000000000005458
(1675526213.015375) vcan0 080#19528000C2002C00
(1675526213.015462) vcan0 0B0#6B83FBA2E1C16BA3
(1675526213.015612) vcan0 010#000000002FB031F8
(1675526213.016341) vcan0 145#FD02DF80FC4810A1
(1675526213.016490) vcan0 28C#000000000012FEA5
(1675526213.016568) vcan0 290#0000000000000000
(1675526213.016645) vcan0 2B5#4B5D186293A6C7E4
(1675526213.019176) vcan0 2C0#6B87002A0100A0F1
(1675526213.019254) vcan0 2C5#34DF6B704BE50070
(1675526213.019405) vcan0 340#7500000000000000
(1675526213.019481) vcan0 3AF#0000000000000020
(1675526213.020281) vcan0 1B0#00C0000002B000FC
(1675526213.021297) vcan0 1B5#FFBF0172A5E0FFEF
(1675526213.021375) vcan0 1D8#363339343234DD43
(1675526213.021524) vcan0 1E0#0024634300B917E0
(1675526213.022398) vcan0 008#6D82842E5F830080
(1675526213.023557) vcan0 010#000000002FB031F8
(1675526213.024593) vcan0 072#F000FF3F00848038
(1675526213.025635) vcan0 0E0#E27317E000804400
(1675526213.026723) vcan0 1D0#0000000000000061
(1675526213.026802) vcan0 210#EFDE80A0A869D14D
(1675526213.029045) vcan0 0F5#72888E887F5B92C0
(1675526213.031936) vcan0 120#628889887FF65589
(1675526213.032013) vcan0 130#B7441E6808233C12
(1675526213.032090) vcan0 125#E5DC7DE4C1D0D735
(1675526213.032168) vcan0 150#7808996791F713C0
(1675526213.032970) vcan0 288#C2DE20DF00000080
(1675526213.033046) vcan0 008#5F82942467830080
(1675526213.034060) vcan0 055#E1F7BF28B2909D80
(1675526213.034139) vcan0 065#36E5BFF8FB8DC402
(1675526213.035086) vcan0 070#000025F8C4E23800
(1675526213.035164) vcan0 075#0000000000005458
(1675526213.035313) vcan0 080#15528000C2002C00
(1675526213.035400) vcan0 0B0#6B83F9A2E1C16BA3
(1675526213.036200) vcan0 010#000000002FB031F8
(1675526213.036278) vcan0 145#FDF2D080FC4810A1
(1675526213.036357) vcan0 260#D0FF0055497487B0
(1675526213.039029) vcan0 291#0000000000000000
(1675526213.039107) vcan0 2A9#8C260093C0000084
(1675526213.040124) vcan0 072#F000FF3F0084A038
(1675526213.041211) vcan0 1B0#00C0000003B000FC
(1675526213.041290) vcan0 1B5#FFC40675A8E0FFEF
(1675526213.041368) vcan0 1D8#363339343234DD43
(1675526213.041445) vcan0 1E0#0024630300B917E0
(1675526213.041595) vcan0 2C3#6B8700FFFFA65450
(1675526213.042252) vcan0 008#5182A4F099830080
(1675526213.043338) vcan0 290#0000000000000000
(1675526213.044427) vcan0 010#000000002FB031F8
(1675526213.045445) vcan0 1D0#0000000000000061
(1675526213.046760) vcan0 0E0#E27318E800802300
(1675526213.049796) vcan0 210#EFDE80A0A869D145
(1675526213.050814) vcan0 0F5#8188A1887F5F82C0
(1675526213.050892) vcan0 120#6B888C887FF65589
(1675526213.050969) vcan0 130#BF441E7208093712
(1675526213.051047) vcan0 125#E5F97DE4C1D0D735
(1675526213.051919) vcan0 150#8008997793F7FBC0
(1675526213.053005) vcan0 008#4482B4E6A0830080
(1675526213.054022) vcan0 055#E1F7BD28B2909D80
(1675526213.054098) vcan0 065#44E5BEF8058EC402
(1675526213.055116) vcan0 070#000025F8C4E23700
(1675526213.055267) vcan0 075#0000000000005458
(1675526213.055345) vcan0 080#11528000C2002C00
(1675526213.055422) vcan0 0B0#6B83FAA2E1C16BA3
(1675526213.056221) vcan0 010#000000002FB031F9
(1675526213.056300) vcan0 072#F000FF3F00848038
(1675526213.057540) vcan0 145#FDE2D180FC4810A1
(1675526213.057618) vcan0 28C#000000000012FEA4
(1675526213.057697) vcan0 2B5#4B5D1A6293A6C7E4
(1675526213.057847) vcan0 330#2800000000000000
(1675526213.057924) vcan0 288#D3DE30CF00000080
(1675526213.060524) vcan0 360#6F8700D2BF66A001
(1675526213.060601) vcan0 1B0#00C0000003B000FC
(1675526213.060751) vcan0 1B5#FFCA0C78ABE0FFEF
(1675526213.061623) vcan0 1D8#363339343234DD43
(1675526213.061701) vcan0 1E0#0028534300B917E0
(1675526213.062644) vcan0 350#A200000000000080
(1675526213.062794) vcan0 008#3482C4C2C4830080
(1675526213.063735) vcan0 010#000000002FB031F8
(1675526213.064903) vcan0 1D0#0000000000000261
(1675526213.065918) vcan0 0E0#E27315F000800600
(1675526213.065996) vcan0 260#D0FF00AA497487B0
(1675526213.067019) vcan0 291#0000000000000000
(1675526213.067099) vcan0 390#80FF051D021E584F
(1675526213.069339) vcan0 072#F000FF3F0084A038
(1675526213.072084) vcan0 0F5#8D88B5887F6372C1
(1675526213.072234) vcan0 120#7E88A0887FFD5589
(1675526213.072314) vcan0 130#C7441E8108EA3712
(1675526213.072389) vcan0 125#E5167EE4C1D0D735
(1675526213.072468) vcan0 150#8F089D8796F7DCC0
(1675526213.073193) vcan0 008#2482D4B3D3830080
(1675526213.074355) vcan0 055#E1F7BC28B2909D80
(1675526213.074431) vcan0 065#4BE5BCF8078EC302
(1675526213.074511) vcan0 070#000024F8C3E23700
(1675526213.075384) vcan0 075#0000000000005458
(1675526213.075463) vcan0 080#0C528000C2002C00
(1675526213.075613) vcan0 0B0#6B83FDA2E0C16BA3
(1675526213.075690) vcan0 010#000000002FB031F8
(1675526213.075775) vcan0 145#FDD2D280FC4810A1
(1675526213.078306) vcan0 210#EFDE80A0A869D14D
(1675526213.078384) vcan0 290#0000000000000000
(1675526213.078533) vcan0 2A9#8C26008AC0000084
(1675526213.078611) vcan0 2C0#6B8700240100A0F1
(1675526213.078689) vcan0 2C5#3ADF697247E50070
(1675526213.079417) vcan0 1B0#00C0000004B000FC
(1675526213.080433) vcan0 1B5#FFCF127BADE0FFEF
(1675526213.081521) vcan0 1D8#363339343234DD43
(1675526213.081598) vcan0 1E0#002C434300B917E0
(1675526213.081676) vcan0 2C3#6B8700FFFFA65450
(1675526213.082548) vcan0 288#E7DE30CF00000080
(1675526213.082697) vcan0 008#1682E48DF7830080
(1675526213.083642) vcan0 010#000000002FB031F8
(1675526213.084733) vcan0 072#F000FF3F00848038
(1675526213.086035) vcan0 0E0#E2730FF80080EC00
(1675526213.086123) vcan0 1D0#0000000000000861
(1675526213.090093) vcan0 0F5#9E88B1887F6762C2
(1675526213.091181) vcan0 120#9788B1887FFA5589
(1675526213.091258) vcan0 130#CF421E9208C93412
(1675526213.091335) vcan0 125#E5357EE4C1D0D735
(1675526213.091413) vcan0 150#9F08A49799F7BCC0
(1675526213.092284) vcan0 008#0682F4770C840080
(1675526213.093298) vcan0 055#E1F7BA28B2909D80
(1675526213.094389) vcan0 065#61E5BBF80E8EC302
(1675526213.094466) vcan0 070#000024F8C3E23600
(1675526213.095482) vcan0 075#0000000000005458
(1675526213.095561) vcan0 080#08528000C2002C00
(1675526213.095639) vcan0 0B0#6B83FEA2E0C16BA3
(1675526213.095791) vcan0 010#000000002FB031F8
(1675526213.096590) vcan0 145#FDC2D380FC4810A1
(1675526213.096668) vcan0 260#D0FF00AA497487B0
(1675526213.097907) vcan0 28C#000000000012FEA5
(1675526213.097985) vcan0 291#0000000000000000
(1675526213.098062) vcan0 2B5#4B5D1C6293A6C7E2
(1675526213.098140) vcan0 340#7500000000000000
(1675526213.098218) vcan0 370#0720C000711BC71F
(1675526213.100892) vcan0 072#F000FF3F0084A038
(1675526213.100971) vcan0 210#EFDE80A0A869D14D
(1675526213.101048) vcan0 1B0#00C0000003B000FC
(1675526213.101199) vcan0 1B5#FFD5177DB0E0FFEF
(1675526213.101277) vcan0 1D8#363339343234DD43
(1675526213.101932) vcan0 1E0#002C430300B917E0
(1675526213.103018) vcan0 008#F68104691B840080
(1675526213.104106) vcan0 290#0000000000000000
(1675526213.105200) vcan0 010#000000002FB031F8
(1675526213.106215) vcan0 1D0#0000000000000061
(1675526213.106292) vcan0 0E0#E2730BC00080D000
(1675526213.107316) vcan0 288#E7DE30CF00000080
(1675526213.109777) vcan0 0F5#9F88C2887F6B52C2
(1675526213.112520) vcan0 120#9888C3887FF85589
(1675526213.112599) vcan0 125#E5547EE4C1D0D735
(1675526213.112677) vcan0 130#D73F1E9E08AD3412
(1675526213.112754) vcan0 150#AB08A3A79DF7A0C0
(1675526213.112904) vcan0 3CA#00000000D40000C8
(1675526213.112982) vcan0 008#E98114423F840080
(1675526213.113637) vcan0 055#E1F7BA28B2909D80
(1675526213.114653) vcan0 065#7CE5BAF8188EC302
(1675526213.114805) vcan0 070#000025F8C4E23600
(1675526213.114883) vcan0 075#0000000000005458
(1675526213.115753) vcan0 080#04528000C2002C00
(1675526213.115831) vcan0 0B0#6B8302A3E0C16BA3
(1675526213.115908) vcan0 010#000000002FB031F8
(1675526213.115986) vcan0 072#F000FF3F00848038
(1675526213.116072) vcan0 145#FDB2D480FC4810A1
(1675526213.118606) vcan0 2A9#8C260093C0000084
(1675526213.119765) vcan0 1B0#00C0000003B000FC
(1675526213.120851) vcan0 1B5#FFDA1D80B3E0FFEF
(1675526213.120928) vcan0 1D8#363339343234DD43
(1675526213.121872) vcan0 1E0#0030334300B917E0
(1675526213.121950) vcan0 2C3#6B8700FFFFA65450
(1675526213.122893) vcan0 3C8#6B87008E886C008E
(1675526213.123044) vcan0 008#D981245829840080
(1675526213.123985) vcan0 010#000000002FB031F8
(1675526213.125075) vcan0 1D0#0000000000000061
(1675526213.126090) vcan0 0E0#E2730DC80080AE00
(1675526213.128045) vcan0 210#EFDE80A0A869D145
(1675526213.128125) vcan0 260#D0FF00AA497487B0
(1675526213.128202) vcan0 291#0000000000000000
(1675526213.130517) vcan0 072#F000FF3F0084A038
(1675526213.130611) vcan0 3B0#00D8193837BCC400
(1675526213.130690) vcan0 0F5#B988D1887F6F42C3
(1675526213.130767) vcan0 120#AB88D1887FFA5589
(1675526213.131637) vcan0 130#DF3C1EAF088C3412
(1675526213.131714) vcan0 125#E5727EE4C1D0D735
(1675526213.131793) vcan0 150#BF08A8B7A1F77CC0
(1675526213.132736) vcan0 288#F3DE30CF00000080
(1675526213.132813) vcan0 008#CB81344837840080
(1675526213.133830) vcan0 055#E1F7BC28B2909D80
(1675526213.134775) vcan0 065#A0E5BBF81F8EC502
(1675526213.134925) vcan0 070#000025F8C6E23600
(1675526213.135002) vcan0 075#0000000000005458
(1675526213.135080) vcan0 080#00528000C2002C00
(1675526213.135879) vcan0 0B0#6B8305A3E0C16BA3
(1675526213.138769) vcan0 010#000000002FB031F9
(1675526213.138846) vcan0 145#FDA2D580FC4810A1
(1675526213.138946) vcan0 28C#000000000012FEA5
(1675526213.139025) vcan0 290#0000000000000000
(1675526213.139174) vcan0 2B5#4B5D1F6293A6C7DC
(1675526213.139251) vcan0 2C0#6B8700230100A0F1
(1675526213.139329) vcan0 2C5#3DDF697367E50070
(1675526213.139407) vcan0 330#2800000000000000
(1675526213.139484) vcan0 3AF#0000000000000020
(1675526213.139851) vcan0 1B0#00C0000005B000FC
(1675526213.140938) vcan0 1B5#FFE02383B6E0FFEF
(1675526213.141016) vcan0 1D8#363339343234DD43
(1675526213.141093) vcan0 1E0#0034234300B917E0
(1675526213.141966) vcan0 008#BD81445429840080
(1675526213.144423) vcan0 010#000000002FB031F8
(1675526213.145585) vcan0 072#F000FF3F00848038
(1675526213.145664) vcan0 0E0#E2730AD000809100
(1675526213.146679) vcan0 1D0#0000000000000261
(1675526213.150588) vcan0 210#EFDE8020A869D145
(1675526213.150665) vcan0 0F5#D188E7887F7332C4
(1675526213.150815) vcan0 120#BA88E2887FFE5589
(1675526213.150893) vcan0 130#E73C1ECC085F3912
(1675526213.151692) vcan0 125#E58E7EE4C1D0D735
(1675526213.151771) vcan0 150#D708A9C7A5F754C0
(1675526213.152714) vcan0 350#A200000000000080
(1675526213.152793) vcan0 008#B081545129840080
(1675526213.153811) vcan0 055#E1F7BE28B2909D80
(1675526213.154903) vcan0 065#BBE5BBF81C8EC502
(1675526213.154982) vcan0 070#000026F8C8E23600
(1675526213.155060) vcan0 075#0000000000005458
(1675526213.155138) vcan0 080#FD518000C2002C00
(1675526213.157812) vcan0 0B0#6B8307A3E0C16BA3
(1675526213.157890) vcan0 010#000000002FB031F8
(1675526213.157968) vcan0 145#FD92D680FC4810A1
(1675526213.158054) vcan0 260#D0FF0055497487B0
(1675526213.158132) vcan0 291#0000000000000000
(1675526213.158210) vcan0 2A9#8C26008AC0000084
(1675526213.158360) vcan0 288#14DF40BF00000080
(1675526213.158871) vcan0 072#F000FF3F0084A038
(1675526213.159959) vcan0 360#6F8700D2BF66A001
(1675526213.160976) vcan0 1B0#00C0000005B000FC
(1675526213.161053) vcan0 1B5#FFE62886B9E0FFEF
(1675526213.161140) vcan0 1D8#363339343234DD43
(1675526213.163879) vcan0 1E0#0034230300B917E0
(1675526213.163957) vcan0 2C3#6B8700FFFFA65450
(1675526213.164106) vcan0 008#A281645D1B840080
(1675526213.164185) vcan0 290#0000000000000000
(1675526213.164986) vcan0 010#000000002FB031F8
(1675526213.166074) vcan0 1D0#0000000000000861
(1675526213.166153) vcan0 0E0#E27306D800807500
(1675526213.166249) vcan0 390#80FF051D021A594F
(1675526213.167124) vcan0 0F5#E688FD887F7722C5
(1675526213.168140) vcan0 120#D688EF887FFE5589
(1675526213.169229) vcan0 125#E5A77EE4C1D0D735
(1675526213.170243) vcan0 130#EF3C1EE708343F12
(1675526213.171331) vcan0 150#F308B3D7A9F728C0
(1675526213.172635) vcan0 008#9581747FF7830080
(1675526213.175602) vcan0 055#E1F7C028B28E9D80
(1675526213.175754) vcan0 065#CAE5B9F8138EC202
(1675526213.175831) vcan0 070#000026F8CAE23600
(1675526213.175909) vcan0 075#0000000000005458
(1675526213.175987) vcan0 080#FB518000C2002C00
(1675526213.176064) vcan0 0B0#6B8309A3E0C16BA3
(1675526213.176142) vcan0 010#000000002FB031F8
(1675526213.176293) vcan0 072#F000FF3F00848038
(1675526213.176371) vcan0 145#FD82D780FC4810A1
(1675526213.176745) vcan0 210#BEDF80A0A869D14D
(1675526213.176825) vcan0 28C#000000000012FEA6
(1675526213.176902) vcan0 2B5#4B5E216293A6C7D5
(1675526213.176979) vcan0 340#7500000000000000
(1675526213.177780) vcan0 3D0#9A0F6100170480C3
(1675526213.178868) vcan0 1B0#00C0000003B000FC
(1675526213.181399) vcan0 1B5#FFEB2E89BCE0FFEF
(1675526213.181476) vcan0 1D8#363339343234DD43
(1675526213.181555) vcan0 1E0#0038134300B917E0
(1675526213.182425) vcan0 288#1CDF40BF00000080
(1675526213.182576) vcan0 008#8B818496DA830080
(1675526213.184844) vcan0 010#000000002FB031F8
(1675526213.185933) vcan0 1D0#0000000000000061
(1675526213.186010) vcan0 0E0#E27301E000805A00
(1675526213.186088) vcan0 260#D0FF0055497487B0
(1675526213.187032) vcan0 291#0000000000000000
(1675526213.191011) vcan0 0F5#FA880A897F7B12C5
(1675526213.191089) vcan0 072#F000FF3F0084A038
(1675526213.191166) vcan0 120#F58808897FFF5589
(1675526213.191244) vcan0 125#E5BD7EE4C1D0D735
(1675526213.192115) vcan0 130#F73F1EF708144512
(1675526213.192192) vcan0 150#0309B6E7AEF707C0
(1675526213.193062) vcan0 008#808194A7C4830080
(1675526213.194224) vcan0 055#E1F7C228B28E9D80
(1675526213.194303) vcan0 065#CEE5B9F80A8EC202
(1675526213.195323) vcan0 070#000027F8CCE23600
(1675526213.195403) vcan0 075#0000000000005458
(1675526213.195481) vcan0 080#FA518000C2002C00
(1675526213.198157) vcan0 0B0#6B830BA3E0C16BA3
(1675526213.198308) vcan0 145#FD72D880FC4810A1
(1675526213.198385) vcan0 010#000000002FB031F8
(1675526213.198463) vcan0 290#0000000000000000
(1675526213.198550) vcan0 2A9#8C260082C0000084
(1675526213.198628) vcan0 2C0#6B87001F0100A0F1
(1675526213.198706) vcan0 2C5#41DF6D74CDE50070
(1675526213.198856) vcan0 370#2720C000711BC71F
(1675526213.198934) vcan0 3E0#000000D930808094
(1675526213.199228) vcan0 210#BEDF80A0A869D145
(1675526213.200316) vcan0 1B0#00C0000003B000FC
(1675526213.201333) vcan0 1B5#FFF1348CBFE0FFEF
(1675526213.201483) vcan0 1D8#363339343234DD43
(1675526213.201560) vcan0 1E0#003C034300B917E0
(1675526213.204235) vcan0 2C3#6B8700FFFFA65450
(1675526213.204313) vcan0 008#7781A4C4A0830080
(1675526213.205372) vcan0 010#000000002FB031F8
(1675526213.205445) vcan0 072#F000FF3F00848038
(1675526213.206412) vcan0 0E0#E27304E800803700
(1675526213.206554) vcan0 1D0#0000000000000061
(1675526213.207461) vcan0 288#35DF40BF00000080
(1675526213.208564) vcan0 0F5#0F8920897F7F02C6
(1675526213.209598) vcan0 120#FB8818897FFF5589
(1675526213.210702) vcan0 125#E5D07EE4C1D0D735
(1675526213.211805) vcan0 130#FF421E0809F24A12
(1675526213.211878) vcan0 150#1409B6F7B3F7E6C0
(1675526213.213185) vcan0 008#6E81B4EF6E830080
(1675526213.216165) vcan0 055#E1F7C128B28A9D80
(1675526213.216243) vcan0 065#D2E5BBF8058EC602
(1675526213.216322) vcan0 070#000027F8CBE23600
(1675526213.216399) vcan0 075#0000000000005458
(1675526213.216478) vcan0 080#F7518000C2002C00
(1675526213.216628) vcan0 0B0#6B830CA3E0C16BA3
(1675526213.216705) vcan0 145#FD62D980FC4810A1
(1675526213.216783) vcan0 010#000000002FB031F9
(1675526213.216859) vcan0 260#D0FF0055497487B0
(1675526213.216949) vcan0 28C#000000000012FEA6
(1675526213.217027) vcan0 291#0000000000000000
(1675526213.217250) vcan0 2B5#4B5E236293A6C7D9
(1675526213.217329) vcan0 330#2800000000000000
(1675526213.218345) vcan0 072#F000FF3F0084A038
(1675526213.219433) vcan0 1B0#00C0000004B000FC
(1675526213.222327) vcan0 1B5#FFF73A8FC2E0FFEF
(1675526213.222405) vcan0 1D8#363339343234DD43
(1675526213.222483) vcan0 1E0#003C030300B917E0
(1675526213.223353) vcan0 008#6581C41343830080
(1675526213.224371) vcan0 290#0000000000000000
(1675526213.225523) vcan0 010#000000002FB031F8
(1675526213.225597) vcan0 1D0#0000000000000261
(1675526213.226563) vcan0 0E0#E27305F000801600
(1675526213.226706) vcan0 210#BEDF80A0A869D14D
(1675526213.228974) vcan0 0F5#218930897F43F2C7
(1675526213.230086) vcan0 120#18892C897FFF5589
(1675526213.231120) vcan0 125#E5E37EE4C1D0D735
(1675526213.231193) vcan0 130#87441E2009CA5012
(1675526213.231337) vcan0 150#2909C307B7F7C1C0
(1675526213.233945) vcan0 3CA#00000000D50000C8
(1675526213.234019) vcan0 288#45DF40BF00000080
(1675526213.234093) vcan0 008#5E81D42E1F830080
(1675526213.234167) vcan0 055#E1F7BD28B2869D80
(1675526213.235006) vcan0 065#D2E5BDF8028EC802
(1675526213.235085) vcan0 070#000026F8C8E23600
(1675526213.235164) vcan0 075#0000000000005458
(1675526213.235313) vcan0 080#EE518000C2002C00
(1675526213.235391) vcan0 0B0#6B830CA3E0C16BA3
(1675526213.236048) vcan0 010#000000002FB031F8
(1675526213.236198) vcan0 072#F000FF3F00848038
(1675526213.236276) vcan0 145#FD52DA80FC4810A1
(1675526213.236363) vcan0 2A9#8C26009BC0000084
(1675526213.237166) vcan0 400#0000000400010113
(1675526213.238183) vcan0 1B0#00C0000003B000FC
(1675526213.241076) vcan0 1B5#FFFD4092C5E0FFEF
(1675526213.241154) vcan0 1D8#363339343234DD43
(1675526213.241232) vcan0 1E0#0000F34300B917E0
(1675526213.242103) vcan0 2C3#6B8700FFFFA65450
(1675526213.242180) vcan0 3C8#6B87008E886C008E
(1675526213.243198) vcan0 350#A200000000000080
(1675526213.243274) vcan0 008#5781E459EC820080
(1675526213.244217) vcan0 010#000000002FB031F8
(1675526213.245279) vcan0 1D0#0000000000000861
(1675526213.246380) vcan0 0E0#E27309F80080F200
(1675526213.246523) vcan0 260#D0FF00AA497487B0
(1675526213.246598) vcan0 291#0000000000000000
(1675526213.248862) vcan0 072#F000FF3F0084A038
(1675526213.249906) vcan0 210#BEDF80A0A869D145
(1675526213.252787) vcan0 3B0#00D8193837BCC400
(1675526213.252861) vcan0 0F5#3A893C897F47E2C8
(1675526213.252934) vcan0 120#2A893E897FFF5589
(1675526213.253079) vcan0 125#E5F47EE4C1D0D735
(1675526213.253154) vcan0 130#8F471E3709A35312
(1675526213.253225) vcan0 150#3D09C317BCF79DC0
(1675526213.253299) vcan0 008#5081F47BC1820080
(1675526213.253853) vcan0 055#E1F7B528B27F9D7F
(1675526213.254937) vcan0 065#D2E5BEF8008EC902
(1675526213.255013) vcan0 070#000026F8BFE23600
(1675526213.255090) vcan0 075#0000000000005458
(1675526213.255170) vcan0 080#D8518000C2002C00
(1675526213.255968) vcan0 010#000000002FB031F8
(1675526213.256045) vcan0 0B0#6B830CA3DFC16BA3
(1675526213.256195) vcan0 145#FD42DB80FC4810A1
(1675526213.258881) vcan0 28C#000000000012FEA7
(1675526213.258959) vcan0 290#0000000000000000
(1675526213.259037) vcan0 2B5#4B5F256293A6BCD9
(1675526213.259114) vcan0 2C0#6B8700110100A0F1
(1675526213.259265) vcan0 2C5#43DF6F75D3E50070
(1675526213.259342) vcan0 340#7500000000000000
(1675526213.259421) vcan0 288#62DF50AF00000080
(1675526213.259498) vcan0 3AF#0000000000000020
(1675526213.260009) vcan0 360#6F8700D2BF66A001
(1675526213.261098) vcan0 1B0#00C0000004B000FC
(1675526213.261175) vcan0 1B5#FF034695C8E0FFEF
(1675526213.261253) vcan0 1D8#363339343234DD43
(1675526213.261330) vcan0 1E0#0004E34300B917E0
(1675526213.262130) vcan0 008#478104A68F820080
(1675526213.263219) vcan0 010#000000002FB031F8
(1675526213.265648) vcan0 072#F000FF3F00848038
(1675526213.265732) vcan0 0E0#E2730BC00080D000
(1675526213.266697) vcan0 1D0#0000000000000061
(1675526213.266771) vcan0 390#80FF051D02165A4F
(1675526213.270611) vcan0 0F5#49894C897F4BD2C8
(1675526213.270686) vcan0 120#3D894B897FFE5589
(1675526213.270761) vcan0 125#E5027FE4C1D0D735
(1675526213.271656) vcan0 130#974A1E4B097F5012
(1675526213.271729) vcan0 150#4F09CD27C0F77BC0
(1675526213.272695) vcan0 008#408114AC80820080
(1675526213.273729) vcan0 055#E1F7AC28B2729D7F
(1675526213.274862) vcan0 065#D0E5BDF8FE8DC802
(1675526213.274940) vcan0 070#000026F8B6E23600
(1675526213.275018) vcan0 075#0000000000005458
(1675526213.275095) vcan0 080#C0518000C2002C00
(1675526213.277626) vcan0 010#000000002FB031F8
(1675526213.277704) vcan0 0B0#6B830CA3DFC16BA3
(1675526213.277790) vcan0 145#FD32DC80FC4810A1
(1675526213.277940) vcan0 210#BEDF80A0A869D14D
(1675526213.278018) vcan0 260#D0FF00AA497487B0
(1675526213.278094) vcan0 291#0000000000000000
(1675526213.278173) vcan0 2A9#8C260082C0000084
(1675526213.278685) vcan0 072#F000FF3F0084A038
(1675526213.279845) vcan0 1B0#00C0000003B000FC
(1675526213.280860) vcan0 1B5#FF094C98CBE0FFEF
(1675526213.281010) vcan0 1D8#363339343234DD43
(1675526213.281955) vcan0 1E0#0004E30300B917E0
(1675526213.284767) vcan0 2C3#6B8700FFFFA65450
(1675526213.284840) vcan0 288#6EDF50AF00000080
(1675526213.284917) vcan0 008#3A8124C65C820080
(1675526213.284991) vcan0 290#0000000000000000
(1675526213.285887) vcan0 010#000000002FB031F8
(1675526213.285962) vcan0 1D0#0000000000000061
(1675526213.286045) vcan0 0E0#E27308C80080B300
(1675526213.286941) vcan0 0F5#53895D897F4FC2C9
(1675526213.287975) vcan0 120#608969897FFC5589
(1675526213.289077) vcan0 125#E50F7FE4C1D0D735
(1675526213.290111) vcan0 130#9F4A1E5409664A12
(1675526213.291146) vcan0 150#5A09D137C4F760C0
(1675526213.292522) vcan0 008#338134DA3F820080
(1675526213.295514) vcan0 055#E1F7A528B2669D7E
(1675526213.295592) vcan0 065#D6E5B8F8038EC302
(1675526213.295742) vcan0 070#000026F8B0E23500
(1675526213.295821) vcan0 075#0000000000005458
(1675526213.295898) vcan0 080#AE518000C2002C00
(1675526213.295975) vcan0 0B0#6B830DA3DFC16BA3
(1675526213.296053) vcan0 145#FD22DD80FC4810A1
(1675526213.296133) vcan0 010#000000002FB031F9
(1675526213.296571) vcan0 072#F000FF3F00848038
(1675526213.296657) vcan0 28C#000000000012FEA6
(1675526213.296806) vcan0 2B5#4B5F276293A6AFCE
(1675526213.296884) vcan0 330#2800000000000000
(1675526213.297685) vcan0 370#2720C000711BC71F
(1675526213.298772) vcan0 210#BEDF8020A869D14D
(1675526213.299862) vcan0 1B0#00C0000003B000FC
(1675526213.301166) vcan0 1B5#FF0F529BCEE0FFEF
(1675526213.301243) vcan0 1D8#363339343234DD43
(1675526213.301321) vcan0 1E0#0008D34300B917E0
(1675526213.302192) vcan0 008#2C8144F51B820080
(1675526213.306162) vcan0 010#000000002FB031F8
(1675526213.306236) vcan0 1D0#0000000000000261
(1675526213.306310) vcan0 0E0#E27308D000809300
(1675526213.306454) vcan0 260#D0FF00AA497487B0
(1675526213.306527) vcan0 291#0000000000000000
(1675526213.307220) vcan0 288#72DF50AF00000080
(1675526213.308275) vcan0 072#F000FF3F0084A038
(1675526213.309307) vcan0 0F5#64896C897F53B2CA
(1675526213.310476) vcan0 120#69896C897FFE5589
(1675526213.311510) vcan0 125#E51E7FE4C1D0D735
(1675526213.311585) vcan0 130#A74A1E6509454A12
(1675526213.311657) vcan0 150#6A09D447C8F740C0
(1675526213.312554) vcan0 008#258154FA0D820080
(1675526213.313930) vcan0 055#E1F7A328B25D9D7F
(1675526213.316956) vcan0 065#DBE5B2F805AEBC02
(1675526213.317037) vcan0 070#000026F8AFE23500
(1675526213.317113) vcan0 075#0000000000005458
(1675526213.317191) vcan0 080#AA518000C2002C00
(1675526213.317270) vcan0 0B0#6B8310A3DFC16BA3
(1675526213.317347) vcan0 010#000000002FB031F8
(1675526213.317497) vcan0 145#FD12DE80FC4810A1
(1675526213.317576) vcan0 290#0000000000000000
(1675526213.317661) vcan0 2A9#8C26009BC0000084
(1675526213.317740) vcan0 2C0#6B8700040100A0F1
(1675526213.317817) vcan0 2C5#44DF7277D7E50070
(1675526213.318042) vcan0 1B0#00C0000003B000FC
(1675526213.319057) vcan0 1B5#FF15589ED1E0FFEF
(1675526213.320215) vcan0 1D8#363339343234DD43
(1675526213.321233) vcan0 1E0#000CC34300B917E0
(1675526213.324051) vcan0 2C3#6B8700FFFFA75450
(1675526213.324128) vcan0 008#1E8164F10D820080
(1675526213.325134) vcan0 010#000000002FB031F8
(1675526213.326157) vcan0 072#F000FF3F00848038
(1675526213.326232) vcan0 0E0#E27306D800807500
(1675526213.326304) vcan0 1D0#0000000000000861
(1675526213.326448) vcan0 210#BEDF80A0A869D145
(1675526213.327207) vcan0 0F5#78897E897F57A2CB
(1675526213.328310) vcan0 120#6F8980897FFF5589
(1675526213.329422) vcan0 125#E52B7FE4C1D0D735
(1675526213.330457) vcan0 130#AF4A1E7409264512
(1675526213.331492) vcan0 150#7A09D457CBF720C0
(1675526213.332800) vcan0 288#7FDF50AF00000080
(1675526213.332874) vcan0 008#17817406F0810080
(1675526213.332948) vcan0 350#A200000000000080
(1675526213.335782) vcan0 055#E1F79F28B2579D80
(1675526213.335860) vcan0 065#E7E5ACF808AEB602
(1675526213.335938) vcan0 070#000025F8ABE23500
(1675526213.336088) vcan0 075#0000000000005458
(1675526213.336168) vcan0 080#A1518000C2002C00
(1675526213.336245) vcan0 0B0#6B8312A3DFC16BA3
(1675526213.336323) vcan0 010#000000002FB031F8
(1675526213.336400) vcan0 145#FD02DF80FC4810A1
(1675526213.336479) vcan0 260#D0FF00AA497487B0
(1675526213.336845) vcan0 28C#000000000012FEA7
(1675526213.336930) vcan0 291#0000000000000000
(1675526213.337082) vcan0 2B5#4B60286293A6A3C3
(1675526213.337160) vcan0 340#7600000000000000
(1675526213.337961) vcan0 425#0000000000000000
(1675526213.338978) vcan0 072#F000FF3F0084A038
(1675526213.340356) vcan0 1B0#00C0000003B000FC
(1675526213.341444) vcan0 1B5#FF1B5EA1D4E0FFEF
(1675526213.341521) vcan0 1D8#363339343234DD43
(1675526213.341600) vcan0 1E0#000CC30300B917E0
(1675526213.342473) vcan0 008#13818401E9810080
(1675526213.343633) vcan0 290#0000000000000000
(1675526213.346298) vcan0 010#000000002FB031F8
(1675526213.346442) vcan0 1D0#0000000000000061
(1675526213.346514) vcan0 0E0#E2730DE000804E00
(1675526213.347344) vcan0 210#BEDF80A0A869D145
(1675526213.348448) vcan0 0F5#86898D897F5B92CB
(1675526213.349491) vcan0 120#7C8992897FFF5589
(1675526213.350527) vcan0 125#E5397FE4C1D0D735
(1675526213.351560) vcan0 130#B7471E8809024212
(1675526213.354442) vcan0 150#8A09DB67CEF700C0
(1675526213.354515) vcan0 3CA#00000000D60000C8
(1675526213.354645) vcan0 008#0C8194F8E9810080
(1675526213.354724) vcan0 055#E1F79D28B2559D80
(1675526213.354805) vcan0 065#F0E5A7F808AEB102
(1675526213.354883) vcan0 070#000025F8A9E23500
(1675526213.355467) vcan0 075#0000000000005458
(1675526213.355546) vcan0 080#9B518000C2002C00
(1675526213.355622) vcan0 0B0#6B8314A3DFC16BA3
(1675526213.355702) vcan0 010#000000002FB031F8
(1675526213.355779) vcan0 072#F000FF3F00848038
(1675526213.356508) vcan0 145#FDF2D080FC4810A1
(1675526213.356586) vcan0 2A9#8C260082C0000084
(1675526213.357541) vcan0 288#7FDF609F00000080
(1675526213.358701) vcan0 360#6F8700D2BF66A001
(1675526213.361525) vcan0 1B0#00C0000002B000FC
(1675526213.361674) vcan0 1B5#FF2165A4D7E0FFEF
(1675526213.361753) vcan0 1D8#363339343234DD43
(1675526213.361830) vcan0 1E0#0010B34300B917E0
(1675526213.361907) vcan0 2C3#6B8700FFFFA75450
(1675526213.362636) vcan0 3C8#6B87008E886C008E
(1675526213.362716) vcan0 008#0581A4EFE9810080
(1675526213.363659) vcan0 010#000000002FB031F8
(1675526213.364699) vcan0 1D0#0000000000000061
(1675526213.365733) vcan0 0E0#E2730BE800803000
(1675526213.365808) vcan0 260#D0FF0055497487B0
(1675526213.366773) vcan0 291#0000000000000000
(1675526213.368151) vcan0 390#80FF051D02125B6F
(1675526213.369253) vcan0 072#F000FF3F0084A038
(1675526213.370295) vcan0 3B0#00FC193C37BCC400
(1675526213.370369) vcan0 0F5#91899B897F5F82CC
(1675526213.371334) vcan0 120#8E89A2897F015689
(1675526213.374148) vcan0 125#E54A7FE4C1D0D735
(1675526213.374220) vcan0 130#BF441E9209E83C12
(1675526213.374295) vcan0 150#9709D777D0F7E3C0
(1675526213.374369) vcan0 008#FE80B4F5DB810080
(1675526213.374512) vcan0 055#E1F79B28B2549D80
(1675526213.374587) vcan0 065#00E6A2F80EAEAD02
(1675526213.375298) vcan0 070#000024F8A7E23500
(1675526213.375377) vcan0 075#0000000000005458
(1675526213.375452) vcan0 080#96518000C2002C00
(1675526213.375531) vcan0 0B0#6B8314A3DFC16BA3
(1675526213.375609) vcan0 010#000000002FB031F9
(1675526213.376336) vcan0 145#FDE2D180FC4810A1
(1675526213.376414) vcan0 210#BEDF80A0A869D14D
(1675526213.376500) vcan0 28C#000000000012FEA7
(1675526213.376579) vcan0 290#0000000000000000
(1675526213.379110) vcan0 2B5#4B602A6293A69ABC
(1675526213.379260) vcan0 2C0#6B8700000100A0F1
(1675526213.379338) vcan0 2C5#44DF7478E9E50070
(1675526213.379417) vcan0 330#2800000000000000
(1675526213.379493) vcan0 3AF#0000000000000020
(1675526213.379571) vcan0 3D0#9A0F6100170480C3
(1675526213.380228) vcan0 430#2808280000001186
(1675526213.380307) vcan0 1B0#00C0000003B000FC
(1675526213.381323) vcan0 1B5#FF286BA7DAE0FFEF
(1675526213.381400) vcan0 1D8#363339343234DD43
(1675526213.381551) vcan0 1E0#0014A34300B917E0
(1675526213.382422) vcan0 288#83DF609F00000080
(1675526213.382500) vcan0 008#F880C4EBDB810080
(1675526213.383446) vcan0 010#000000002FB031F8
(1675526213.384621) vcan0 072#F000FF3F00848038
(1675526213.385862) vcan0 1D0#0000000000000261
(1675526213.386006) vcan0 0E0#E2730CF000800F00
(1675526213.389984) vcan0 0F5#A689A9897F6372CD
(1675526213.391017) vcan0 120#A689A8897F005689
(1675526213.391160) vcan0 125#E5587FE4C1D0D735
(1675526213.391234) vcan0 130#C7421EA409C63C12
(1675526213.391308) vcan0 150#A609D887D2F7C4C0
(1675526213.392205) vcan0 008#F180D4E2DB810080
(1675526213.393239) vcan0 055#E1F79A28B2549D80
(1675526213.394271) vcan0 065#0CE69FF80CAEAA02
(1675526213.394414) vcan0 070#000024F8A6E23500
(1675526213.395369) vcan0 075#0000000000005458
(1675526213.395447) vcan0 080#92518000C2002C00
(1675526213.395526) vcan0 0B0#6B8315A3DFC16BA3
(1675526213.395603) vcan0 145#FDD2D280FC4810A1
(1675526213.396412) vcan0 010#000000002FB031F8
(1675526213.396491) vcan0 291#0000000000000000
(1675526213.397796) vcan0 260#D0FF0055497487B0
(1675526213.397947) vcan0 2A9#8C26008AC0000084
(1675526213.398024) vcan0 370#0720C000711BC71F
(1675526213.400770) vcan0 072#F000FF3F0084A038
(1675526213.400920) vcan0 210#BEDF80A0A869D145
(1675526213.400999) vcan0 1B0#00C0000003B000FC
(1675526213.401076) vcan0 1B5#FF2E71AADDE0FFEF
(1675526213.401154) vcan0 1D8#363339343234DD43
(1675526213.401881) vcan0 1E0#0014A30300B917E0
(1675526213.401959) vcan0 2C3#6B8700FFFFA75450
(1675526213.402902) vcan0 008#EA80E4D9DB810080
(1675526213.404063) vcan0 290#0000000000000000
(1675526213.405133) vcan0 010#000000002FB031F8
(1675526213.406163) vcan0 1D0#0000000000000861
(1675526213.406246) vcan0 0E0#E27309F80080F200
(1675526213.407211) vcan0 288#97DF609F00000080
(1675526213.409613) vcan0 0F5#B089BA897F6762CE
(1675526213.412430) vcan0 120#A989BD897FFF5589
(1675526213.412506) vcan0 125#E5657FE4C1D0D735
(1675526213.412579) vcan0 130#CF421EAC09AE3712
(1675526213.412723) vcan0 150#B909DD97D5F7A1C0
(1675526213.412796) vcan0 008#E380F4D0DB810080
(1675526213.413486) vcan0 055#E1F79928B2549D80
(1675526213.414520) vcan0 065#1CE69CF80FAEA702
(1675526213.414593) vcan0 070#000024F8A5E23500
(1675526213.414723) vcan0 075#0000000000005458
(1675526213.415670) vcan0 080#8F518000C2002C00
(1675526213.415748) vcan0 0B0#6B8316A3DFC16BA3
(1675526213.415826) vcan0 010#000000002FB031F8
(1675526213.415904) vcan0 072#F000FF3F00848038
(1675526213.416713) vcan0 145#FDC2D380FC4810A1
(1675526213.416790) vcan0 28C#000000000012FEA7
(1675526213.419538) vcan0 2B5#4B612B6293A695B7
(1675526213.419615) vcan0 340#7600000000000000
(1675526213.420559) vcan0 1B0#00C0000003B000FC
(1675526213.420638) vcan0 1B5#FF3477ADE0E0FFEF
(1675526213.421727) vcan0 1D8#363339343234DD43
(1675526213.421805) vcan0 1E0#0018934300B917E0
(1675526213.422748) vcan0 008#DC8004C7DB810080
(1675526213.422827) vcan0 350#A200000000000080
(1675526213.423771) vcan0 010#000000002FB031F8
(1675526213.424853) vcan0 1D0#0000000000000061
(1675526213.425887) vcan0 0E0#E27309C00080D200
(1675526213.427332) vcan0 210#BEDF80A0A869D14D
(1675526213.427405) vcan0 260#D0FF0055497487B0
(1675526213.427479) vcan0 291#0000000000000000
(1675526213.430303) vcan0 072#F000FF3F0084A038
(1675526213.430377) vcan0 0F5#BE89C2897F6B52CE
(1675526213.431343) vcan0 120#C989D5897FFF5589
(1675526213.431417) vcan0 125#E5737FE4C1D0D735
(1675526213.431491) vcan0 130#D73F1EC0098A3912
(1675526213.431633) vcan0 150#C509E0A7D7F785C0
(1675526213.432393) vcan0 288#9FDF609F00000080
(1675526213.432467) vcan0 008#D58014B0E9810080
(1675526213.433433) vcan0 055#E1F79828B2549D80
(1675526213.434466) vcan0 065#29E699F80CAEA502
(1675526213.434639) vcan0 070#000024F8A4E23500
(1675526213.435516) vcan0 075#0000000000005458
(1675526213.435666) vcan0 080#8D518000C2002C00
(1675526213.435744) vcan0 010#000000002FB031F8
(1675526213.435821) vcan0 0B0#6B8316A3DFC16BA3
(1675526213.436838) vcan0 145#FDB2D480FC4810A1
(1675526213.436924) vcan0 290#0000000000000000
(1675526213.437075) vcan0 2A9#8C260093C0000084
(1675526213.437154) vcan0 2C0#6B8700FF0000A0F1
(1675526213.437230) vcan0 2C5#44DF797920E60070
(1675526213.439617) vcan0 1B0#00C0000002B000FC
(1675526213.440633) vcan0 1B5#FF3A7EB1E3E0FFEF
(1675526213.441648) vcan0 1D8#363339343234DD43
(1675526213.441799) vcan0 1E0#001C834300B917E0
(1675526213.441877) vcan0 2C3#6B8700FFFFA75450
(1675526213.442749) vcan0 008#CF80249FF0810080
(1675526213.443763) vcan0 010#000000002FB031F8
(1675526213.444913) vcan0 072#F000FF3F00848038
(1675526213.445948) vcan0 0E0#E27307C80080B400
(1675526213.446090) vcan0 1D0#0000000000000061
(1675526213.449728) vcan0 210#51E08020A869D145
(1675526213.450762) vcan0 0F5#CC89D9897F6F42CF
(1675526213.450865) vcan0 120#D089D5897F015689
(1675526213.450941) vcan0 125#E5817FE4C1D0D735
(1675526213.451836) vcan0 130#DF3F1ECD096D3712
(1675526213.451911) vcan0 150#D009E0B7DAF76AC0
(1675526213.454646) vcan0 008#CA8034A9DB810080
(1675526213.454650) vcan0 055#E1F79728B2549D80
(1675526213.454802) vcan0 065#36E697F80EAEA402
(1675526213.454879) vcan0 070#000024F8A4E23500
(1675526213.454956) vcan0 075#0000000000005458
(1675526213.455758) vcan0 080#8B518000C2002C00
(1675526213.455836) vcan0 0B0#6B8316A3DFC16BA3
(1675526213.455914) vcan0 010#000000002FB031F9
(1675526213.455991) vcan0 145#FDA2D580FC4810A1
(1675526213.456142) vcan0 28C#000000000012FEA8
(1675526213.456799) vcan0 260#D0FF00AA497487B0
(1675526213.456876) vcan0 291#0000000000000000
(1675526213.456962) vcan0 2B5#4B612D6293A694B5
(1675526213.457114) vcan0 330#2800000000000000
(1675526213.457843) vcan0 288#9FDF708F00000080
(1675526213.460663) vcan0 072#F000FF3F0084A038
(1675526213.460739) vcan0 360#6F8700D2BF66A001
(1675526213.460817) vcan0 1B0#00C0000004B000FC
(1675526213.460967) vcan0 1B5#FF4184B4E7E0FFEF
(1675526213.461695) vcan0 1D8#363339343234DD43
(1675526213.461845) vcan0 1E0#001C830300B917E0
(1675526213.462789) vcan0 008#C18044A2DB810080
(1675526213.463805) vcan0 290#0000000000000000
(1675526213.464890) vcan0 010#000000002FB031F8
(1675526213.465925) vcan0 1D0#0000000000000261
(1675526213.466000) vcan0 0E0#E27304D000809700
(1675526213.466141) vcan0 390#80FF051D020E5C4F
(1675526213.468408) vcan0 0F5#DE89ED897F7332D0
(1675526213.471164) vcan0 120#E689E7897F025689
(1675526213.471238) vcan0 125#E58C7FE4C1D0D735
(1675526213.471380) vcan0 130#E73C1EDA09503712
(1675526213.471455) vcan0 150#DF09E1C7DCF74BC0
(1675526213.472213) vcan0 3CA#00000000C00000C8
(1675526213.473315) vcan0 008#BC805497DB810080
(1675526213.474348) vcan0 055#E0F79628B2549D80
(1675526213.474422) vcan0 065#3EE696F80BAEA202
(1675526213.474497) vcan0 070#000024F8A3E23500
(1675526213.475513) vcan0 075#0000000000005458
(1675526213.475592) vcan0 080#89518000C2002C00
(1675526213.475669) vcan0 0B0#6B8316A3DFC16BA3
(1675526213.475747) vcan0 010#000000002FB031F8
(1675526213.475826) vcan0 072#F000FF3F00848038
(1675526213.476555) vcan0 145#FD92D680FC4810A1
(1675526213.477934) vcan0 210#51E080A0A869D14D
(1675526213.478021) vcan0 2A9#8C26008AC0000084
(1675526213.480912) vcan0 1B0#00C0000003B000FC
(1675526213.480991) vcan0 1B5#FF478BB7EAE0FFEF
(1675526213.481068) vcan0 1D8#363339343234DD43
(1675526213.481145) vcan0 1E0#0020734300B917E0
(1675526213.481947) vcan0 2C3#6B8700FFFFA75450
(1675526213.483035) vcan0 288#A3DF708F00000080
(1675526213.483113) vcan0 008#B88064A1C5810080
(1675526213.483193) vcan0 3C8#6B87008E886C008E
(1675526213.484136) vcan0 0E0#E27301D800807A00
(1675526213.485197) vcan0 260#D0FF00AA497487B0
(1675526213.486232) vcan0 581#FFFFFFFFFFFF0081
(1675526213.486375) vcan0 010#000000002FB031F8
(1675526213.487409) vcan0 1D0#0000000000000861
(1675526213.487484) vcan0 291#0000000000000000
(1675526213.487559) vcan0 400#0000000000030014
(1675526213.488601) vcan0 405#3233343638333212
(1675526213.491689) vcan0 0F5#F489F9897F7722D1
(1675526213.491763) vcan0 120#F789FA897FFF5589
(1675526213.491838) vcan0 125#E5977FE4C1D0D735
(1675526213.491980) vcan0 130#EF3C1EF109293C12
(1675526213.492054) vcan0 150#F009E3D7DEF72AC0
(1675526213.492128) vcan0 072#F000FF3F0084A038
(1675526213.492201) vcan0 3B0#00D8193837BCC400
(1675526213.492756) vcan0 008#B18074A6B7810080
(1675526213.493791) vcan0 055#E0F79628B2549D80
(1675526213.494865) vcan0 065#4AE695F80AAEA102
(1675526213.494943) vcan0 070#000025F8A2E23500
(1675526213.495021) vcan0 075#0000000000005458
(1675526213.495172) vcan0 080#87518000C2002C00
(1675526213.496044) vcan0 0B0#6B8316A3DFC16BA3
(1675526213.496122) vcan0 145#FD82D780FC4810A1
(1675526213.498809) vcan0 28C#000000000012FEA8
(1675526213.498885) vcan0 290#0000000000000000
(1675526213.498964) vcan0 2B5#4B622E6293A694B4
(1675526213.499042) vcan0 2C0#6B8700000100A0F1
(1675526213.499192) vcan0 2C5#44DF7B7A3AE60070
(1675526213.499270) vcan0 010#000000002FB031F8
(1675526213.499348) vcan0 340#7800000000000000
(1675526213.499425) vcan0 370#0720C000711BC71F
(1675526213.499504) vcan0 3AF#0000000000000020
(1675526213.499653) vcan0 3E0#000000D930808094
(1675526213.499876) vcan0 1B0#00C0000003B000FC
(1675526213.500964) vcan0 1B5#FF4E91BAEDE0FFEF
(1675526213.501043) vcan0 1D8#363339343234DD43
(1675526213.501119) vcan0 1E0#0024634300B917E0
(1675526213.501990) vcan0 210#51E080A0A869D14D
(1675526213.504872) vcan0 008#AF8084A0AF810080
(1675526213.505985) vcan0 010#000000002FB031F8
(1675526213.506129) vcan0 072#F000FF3F00808038
(1675526213.506203) vcan0 0E0#E27304E000805700
(1675526213.506277) vcan0 1D0#0000000000000061
(1675526213.507039) vcan0 288#ACDF708F00000080
(1675526213.508141) vcan0 0F5#018A098A7F7B12D2
(1675526213.509242) vcan0 120#FF89048A7FFF5589
(1675526213.510273) vcan0 125#E5A07FE4C1D0D735
(1675526213.511375) vcan0 130#F73C1EFA09103C12
(1675526213.511449) vcan0 150#FD09E6E7E0F70DC0
(1675526213.512687) vcan0 008#AA8094AA9A810080
(1675526213.512760) vcan0 350#A200000000000080
(1675526213.513725) vcan0 055#E0F79528B2529D80
(1675526213.516522) vcan0 065#53E694F809AEA102
(1675526213.516601) vcan0 070#000025F8A2E23500
(1675526213.516680) vcan0 075#0000000000005458
(1675526213.516768) vcan0 080#86518000C2002C00
(1675526213.516845) vcan0 0B0#6B8316A3DFC16BA3
(1675526213.516995) vcan0 145#FD72D880FC4810A1
(1675526213.517074) vcan0 010#000000002FB031F8
(1675526213.517151) vcan0 291#0000000000000000
(1675526213.517230) vcan0 260#D0FF00AA497487B0
(1675526213.517308) vcan0 2A9#8C260093C0000084
(1675526213.517602) vcan0 072#F000FF3F0080A038
(1675526213.518763) vcan0 1B0#00C0000003B000FC
(1675526213.519778) vcan0 1B5#FF5498BDF0E0FFEF
(1675526213.520794) vcan0 1D8#363339343234DD43
(1675526213.521883) vcan0 1E0#0024630300B917E0
(1675526213.524773) vcan0 2C3#6B8700FFFFA75450
(1675526213.524849) vcan0 008#A880A4C076810080
(1675526213.524922) vcan0 290#0000000000000000
(1675526213.525888) vcan0 010#000000002FB031F8
(1675526213.525971) vcan0 1D0#0000000000000061
(1675526213.526113) vcan0 0E0#E2730AE800803100
(1675526213.526187) vcan0 210#51E080A0A869D145
(1675526213.526947) vcan0 0F5#1B8A168A7F7F02D3
(1675526213.527980) vcan0 120#148A188A7FFF5589
(1675526213.529082) vcan0 125#E5A77FE4C1D0D735
(1675526213.530114) vcan0 130#FF3C1E100AE93C12
(1675526213.531217) vcan0 150#0F0AEAF7E2F7EAC0
(1675526213.532594) vcan0 288#B8DF708F00000080
(1675526213.532668) vcan0 008#A680B4CF59810080
(1675526213.535519) vcan0 055#E0F79428B2529D80
(1675526213.535599) vcan0 065#5CE694F808AEA102
(1675526213.535748) vcan0 070#000025F8A1E23500
(1675526213.535826) vcan0 075#0000000000005458
(1675526213.535904) vcan0 080#83518000C2002C00
(1675526213.535983) vcan0 0B0#6B8316A3DEC16BA3
(1675526213.536069) vcan0 010#000000002FB031F9
(1675526213.536147) vcan0 072#F000FF3F00808038
(1675526213.536587) vcan0 145#FD62D980FC4810A1
(1675526213.536666) vcan0 28C#000000000012FEA8
(1675526213.536814) vcan0 2B5#4B62306293A693B4
(1675526213.536892) vcan0 330#2800000000000000
(1675526213.537691) vcan0 1B0#00C0000004B000FC
(1675526213.538706) vcan0 1B5#FF5B9EC1F4E0FFEF
(1675526213.539795) vcan0 1D8#363339343234DD43
(1675526213.541172) vcan0 1E0#0028534300B917E0
(1675526213.542188) vcan0 008#A380C4E635810080
(1675526213.544784) vcan0 010#000000002FB031F8
(1675526213.545818) vcan0 1D0#0000000000000261
(1675526213.545893) vcan0 0E0#E2730DF000800E00
(1675526213.545966) vcan0 291#0000000000000000
(1675526213.546864) vcan0 260#D0FF0055497487B0
(1675526213.547910) vcan0 072#F000FF3F0080A038
(1675526213.548942) vcan0 210#51E080A0A869D145
(1675526213.550044) vcan0 0F5#268A238A7F43F2D3
(1675526213.551078) vcan0 120#228A238A7F005689
(1675526213.553755) vcan0 125#E5AD7FE4C1D0D735
(1675526213.553828) vcan0 130#873C1E1C0ACD3C12
(1675526213.553972) vcan0 150#190AEE07E4F7D0C0
(1675526213.554045) vcan0 008#9F80D4DA35810080
(1675526213.554119) vcan0 055#E0F79328B2509D80
(1675526213.554854) vcan0 065#63E694F808AEA002
(1675526213.554932) vcan0 070#000025F8A0E23500
(1675526213.555011) vcan0 075#0000000000005458
(1675526213.555088) vcan0 080#81518000C2002C00
(1675526213.557622) vcan0 0B0#6B8316A3DEC16BA3
(1675526213.557772) vcan0 010#000000002FB031F8
(1675526213.557850) vcan0 145#FD52DA80FC4810A1
(1675526213.557936) vcan0 290#0000000000000000
(1675526213.558014) vcan0 2A9#8C26008AC0000084
(1675526213.558091) vcan0 2C0#6B8700000100A0F1
(1675526213.558169) vcan0 2C5#45DF7F7A5EE60070
(1675526213.558320) vcan0 288#D5DF807F00000080
(1675526213.558687) vcan0 360#6F8700D2BF66A001
(1675526213.559773) vcan0 1B0#00C0000002B000FC
(1675526213.560791) vcan0 1B5#FF61A5C4F7E0FFEF
(1675526213.560941) vcan0 1D8#363339343234DD43
(1675526213.561885) vcan0 1E0#002C434300B917E0
(1675526213.561963) vcan0 2C3#6B8700FFFFA75450
(1675526213.562904) vcan0 008#9D80E4E918810080
(1675526213.565402) vcan0 010#000000002FB031F8
(1675526213.565475) vcan0 072#F000FF3F00808038
(1675526213.565551) vcan0 0E0#E2730BF80080F000
(1675526213.566447) vcan0 1D0#0000000000000861
(1675526213.566529) vcan0 390#80FF051D020A5D4F
(1675526213.568933) vcan0 0F5#348A378A7F47E2D4
(1675526213.570033) vcan0 120#418A308A7F015689
(1675526213.571068) vcan0 125#E5B37FE4C1D0D735
(1675526213.571141) vcan0 130#8F3C1E260AB33C12
(1675526213.571214) vcan0 150#250AF317E6F7B4C0
(1675526213.572110) vcan0 008#9A80F401F4800080
(1675526213.576381) vcan0 055#E0F79228B24E9D80
(1675526213.576533) vcan0 065#6CE693F807AE9F02
(1675526213.576611) vcan0 070#000025F89FE23500
(1675526213.576688) vcan0 075#0000000000005458
(1675526213.576768) vcan0 080#7E518000C2002C00
(1675526213.576845) vcan0 0B0#6B8316A3DEC16BA3
(1675526213.576923) vcan0 010#000000002FB031F8
(1675526213.577073) vcan0 145#FD42DB80FC4810A1
(1675526213.577149) vcan0 210#51E080A0A869D14D
(1675526213.577236) vcan0 260#D0FF0055497487B0
(1675526213.577313) vcan0 28C#000000000012FEA8
(1675526213.577392) vcan0 291#0000000000000000
(1675526213.577470) vcan0 2B5#4B63316293A692B3
(1675526213.577620) vcan0 340#7800000000000000
(1675526213.577698) vcan0 3D0#9A0F6100170480C3
(1675526213.578570) vcan0 072#F000FF3F0080A038
(1675526213.579586) vcan0 1B0#00C0000004B000FC
(1675526213.580674) vcan0 1B5#FF68ABC7FAE0FFEF
(1675526213.580751) vcan0 1D8#363339343234DD43
(1675526213.581695) vcan0 1E0#002C430300B917E0
(1675526213.582999) vcan0 288#C8DF807F00000080
(1675526213.583077) vcan0 008#98800401E6800080
(1675526213.584095) vcan0 290#0000000000000000
(1675526213.585230) vcan0 010#000000002FB031F8
(1675526213.586266) vcan0 1D0#0000000000000061
(1675526213.589033) vcan0 0E0#E27308C00080D300
(1675526213.590066) vcan0 0F5#3C8A458A7F4BD2D5
(1675526213.591169) vcan0 120#3C8A388A7F005689
(1675526213.591243) vcan0 125#E5B67FE4C1D0D735
(1675526213.591319) vcan0 130#973C1E350A943912
(1675526213.591393) vcan0 150#390AEF27E7F790C0
(1675526213.592221) vcan0 3CA#00000000D10000C8
(1675526213.593324) vcan0 008#96801402D7800080
(1675526213.594356) vcan0 055#E0F79128B24C9D80
(1675526213.595441) vcan0 065#76E693F80AAE9F02
(1675526213.595593) vcan0 070#000025F89DE23500
(1675526213.595671) vcan0 075#0000000000005458
(1675526213.598276) vcan0 080#7B518000C2002C00
(1675526213.598354) vcan0 0B0#6B8316A3DEC16BA3
(1675526213.598432) vcan0 010#000000002FB031F8
(1675526213.598510) vcan0 072#F000FF3F00808038
(1675526213.598596) vcan0 145#FD32DC80FC4810A1
(1675526213.598748) vcan0 2A9#8C260082C0000084
(1675526213.598825) vcan0 370#0720C000711BC71F
(1675526213.599339) vcan0 210#51E08020A869D145
(1675526213.600499) vcan0 1B0#00C0000002B000FC
(1675526213.601515) vcan0 1B5#FF6FB2CBFEE0FFEF
(1675526213.601593) vcan0 1D8#363339343234DD43
(1675526213.601670) vcan0 1E0#0030334300B917E0
(1675526213.604420) vcan0 2C3#6B8700FFFFA85450
(1675526213.604498) vcan0 3C8#6B87008E886C008E
(1675526213.604575) vcan0 008#9180240CC2800080
(1675526213.604655) vcan0 350#A200000000000080
(1675526213.605484) vcan0 010#000000002FB031F8
(1675526213.605559) vcan0 0E0#E27304C80080B700
(1675526213.606523) vcan0 1D0#0000000000000061
(1675526213.606597) vcan0 260#D0FF0055497487B0
(1675526213.606680) vcan0 291#0000000000000000
(1675526213.607645) vcan0 288#D9DF807F00000080
(1675526213.608679) vcan0 072#F000FF3F0080A038
(1675526213.609781) vcan0 3B0#00D8193837BCC400
(1675526213.610816) vcan0 0F5#418A4D8A7F4FC2D6
(1675526213.610889) vcan0 120#558A5B8A7FFF5589
(1675526213.610964) vcan0 125#E5BB7FE4C1D0D735
(1675526213.612134) vcan0 130#9F391E480A713912
(1675526213.612209) vcan0 150#410AF737E9F778C0
(1675526213.613241) vcan0 008#9180340BB3800080
(1675526213.616090) vcan0 055#E0F78F28B24A9D80
(1675526213.616169) vcan0 065#7FE692F809AE9E02
(1675526213.616246) vcan0 070#000025F89CE23500
(1675526213.616325) vcan0 075#0000000000005458
(1675526213.616401) vcan0 080#77518000C2002C00
(1675526213.616479) vcan0 0B0#6B8316A3DEC16BA3
(1675526213.616638) vcan0 010#000000002FB031F9
(1675526213.616716) vcan0 145#FD22DD80FC4810A1
(1675526213.616794) vcan0 28C#000000000012FEA9
(1675526213.616872) vcan0 290#0000000000000000
(1675526213.617167) vcan0 2B5#4B63336293A691B1
(1675526213.617246) vcan0 2C0#6B8700FF0000A0F1
(1675526213.617324) vcan0 2C5#45DF817A6EE60070
(1675526213.617401) vcan0 330#2800000000000000
(1675526213.617480) vcan0 3AF#0000000000000020
(1675526213.619506) vcan0 1B0#00C0000004B000FC
(1675526213.620523) vcan0 1B5#FF75B9CE01E0FFEF
(1675526213.621610) vcan0 1D8#363339343234DD43
(1675526213.621689) vcan0 1E0#0034234300B917E0
(1675526213.622631) vcan0 008#8F8044FDB3800080
