(1675525484.967407) vcan0 1B0#00C0000001B000FC
(1675525484.967808) vcan0 1B5#FF5203F602E0FFEF
(1675525484.967880) vcan0 1D8#363339343234E043
(1675525484.967976) vcan0 1E0#0028530300B917E0
(1675525484.968121) vcan0 28C#00000000002EFEA4
(1675525484.968194) vcan0 2B5#4B3D1B6293A66A4D
(1675525484.968956) vcan0 2C3#669C00FFFF425450
(1675525484.970062) vcan0 010#000000002FB031F8
(1675525484.972878) vcan0 1D0#0000000000000061
(1675525484.972953) vcan0 291#0000000000000000
(1675525484.973097) vcan0 0E0#62730DC80080AE00
(1675525484.973927) vcan0 260#D0FF0055497487B0
(1675525484.975006) vcan0 008#0D80FCD032800080
(1675525484.975084) vcan0 290#0000000000000000
(1675525484.976177) vcan0 072#F000FF3F00788038
(1675525484.976255) vcan0 0F5#CDA0C8A07F6762C3
(1675525484.976331) vcan0 120#FAA0FAA07F035689
(1675525484.977205) vcan0 130#CFFF1DFA2049FD11
(1675525484.977355) vcan0 150#CA20179815F879C0
(1675525484.977442) vcan0 288#3BE000FF00000080
(1675525484.977521) vcan0 125#E53280E4C1D0D735
(1675525484.979694) vcan0 010#000000002FB031F9
(1675525484.980785) vcan0 2A9#8C26008AC0000084
(1675525484.984694) vcan0 008#0D800CC032800080
(1675525484.985741) vcan0 210#05E080A0BC69BB4D
(1675525484.985884) vcan0 055#F8F70928B27D9C80
(1675525484.985957) vcan0 065#24E50AF802EE3002
(1675525484.986926) vcan0 070#000005F830E20D00
(1675525484.987000) vcan0 075#0000000000005458
(1675525484.987144) vcan0 080#1B508000C2002C00
(1675525484.987218) vcan0 0B0#528303A3E3C152A3
(1675525484.987978) vcan0 145#F9D2D280FC4810A1
(1675525484.988122) vcan0 1B0#00C0000002B000FC
(1675525484.988197) vcan0 1B5#FF6718010CE0FFEF
(1675525484.988271) vcan0 1D8#363339343234E043
(1675525484.988355) vcan0 1E0#002C434300B917E0
(1675525484.989048) vcan0 010#000000002FB031F8
(1675525484.990154) vcan0 072#F000FF3F0078A038
(1675525484.991465) vcan0 1D0#0000000000000A61
(1675525484.992640) vcan0 0E0#62730ED000808D00
(1675525484.995441) vcan0 008#0D801CA240800080
(1675525484.996532) vcan0 0F5#D0A0D6A07F6B52C5
(1675525484.996610) vcan0 120#02A1EEA07F025689
(1675525484.996688) vcan0 130#D7FF1DFA2039F711
(1675525484.996767) vcan0 150#D3200FA814F860C0
(1675525484.997567) vcan0 3CA#00000000550000C8
(1675525484.997644) vcan0 125#E52F80E4C1D0D735
(1675525484.998662) vcan0 010#000000002FB031F8
(1675525484.999680) vcan0 291#0000000000000000
(1675525485.000768) vcan0 288#33E000FF00000080
(1675525485.001856) vcan0 260#D0FF0055497487B0
(1675525485.004256) vcan0 072#F000FF3F00788038
(1675525485.007037) vcan0 008#0D802C9240800080
(1675525485.007110) vcan0 055#F8F70928B27B9C80
(1675525485.007254) vcan0 065#24E50AF800EE3002
(1675525485.007327) vcan0 070#000005F82FE20D00
(1675525485.007404) vcan0 075#0000000000005458
(1675525485.007478) vcan0 080#1B508000C2002C00
(1675525485.007620) vcan0 0B0#528303A3E3C152A3
(1675525485.007693) vcan0 145#F9C2D380FC4810A1
(1675525485.007768) vcan0 1B0#00C0000003B000FC
(1675525485.007843) vcan0 1B5#FF7C2E0B17E0FFEF
(1675525485.008123) vcan0 1D8#363339343234E043
(1675525485.008267) vcan0 1E0#0030334300B917E0
(1675525485.008342) vcan0 28C#00000000002EFEA4
(1675525485.008414) vcan0 290#0000000000000000
(1675525485.009106) vcan0 2B5#4B3D1B6293A66A4D
(1675525485.012073) vcan0 2C0#669C00010000A0F1
(1675525485.012146) vcan0 2C3#669C00FFFF435450
(1675525485.012220) vcan0 2C5#17E767EB23E50070
(1675525485.012294) vcan0 340#8000000000000000
(1675525485.012435) vcan0 370#0727C0007603CB1F
(1675525485.012511) vcan0 3AF#0000000000000020
(1675525485.012586) vcan0 3E0#000000D934808092
(1675525485.012660) vcan0 010#000000002FB031F8
(1675525485.012804) vcan0 1D0#0000000000000061
(1675525485.012877) vcan0 210#05E080A0BC69BB45
(1675525485.012950) vcan0 0E0#62730ED800806D00
(1675525485.013164) vcan0 008#0F803C8040800080
(1675525485.014200) vcan0 0F5#C8A0D0A07F6F42C8
(1675525485.015289) vcan0 120#03A1F1A07F025689
(1675525485.016309) vcan0 130#DFFF1DFA2029FA11
(1675525485.017684) vcan0 150#CC200FB812F857C0
(1675525485.017770) vcan0 125#E52F80E4C1D0D735
(1675525485.018717) vcan0 010#000000002FB031F8
(1675525485.019807) vcan0 072#F000FF3F0078A038
(1675525485.020898) vcan0 2A9#8C260093C0000084
(1675525485.023574) vcan0 350#A200000000000080
(1675525485.024665) vcan0 008#12804C5E4F800080
(1675525485.025728) vcan0 055#F8F70928B27B9C80
(1675525485.025872) vcan0 065#22E509F8FEED2E02
(1675525485.025946) vcan0 070#000005F82FE20D00
(1675525485.026019) vcan0 075#0000000000005458
(1675525485.026850) vcan0 080#1B508000C2002C00
(1675525485.026923) vcan0 0B0#528303A3E3C152A3
(1675525485.026998) vcan0 145#F9B2D480FC4810A1
(1675525485.027073) vcan0 1B0#00C0000004B000FC
(1675525485.027901) vcan0 1B5#FF92431622E0FFEF
(1675525485.027976) vcan0 1D8#363339343234E043
(1675525485.028059) vcan0 1E0#0030330300B917E0
(1675525485.028203) vcan0 288#43E000FF00000080
(1675525485.028965) vcan0 010#000000002FB031F8
(1675525485.031440) vcan0 1D0#0000000000000061
(1675525485.031513) vcan0 291#0000000000000000
(1675525485.032549) vcan0 0E0#627309E000805200
(1675525485.035381) vcan0 260#D0FF00AA497487B0
(1675525485.035457) vcan0 008#14805C4556800080
(1675525485.035530) vcan0 072#F000FF3F00788038
(1675525485.035604) vcan0 210#05E08020BC69BB4D
(1675525485.036434) vcan0 290#0000000000000000
(1675525485.036507) vcan0 3B0#00D86C387CB0C400
(1675525485.036651) vcan0 0F5#CFA0CAA07F7332CB
(1675525485.036725) vcan0 120#28A1F4A07FFF5589
(1675525485.036798) vcan0 130#E7FF1DFA2019FA11
(1675525485.037493) vcan0 150#CC2015C811F847C0
(1675525485.037576) vcan0 3C8#669C008E882C008E
(1675525485.037717) vcan0 125#E52F80E4C1D0D735
(1675525485.038548) vcan0 010#000000002FB031F8
(1675525485.039652) vcan0 330#2800000000000000
(1675525485.042127) vcan0 360#6D9C00D3B343A001
(1675525485.044863) vcan0 008#14806C3556800080
(1675525485.045956) vcan0 055#F8F70928B2799C80
(1675525485.046034) vcan0 065#1EE509F8FDED2E02
(1675525485.046110) vcan0 070#000005F82EE20D00
(1675525485.046189) vcan0 075#0000000000005458
(1675525485.046990) vcan0 080#1A508000C2002C00
(1675525485.047140) vcan0 0B0#528303A3E3C152A3
(1675525485.047218) vcan0 145#F9A2D580FC4810A1
(1675525485.047297) vcan0 1B0#00C0000001B000FC
(1675525485.047374) vcan0 1B5#FFA758202CE0FFEF
(1675525485.048104) vcan0 1D8#363339343234E043
(1675525485.048189) vcan0 1E0#0034234300B917E0
(1675525485.048268) vcan0 28C#00000000002EFEA4
(1675525485.048344) vcan0 2B5#4B3D1B6293A66B4B
(1675525485.048494) vcan0 2C3#669C00FFFF435450
(1675525485.050664) vcan0 010#000000002FB031F8
(1675525485.050744) vcan0 072#F000FF3F0078A038
(1675525485.050895) vcan0 1D0#0000000000000061
(1675525485.051765) vcan0 390#80FF05000222574F
(1675525485.051845) vcan0 288#3BE010EF00000080
(1675525485.052934) vcan0 0E0#627303E800803800
(1675525485.055797) vcan0 008#16807C2A4F800080
(1675525485.055871) vcan0 0F5#D0A0CFA07F7722CD
(1675525485.056841) vcan0 120#EDA0F7A07FFF5589
(1675525485.056914) vcan0 130#EFFF1DF7200CF711
(1675525485.056989) vcan0 150#CF2011D810F834C0
(1675525485.057887) vcan0 125#E52C80E4C1D0D735
(1675525485.059000) vcan0 010#000000002FB031F9
(1675525485.060104) vcan0 210#05E080A0BC69BB4D
(1675525485.061209) vcan0 291#0000000000000000
(1675525485.061282) vcan0 2A9#8C26008AC0000084
(1675525485.062249) vcan0 260#D0FF00AA497487B0
(1675525485.064976) vcan0 008#19808C095D800080
(1675525485.065123) vcan0 072#F000FF3F00788038
(1675525485.066087) vcan0 055#F8F70928B2799C80
(1675525485.066161) vcan0 065#1FE509F8FFED2E02
(1675525485.066234) vcan0 070#000005F82EE20D00
(1675525485.066378) vcan0 075#0000000000005458
(1675525485.068922) vcan0 080#1A508000C2002C00
(1675525485.068996) vcan0 0B0#528302A3E3C152A3
(1675525485.069071) vcan0 145#F992D680FC4810A1
(1675525485.069215) vcan0 1B0#00C0000003B000FC
(1675525485.069288) vcan0 1B5#FFBC6E2B37E0FFEF
(1675525485.069370) vcan0 1D8#363339343234E043
(1675525485.069446) vcan0 1E0#0038134300B917E0
(1675525485.069589) vcan0 290#0000000000000000
(1675525485.069660) vcan0 2C0#669C00010000A0F1
(1675525485.069735) vcan0 2C5#16E767EB1EE50070
(1675525485.070564) vcan0 010#000000002FB031F8
(1675525485.071601) vcan0 1D0#0000000000000A61
(1675525485.072637) vcan0 0E0#627300F000801B00
(1675525485.073739) vcan0 008#19809C074F800080
(1675525485.074855) vcan0 0F5#D3A0DAA07F7B12D0
(1675525485.075948) vcan0 120#FDA0E2A07F025689
(1675525485.077038) vcan0 130#F7FF1DF420FFF711
(1675525485.077116) vcan0 150#D6200FE80FF81DC0
(1675525485.077195) vcan0 288#33E010EF00000080
(1675525485.077273) vcan0 125#E52980E4C1D0D735
(1675525485.079518) vcan0 010#000000002FB031F8
(1675525485.082424) vcan0 072#F000FF3F0078A038
(1675525485.083444) vcan0 008#1B80ACE064800080
(1675525485.084530) vcan0 210#05E080A0BC69BC45
(1675525485.085584) vcan0 055#F8F70928B2789C80
(1675525485.085727) vcan0 065#23E509F802EE2E02
(1675525485.086695) vcan0 070#000005F82DE20D00
(1675525485.086768) vcan0 075#0000000000005458
(1675525485.086842) vcan0 080#1A508000C2002C00
(1675525485.086917) vcan0 0B0#528303A3E3C152A3
(1675525485.087061) vcan0 145#F982D780FC4810A1
(1675525485.087822) vcan0 1B0#00C0000003B000FC
(1675525485.087896) vcan0 1B5#FFD2833641E0FFEF
(1675525485.088040) vcan0 1D8#363339343234E043
(1675525485.088114) vcan0 1E0#0038130300B917E0
(1675525485.088874) vcan0 28C#00000000002EFEA4
(1675525485.091766) vcan0 2B5#4B3E1B6293A66B4B
(1675525485.091851) vcan0 2C3#669C00FFFF445450
(1675525485.091926) vcan0 340#8000000000000000
(1675525485.091999) vcan0 010#000000002FB031F8
(1675525485.092144) vcan0 1D0#0000000000000061
(1675525485.092217) vcan0 291#0000000000000000
(1675525485.092292) vcan0 0E0#E27301F80080FA00
(1675525485.092846) vcan0 260#D0FF00AA497487B0
(1675525485.093883) vcan0 072#F000FF3F00788038
(1675525485.095006) vcan0 008#1D80BCCE64800080
(1675525485.096023) vcan0 290#0000000000000000
(1675525485.096173) vcan0 0F5#BFA0C1A07F7F02D3
(1675525485.098923) vcan0 120#EEA0E9A07F025689
(1675525485.099001) vcan0 130#FFFF1DEE20F5F711
(1675525485.099079) vcan0 150#C02011F80EF823C0
(1675525485.099158) vcan0 125#E52780E4C1D0D735
(1675525485.099957) vcan0 010#000000002FB031F8
(1675525485.101058) vcan0 2A9#8C260093C0000084
(1675525485.102073) vcan0 288#33E010EF00000080
(1675525485.103165) vcan0 008#1D80CCBE64800080
(1675525485.104179) vcan0 055#F8F70928B2789C80
(1675525485.105252) vcan0 065#24E509F800EE2E02
(1675525485.106359) vcan0 070#000005F82DE20D00
(1675525485.109249) vcan0 075#0000000000005458
(1675525485.109324) vcan0 080#19508000C2002C00
(1675525485.109466) vcan0 0B0#528303A3E3C152A3
(1675525485.109540) vcan0 145#F972D880FC4810A1
(1675525485.109616) vcan0 1B0#00C0000004B000FC
(1675525485.109689) vcan0 1B5#FFE798404CE0FFEF
(1675525485.109832) vcan0 1D8#363339343234E043
(1675525485.109905) vcan0 1E0#003C034300B917E0
(1675525485.109980) vcan0 370#0727C0007603CB1F
(1675525485.110330) vcan0 010#000000002FB031F8
(1675525485.111389) vcan0 072#F000FF3F0078A038
(1675525485.111533) vcan0 1D0#0000000000000061
(1675525485.111608) vcan0 210#05E080A0BC69BB4D
(1675525485.112506) vcan0 0E0#E27306C00080D500
(1675525485.115441) vcan0 350#A200000000000080
(1675525485.115520) vcan0 008#1F80DC9D73800080
(1675525485.116466) vcan0 0F5#BEA0B9A07F43F2D5
(1675525485.116545) vcan0 120#26A1FDA07FFF5589
(1675525485.116695) vcan0 130#87FD1DEE20E5F711
(1675525485.116773) vcan0 150#BB200F080DF818C0
(1675525485.117574) vcan0 3CA#00000000560000C8
(1675525485.117652) vcan0 125#E52480E4C1D0D735
(1675525485.118597) vcan0 010#000000002FB031F8
(1675525485.119687) vcan0 291#0000000000000000
(1675525485.120780) vcan0 330#2800000000000000
(1675525485.121796) vcan0 425#0000000000000000
(1675525485.122897) vcan0 260#D0FF00AA497487B0
(1675525485.125338) vcan0 072#F000FF3F00788038
(1675525485.128089) vcan0 008#2280EC8A73800080
(1675525485.128164) vcan0 055#F8F70928B2789C80
(1675525485.128308) vcan0 065#23E509F800EE2D02
(1675525485.128382) vcan0 070#000005F82DE20D00
(1675525485.128457) vcan0 075#0000000000005458
(1675525485.128530) vcan0 080#19508000C2002C00
(1675525485.128675) vcan0 0B0#528303A3E3C152A3
(1675525485.128749) vcan0 145#F962D980FC4810A1
(1675525485.128822) vcan0 1B0#00C0000001B000FC
(1675525485.128896) vcan0 1B5#FFFCAE4B57E0FFEF
(1675525485.129040) vcan0 1D8#363339343234E043
(1675525485.129114) vcan0 1E0#0000F34300B917E0
(1675525485.129188) vcan0 288#2BE010EF00000080
(1675525485.129263) vcan0 28C#00000000002EFEA4
(1675525485.129346) vcan0 290#0000000000000000
(1675525485.131137) vcan0 2B5#4B3E1B6293A66B49
(1675525485.131281) vcan0 2C0#669C00000000A0F1
(1675525485.131354) vcan0 2C3#669C00FFFF445450
(1675525485.131428) vcan0 2C5#15E767EB24E50070
(1675525485.131504) vcan0 3AF#0000000000000020
(1675525485.131577) vcan0 010#000000002FB031F8
(1675525485.131722) vcan0 1D0#0000000000000061
(1675525485.132206) vcan0 0E0#E27310C80080AB00
(1675525485.133313) vcan0 210#07E080A0BC69BB45
(1675525485.134349) vcan0 008#2480FC7873800080
(1675525485.135440) vcan0 0F5#BBA0B9A07F47E2D8
(1675525485.136605) vcan0 120#F1A0E8A07FFC5589
(1675525485.136684) vcan0 130#8FFF1DEE20D5F711
(1675525485.136761) vcan0 150#BA200D180DF809C0
(1675525485.137636) vcan0 125#E52180E4C1D0D735
(1675525485.140106) vcan0 010#000000002FB031F9
(1675525485.141194) vcan0 072#F000FF3F0078A038
(1675525485.144019) vcan0 2A9#8C26008AC0000084
(1675525485.145103) vcan0 360#6D9C00D3B343A001
(1675525485.145179) vcan0 008#26800C5881800080
(1675525485.146146) vcan0 1B0#00C0000001B000FC
(1675525485.146286) vcan0 055#F8F70928B2769C80
(1675525485.146362) vcan0 065#22E509F800EE2C02
(1675525485.147329) vcan0 070#000005F82CE20D00
(1675525485.147404) vcan0 075#0000000000005458
(1675525485.147477) vcan0 080#19508000C2002C00
(1675525485.147621) vcan0 0B0#528303A3E3C152A3
(1675525485.147694) vcan0 145#F952DA80FC4810A1
(1675525485.148387) vcan0 1B5#FF12C35561E0FFEF
(1675525485.148461) vcan0 1D8#363339343234E043
(1675525485.148606) vcan0 1E0#0000F30300B917E0
(1675525485.149442) vcan0 010#000000002FB031F8
(1675525485.152332) vcan0 1D0#0000000000000A61
(1675525485.152405) vcan0 291#0000000000000000
(1675525485.152480) vcan0 390#80FF0500021E584F
(1675525485.152554) vcan0 288#37E020DF00000080
(1675525485.152698) vcan0 0E0#E27316D000808500
(1675525485.153390) vcan0 260#D0FF0055497487B0
(1675525485.154426) vcan0 072#F000FF3F00788038
(1675525485.155511) vcan0 008#2B801C358F800080
(1675525485.155590) vcan0 3B0#00D86C387CB0C402
(1675525485.155668) vcan0 290#0000000000000000
(1675525485.156611) vcan0 0F5#CDA0D3A07F4BD2DB
(1675525485.159508) vcan0 120#EBA0F0A07F015689
(1675525485.159587) vcan0 130#97FF1DED20C6F711
(1675525485.159665) vcan0 150#D02011280CF8E3C0
(1675525485.159815) vcan0 3C8#669C008E882C008E
(1675525485.159900) vcan0 125#E51E80E4C1D0D735
(1675525485.160555) vcan0 010#000000002FB031F8
(1675525485.160706) vcan0 210#07E080A0BC69BB45
(1675525485.161723) vcan0 3D0#960F6100D11480C3
(1675525485.162811) vcan0 008#2B802C3381800080
(1675525485.163901) vcan0 055#F8F70928B2769C80
(1675525485.164989) vcan0 065#23E509F800EE2C02
(1675525485.166094) vcan0 070#000005F82CE20D00
(1675525485.166167) vcan0 075#0000000000005458
(1675525485.168916) vcan0 080#19508000C2002C00
(1675525485.168989) vcan0 0B0#528303A3E3C152A3
(1675525485.169064) vcan0 145#F942DB80FC4810A1
(1675525485.169139) vcan0 1B0#00C0000004B000FC
(1675525485.169282) vcan0 1B5#FF27D8606CE0FFEF
(1675525485.169356) vcan0 1D8#363339343234E043
(1675525485.169430) vcan0 1E0#0004E34300B917E0
(1675525485.169513) vcan0 28C#00000000002EFEA4
(1675525485.169655) vcan0 2B5#4B3E1B6293A66B49
(1675525485.169730) vcan0 2C3#669C00FFFF455450
(1675525485.169804) vcan0 340#8000000000000000
(1675525485.169880) vcan0 430#2808280000002DC6
(1675525485.169955) vcan0 010#000000002FB031F8
(1675525485.171060) vcan0 072#F000FF3F0078A038
(1675525485.172094) vcan0 1D0#0000000000000061
(1675525485.175007) vcan0 400#0203010202010222
(1675525485.175084) vcan0 405#6D9C003B00333A02
(1675525485.175163) vcan0 0E0#E2731CD800805F00
(1675525485.175239) vcan0 008#2F803CFBA5800080
(1675525485.176114) vcan0 0F5#BFA0C1A07F4FC2DD
(1675525485.176263) vcan0 120#F4A0DAA07FFD5589
(1675525485.177208) vcan0 130#9FFF1DED20B6FD11
(1675525485.177287) vcan0 150#C0200F380BF8E3C0
(1675525485.177374) vcan0 288#3BE020DF00000080
(1675525485.177451) vcan0 125#E51980E4C1D0D735
(1675525485.178251) vcan0 010#000000002FB031F8
(1675525485.179340) vcan0 291#0000000000000000
(1675525485.180431) vcan0 2A9#8C260093C0000084
(1675525485.182893) vcan0 260#D0FF0055497487B0
(1675525485.185605) vcan0 008#32804CEF9E800080
(1675525485.185749) vcan0 055#F8F70828B2769C80
(1675525485.185822) vcan0 065#22E509F800EE2C02
(1675525485.185896) vcan0 070#000005F82BE20D00
(1675525485.186725) vcan0 072#F000FF3F00788038
(1675525485.186799) vcan0 075#0000000000005458
(1675525485.186873) vcan0 080#18508000C2002C00
(1675525485.186946) vcan0 0B0#528303A3E3C152A3
(1675525485.187090) vcan0 145#F932DC80FC4810A1
(1675525485.187782) vcan0 1B0#00C0000003B000FC
(1675525485.187865) vcan0 1B5#FF3CED6B76E0FFEF
(1675525485.187939) vcan0 1D8#363339343234E043
(1675525485.188015) vcan0 1E0#0008D34300B917E0
(1675525485.188843) vcan0 210#07E08020BC69BB4D
(1675525485.188919) vcan0 290#0000000000000000
(1675525485.191804) vcan0 2C0#669C00000000A0F1
(1675525485.191877) vcan0 2C5#14E767EB23E50070
(1675525485.191951) vcan0 010#000000002FB031F8
(1675525485.192025) vcan0 1D0#0000000000000061
(1675525485.192168) vcan0 0E0#E27320E000803B00
(1675525485.192860) vcan0 008#34805CD6A5800080
(1675525485.193897) vcan0 0F5#C4A0C7A07F53B2E0
(1675525485.194998) vcan0 120#12A1EBA07FFC5589
(1675525485.196035) vcan0 130#A7FF1DED20A6FF11
(1675525485.197072) vcan0 150#C52013480AF8CEC0
(1675525485.197213) vcan0 125#E51680E4C1D0D735
(1675525485.199565) vcan0 010#000000002FB031F8
(1675525485.200672) vcan0 072#F000FF3F0078A038
(1675525485.200745) vcan0 330#2800000000000000
(1675525485.203495) vcan0 288#37E020DF00000080
(1675525485.203568) vcan0 350#A200000000000080
(1675525485.204536) vcan0 008#36806CA7C2800080
(1675525485.205656) vcan0 055#F8F70828B2769C80
(1675525485.205731) vcan0 065#1DE509F8FDED2B02
(1675525485.205804) vcan0 070#000005F82BE20D00
(1675525485.206703) vcan0 075#0000000000005458
(1675525485.206777) vcan0 080#18508000C2002C00
(1675525485.206851) vcan0 0B0#528303A3E3C152A3
(1675525485.206994) vcan0 145#F922DD80FC4810A1
(1675525485.207068) vcan0 1B0#00C0000004B000FC
(1675525485.207760) vcan0 1B5#FF52037581E0FFEF
(1675525485.207835) vcan0 1D8#363339343234E043
(1675525485.207919) vcan0 1E0#0008D30300B917E0
(1675525485.208061) vcan0 28C#00000000002EFEA4
(1675525485.209304) vcan0 2B5#4B3E1B6293A66B48
(1675525485.209376) vcan0 2C3#669C00FFFF455450
(1675525485.209452) vcan0 370#0726C0007603CB1F
(1675525485.210350) vcan0 010#000000002FB031F8
(1675525485.211456) vcan0 1D0#0000000000000061
(1675525485.211529) vcan0 210#07E080A0BC69BB45
(1675525485.211603) vcan0 291#0000000000000000
(1675525485.212503) vcan0 0E0#E27326E800801500
(1675525485.215228) vcan0 260#D0FF0055497487B0
(1675525485.215307) vcan0 008#3B807C92C2800080
(1675525485.215457) vcan0 072#F000FF3F00788038
(1675525485.215535) vcan0 290#0000000000000000
(1675525485.216336) vcan0 0F5#B7A0BFA07F57A2E3
(1675525485.216414) vcan0 120#EEA0DCA07FFF5589
(1675525485.216501) vcan0 130#AFFD1DED2096FF11
(1675525485.217375) vcan0 150#BB20115809F8C8C0
(1675525485.217453) vcan0 125#E51180E4C1D0D735
(1675525485.218469) vcan0 010#000000002FB031F9
(1675525485.219632) vcan0 2A9#8C26008AC0000084
(1675525485.223319) vcan0 008#3D808C79C9800080
(1675525485.224407) vcan0 055#F8F70828B2769C80
(1675525485.225470) vcan0 065#1DE509F8FFED2C02
(1675525485.226504) vcan0 070#000005F82BE20D00
(1675525485.226579) vcan0 075#0000000000005458
(1675525485.226721) vcan0 080#18508000C2002C00
(1675525485.229473) vcan0 0B0#528302A3E3C152A3
(1675525485.229547) vcan0 145#F912DE80FC4810A1
(1675525485.229621) vcan0 1B0#00C0000002B000FC
(1675525485.229695) vcan0 1B5#FF6718808CE0FFEF
(1675525485.229837) vcan0 1D8#363339343234E043
(1675525485.229919) vcan0 1E0#000CC34300B917E0
(1675525485.229993) vcan0 288#3BE020DF00000080
(1675525485.230412) vcan0 010#000000002FB031F8
(1675525485.230554) vcan0 072#F000FF3F0078A038
(1675525485.231521) vcan0 1D0#0000000000000A61
(1675525485.232556) vcan0 0E0#E27327F00080F400
(1675525485.233591) vcan0 008#3D809C70C2800080
(1675525485.234697) vcan0 210#07E080A0BC69BB4D
(1675525485.235799) vcan0 0F5#C8A0C7A07F5B92E5
(1675525485.236745) vcan0 120#E9A0E5A07FFF5589
(1675525485.238195) vcan0 130#B7FD1DE9208AFD11
(1675525485.238273) vcan0 150#C720126808F8ACC0
(1675525485.238351) vcan0 3CA#00000000400000C8
(1675525485.238430) vcan0 125#E50B80E4C1D0D735
(1675525485.241108) vcan0 010#000000002FB031F8
(1675525485.241187) vcan0 291#0000000000000000
(1675525485.242141) vcan0 260#D0FF00AA497487B0
(1675525485.243230) vcan0 072#F000FF3F00788038
(1675525485.244319) vcan0 008#4180AC5CC2800080
(1675525485.245386) vcan0 360#6D9C00D3B343A001
(1675525485.245461) vcan0 055#F8F70828B2749C80
(1675525485.246427) vcan0 065#21E509F801EE2B02
(1675525485.246503) vcan0 070#000005F82BE20D00
(1675525485.246576) vcan0 075#0000000000005458
(1675525485.246720) vcan0 080#18508000C2002C00
(1675525485.247411) vcan0 0B0#528302A3E3C152A3
(1675525485.247486) vcan0 145#F902DF80FC4810A1
(1675525485.247560) vcan0 1B0#00C0000003B000FC
(1675525485.247704) vcan0 1B5#FF7C2D8A96E0FFEF
(1675525485.250247) vcan0 1D8#363339343234E043
(1675525485.250321) vcan0 1E0#0010B34300B917E0
(1675525485.250466) vcan0 28C#00000000002EFEA4
(1675525485.250562) vcan0 290#0000000000000000
(1675525485.250637) vcan0 2B5#4B3E1B6293A66B48
(1675525485.250712) vcan0 2C0#669C00000000A0F1
(1675525485.250786) vcan0 2C3#669C00FFFF465450
(1675525485.250861) vcan0 2C5#13E767EB1DE50070
(1675525485.251004) vcan0 340#8000000000000000
(1675525485.251077) vcan0 3AF#0000000000000020
(1675525485.251152) vcan0 010#000000002FB031F8
(1675525485.251364) vcan0 1D0#0000000000000061
(1675525485.251438) vcan0 390#80FF0500021A594F
(1675525485.252404) vcan0 288#12E030CF00000080
(1675525485.252479) vcan0 0E0#E27328F80080D300
(1675525485.255287) vcan0 008#4480BC66A5800080
(1675525485.256303) vcan0 0F5#B3A0B3A07F5F82E8
(1675525485.256380) vcan0 120#EEA0CDA07FFE5589
(1675525485.256531) vcan0 130#BFFD1DE9207AFD11
(1675525485.257411) vcan0 150#B320087806F8B0C0
(1675525485.257490) vcan0 125#E50880E4C1D0D735
(1675525485.258436) vcan0 010#000000002FB031F8
(1675525485.259523) vcan0 072#F000FF3F0078A038
(1675525485.260467) vcan0 210#07E080A0BC69BB4D
(1675525485.261558) vcan0 2A9#8C260082C0000084
(1675525485.263947) vcan0 008#4480CC48B3800080
(1675525485.266751) vcan0 055#F8F70828B2749C80
(1675525485.266894) vcan0 065#24E508F801EE2B02
(1675525485.266968) vcan0 070#000005F82AE20D00
(1675525485.267042) vcan0 075#0000000000005458
(1675525485.267114) vcan0 080#18508000C2002C00
(1675525485.267260) vcan0 0B0#528303A3E3C152A3
(1675525485.267334) vcan0 145#F9F2D080FC4810A1
(1675525485.267408) vcan0 1B0#00C0000003B000FC
(1675525485.267895) vcan0 1B5#FF924395A1E0FFEF
(1675525485.267986) vcan0 1D8#363339343234E043
(1675525485.268061) vcan0 1E0#0010B30300B917E0
(1675525485.268960) vcan0 010#000000002FB031F8
(1675525485.269927) vcan0 1D0#0000000000000061
(1675525485.272747) vcan0 291#0000000000000000
(1675525485.272820) vcan0 0E0#E27327C00080B400
(1675525485.273786) vcan0 260#D0FF00AA497487B0
(1675525485.274850) vcan0 008#4480DC5C8F800080
(1675525485.275943) vcan0 290#0000000000000000
(1675525485.276021) vcan0 072#F000FF3F00788038
(1675525485.276099) vcan0 0F5#ADA0B0A07F6372EB
(1675525485.277043) vcan0 120#FDA0EEA07FFD5589
(1675525485.277120) vcan0 130#C7FD1DE9206AFD11
(1675525485.277199) vcan0 150#AE200B8805F8A5C0
(1675525485.277277) vcan0 288#22E030CF00000080
(1675525485.278077) vcan0 125#E50580E4C1D0D735
(1675525485.278162) vcan0 3B0#00D86C387CB0C400
(1675525485.279396) vcan0 3C8#669C008E882C008E
(1675525485.280486) vcan0 010#000000002FB031F8
(1675525485.281576) vcan0 330#2800000000000000
(1675525485.285456) vcan0 008#4680EC4297800080
(1675525485.285531) vcan0 210#07E080A0BC69BB45
(1675525485.285605) vcan0 055#F8F70828B2749C80
(1675525485.285747) vcan0 065#22E508F800EE2A02
(1675525485.286508) vcan0 070#000005F82AE20D00
(1675525485.286583) vcan0 075#0000000000005458
(1675525485.286726) vcan0 080#18508000C2002C00
(1675525485.286802) vcan0 0B0#528303A3E3C152A3
(1675525485.287561) vcan0 145#F9E2D180FC4810A1
(1675525485.287706) vcan0 1B0#00C0000001B000FC
(1675525485.287780) vcan0 1B5#FFA758A0ABE0FFEF
(1675525485.287854) vcan0 1D8#363339343234E043
(1675525485.287936) vcan0 1E0#0014A34300B917E0
(1675525485.288699) vcan0 28C#00000000002EFEA4
(1675525485.288773) vcan0 2B5#4B3E1B6293A66B47
(1675525485.291523) vcan0 2C3#669C00FFFF465450
(1675525485.291596) vcan0 010#000000002FB031F8
(1675525485.291670) vcan0 072#F000FF3F0078A038
(1675525485.291814) vcan0 1D0#0000000000000061
(1675525485.292574) vcan0 0E0#E2732BC800809000
(1675525485.293610) vcan0 350#A200000000000080
(1675525485.294782) vcan0 008#4680FC3A8F800080
(1675525485.295877) vcan0 0F5#A7A0ACA07F6762ED
(1675525485.296895) vcan0 120#FAA0E8A07FFD5589
(1675525485.297044) vcan0 130#CFFF1DE9205AFD11
(1675525485.297133) vcan0 150#A920069804F89AC0
(1675525485.298285) vcan0 125#E50580E4C1D0D735
(1675525485.299303) vcan0 010#000000002FB031F9
(1675525485.300400) vcan0 291#0000000000000000
(1675525485.301488) vcan0 2A9#8C26009BC0000084
(1675525485.304380) vcan0 288#1AE030CF00000080
(1675525485.304458) vcan0 260#D0FF00AA497487B0
(1675525485.305454) vcan0 072#F000FF3F00788038
(1675525485.305528) vcan0 008#48800C4473800080
(1675525485.306494) vcan0 1B0#00C0000001B000FC
(1675525485.306638) vcan0 055#F8F70828B2749C80
(1675525485.306712) vcan0 065#1EE508F8FDED2A02
(1675525485.306786) vcan0 070#000005F82AE20D00
(1675525485.306862) vcan0 075#0000000000005458
(1675525485.307691) vcan0 080#18508000C2002C00
(1675525485.307764) vcan0 0B0#528302A3E3C152A3
(1675525485.307840) vcan0 145#F9D2D280FC4810A1
(1675525485.307984) vcan0 1B5#FFBC6DAAB6E0FFEF
(1675525485.308743) vcan0 1D8#363339343234E043
(1675525485.308827) vcan0 1E0#0018934300B917E0
(1675525485.311645) vcan0 290#0000000000000000
(1675525485.311788) vcan0 2C0#669C00000000A0F1
(1675525485.311861) vcan0 2C5#12E767EC20E50070
(1675525485.311937) vcan0 370#0727C0007603CB1F
(1675525485.312012) vcan0 3E0#000000D934808092
(1675525485.312155) vcan0 010#000000002FB031F8
(1675525485.312230) vcan0 1D0#0000000000000A61
(1675525485.312301) vcan0 210#07E080A0BC69BC4D
(1675525485.312788) vcan0 0E0#E27333D000806800
(1675525485.313826) vcan0 008#4B801C3173800080
(1675525485.314860) vcan0 0F5#B6A0B9A07F6B52F0
(1675525485.315950) vcan0 120#D3A0E9A07FFF5589
(1675525485.317040) vcan0 130#D7FF1DE8204BFD11
(1675525485.317119) vcan0 150#B72007A802F87CC0
(1675525485.318353) vcan0 125#E50380E4C1D0D735
(1675525485.319524) vcan0 010#000000002FB031F8
(1675525485.320540) vcan0 072#F000FF3F0078A038
(1675525485.324445) vcan0 008#4D802C1F73800080
(1675525485.325522) vcan0 055#F8F70828B2749C80
(1675525485.325596) vcan0 065#1EE508F8FFED2A02
(1675525485.325671) vcan0 070#000005F82AE20D00
(1675525485.326570) vcan0 075#0000000000005458
(1675525485.326711) vcan0 080#18508000C2002C00
(1675525485.326787) vcan0 0B0#528302A3E3C152A3
(1675525485.326860) vcan0 145#F9C2D380FC4810A1
(1675525485.327691) vcan0 1B0#00C0000002B000FC
(1675525485.327765) vcan0 1B5#FFD282B5C1E0FFEF
(1675525485.327839) vcan0 1D8#363339343234E043
(1675525485.327913) vcan0 1E0#0018930300B917E0
(1675525485.328058) vcan0 288#0EE030CF00000080
(1675525485.328748) vcan0 28C#00000000002EFEA4
(1675525485.328831) vcan0 2B5#4B3E1B6293A66B47
(1675525485.330213) vcan0 2C3#669C00FFFF475450
(1675525485.330356) vcan0 340#8000000000000000
(1675525485.331322) vcan0 010#000000002FB031F8
(1675525485.331397) vcan0 1D0#0000000000000061
(1675525485.331471) vcan0 291#0000000000000000
(1675525485.332371) vcan0 0E0#E2733BD800804000
(1675525485.335221) vcan0 260#D0FF0055497487B0
(1675525485.335374) vcan0 072#F000FF3F00788038
(1675525485.335452) vcan0 008#51803C0B73800080
(1675525485.335530) vcan0 210#07E08020BC69BC45
(1675525485.336329) vcan0 290#0000000000000000
(1675525485.336406) vcan0 0F5#ACA0B6A07F6F42F3
(1675525485.336485) vcan0 120#F1A0D0A07FFD5589
(1675525485.336636) vcan0 130#DFFF1DE8203BFF11
(1675525485.337434) vcan0 150#B12003B801F872C0
(1675525485.337523) vcan0 125#E50080E4C1D0D735
(1675525485.338467) vcan0 010#000000002FB031F8
(1675525485.339559) vcan0 2A9#8C260082C0000084
(1675525485.343317) vcan0 360#6D9C00D3B343A001
(1675525485.344404) vcan0 008#51804CFB73800080
(1675525485.345534) vcan0 055#F8F70828B2749C80
(1675525485.345609) vcan0 065#1FE508F800EE2A02
(1675525485.346577) vcan0 070#000005F82AE20D00
(1675525485.346653) vcan0 075#0000000000005458
(1675525485.349402) vcan0 080#18508000C2002C00
(1675525485.349545) vcan0 0B0#528302A3E3C152A3
(1675525485.349618) vcan0 145#F9B2D480FC4810A1
(1675525485.349693) vcan0 1B0#00C0000001B000FC
(1675525485.349767) vcan0 1B5#FFE798BFCBE0FFEF
(1675525485.349909) vcan0 1D8#363339343234E043
(1675525485.349984) vcan0 1E0#001C834300B917E0
(1675525485.350480) vcan0 010#000000002FB031F8
(1675525485.350622) vcan0 072#F000FF3F0078A038
(1675525485.351590) vcan0 1D0#0000000000000061
(1675525485.351664) vcan0 390#80FF050002165A4F
(1675525485.352631) vcan0 0E0#E2733BE000802000
(1675525485.352706) vcan0 288#02E040BF00000080
(1675525485.353673) vcan0 008#54805CDA81800080
(1675525485.354777) vcan0 0F5#B3A0B9A07F7332F5
(1675525485.356092) vcan0 120#EBA0F1A07F025689
(1675525485.357183) vcan0 130#E7FD1DE8202BFF11
(1675525485.357260) vcan0 150#B620FFC7FFF75DC0
(1675525485.357340) vcan0 3CA#00000000510000C8
(1675525485.357488) vcan0 125#E5FB7FE4C1D0D735
(1675525485.361177) vcan0 010#000000002FB031F8
(1675525485.361256) vcan0 210#07E080A0BC69BB45
(1675525485.361333) vcan0 291#0000000000000000
(1675525485.361421) vcan0 330#2800000000000000
(1675525485.362221) vcan0 3D0#960F6100D11480C3
(1675525485.363310) vcan0 260#D0FF0055497487B0
(1675525485.364471) vcan0 008#56806CC188800080
(1675525485.365529) vcan0 072#F000FF3F00788038
(1675525485.365604) vcan0 055#F8F70828B2749C80
(1675525485.365747) vcan0 065#1EE508F800EE2A02
(1675525485.366577) vcan0 070#000005F82AE20D00
(1675525485.366720) vcan0 075#0000000000005458
(1675525485.366793) vcan0 080#18508000C2002C00
(1675525485.366867) vcan0 0B0#528302A3E3C152A3
(1675525485.367697) vcan0 145#F9A2D580FC4810A1
(1675525485.370516) vcan0 1B0#00C0000003B000FC
(1675525485.370591) vcan0 1B5#FFFCADCAD6E0FFEF
(1675525485.370664) vcan0 1D8#363339343234E043
(1675525485.370806) vcan0 1E0#0020734300B917E0
(1675525485.370890) vcan0 28C#00000000002EFEA4
(1675525485.370965) vcan0 290#0000000000000000
(1675525485.371038) vcan0 2B5#4B3E1B6293A66B47
(1675525485.371182) vcan0 2C0#669C00000000A0F1
(1675525485.371255) vcan0 2C3#669C00FFFF475450
(1675525485.371329) vcan0 2C5#12E767EC1FE50070
(1675525485.371403) vcan0 3AF#0000000000000020
(1675525485.371548) vcan0 010#000000002FB031F8
(1675525485.371621) vcan0 1D0#0000000000000061
(1675525485.372656) vcan0 0E0#E27338E800800300
(1675525485.373760) vcan0 008#58807CA097800080
(1675525485.376666) vcan0 0F5#A5A0B3A07F7722F8
(1675525485.376743) vcan0 120#EDA0E5A07FF95589
(1675525485.376824) vcan0 130#EFFD1DE8201BFF11
(1675525485.376902) vcan0 150#AC20FFD7FFF757C0
(1675525485.377702) vcan0 288#FEDF40BF00000080
(1675525485.377862) vcan0 125#E5F57FE4C1D0D735
(1675525485.378808) vcan0 010#000000002FB031F9
(1675525485.379896) vcan0 072#F000FF3F0078A038
(1675525485.380840) vcan0 2A9#8C26008AC0000084
(1675525485.381931) vcan0 350#A200000000000080
(1675525485.384319) vcan0 008#5B808C7FA5800080
(1675525485.385385) vcan0 055#F8F70828B2749C80
(1675525485.385461) vcan0 065#1AE508F8FEED2A02
(1675525485.386426) vcan0 070#000005F82AE20D00
(1675525485.386504) vcan0 075#0000000000005458
(1675525485.389255) vcan0 080#18508000C2002C00
(1675525485.389327) vcan0 0B0#528302A3E3C152A3
(1675525485.389472) vcan0 145#F992D680FC4810A1
(1675525485.389544) vcan0 1B0#00C0000002B000FC
(1675525485.389620) vcan0 1B5#FF11C2D4E0E0FFEF
(1675525485.389694) vcan0 1D8#363339343234E043
(1675525485.389788) vcan0 1E0#0020730300B917E0
(1675525485.389931) vcan0 210#07E080A0BC69BB4D
(1675525485.390347) vcan0 010#000000002FB031F8
(1675525485.391385) vcan0 1D0#0000000000000A61
(1675525485.391528) vcan0 291#0000000000000000
(1675525485.392494) vcan0 0E0#E27339F00080E200
(1675525485.393530) vcan0 260#D0FF0055497487B0
(1675525485.394497) vcan0 072#F000FF3F00788038
(1675525485.395585) vcan0 3B0#00D86C387CB0C400
(1675525485.397108) vcan0 008#5F809C6BA5800080
(1675525485.397186) vcan0 290#0000000000000000
(1675525485.397265) vcan0 0F5#B3A0B7A07F7B12FA
(1675525485.397340) vcan0 120#D6A0D7A07FFC5589
(1675525485.397492) vcan0 130#F7FD1DD6201DFA11
(1675525485.397570) vcan0 150#B520FFE7FDF73EC0
(1675525485.397647) vcan0 3C8#669C008E882C008E
(1675525485.397733) vcan0 125#E5EF7FE4C1D0D735
(1675525485.401562) vcan0 010#000000002FB031F8
(1675525485.402581) vcan0 288#EDDF40BF00000080
(1675525485.403598) vcan0 008#6180AC4BB3800080
(1675525485.404687) vcan0 055#F8F70828B2749C80
(1675525485.405734) vcan0 065#1EE508F801EE2A02
(1675525485.405807) vcan0 070#000005F82AE20D00
(1675525485.405880) vcan0 075#0000000000005458
(1675525485.406781) vcan0 080#17508000C2002C00
(1675525485.406854) vcan0 0B0#528302A3E3C152A3
(1675525485.406997) vcan0 145#F982D780FC4810A1
(1675525485.407072) vcan0 1B0#00C0000002B000FC
(1675525485.407832) vcan0 1B5#FF27D7DFEBE0FFEF
(1675525485.407974) vcan0 1D8#363339343234E043
(1675525485.408048) vcan0 1E0#0024634300B917E0
(1675525485.408124) vcan0 28C#00000000002EFEA4
(1675525485.408961) vcan0 2B5#4B3F1B6293A66B47
(1675525485.409036) vcan0 2C3#669C00FFFF485450
(1675525485.409111) vcan0 340#8000000000000000
(1675525485.409185) vcan0 370#0727C0007603CB1F
(1675525485.411318) vcan0 010#000000002FB031F8
(1675525485.411391) vcan0 072#F000FF3F0078A038
(1675525485.414143) vcan0 1D0#0000000000000061
(1675525485.414286) vcan0 210#08E080A0BC69BB45
(1675525485.414360) vcan0 0E0#E2733FF80080BC00
(1675525485.415225) vcan0 008#6480BC38B3800080
(1675525485.416243) vcan0 0F5#9BA0ACA07F7F02FD
(1675525485.416320) vcan0 120#DCA0DCA07FFF5589
(1675525485.416398) vcan0 130#FFFD1DD6200DF411
(1675525485.417271) vcan0 150#A320F9F7FBF740C0
(1675525485.417349) vcan0 125#E5EA7FE4C1D0D735
(1675525485.418366) vcan0 010#000000002FB031F8
(1675525485.419391) vcan0 291#0000000000000000
(1675525485.420480) vcan0 2A9#8C260093C0000084
(1675525485.421570) vcan0 400#0201020001010023
(1675525485.421648) vcan0 405#0000000000000026
(1675525485.423964) vcan0 260#D0FF0055497487B0
(1675525485.426759) vcan0 072#F000FF3F00788038
(1675525485.426901) vcan0 008#6480CC28B3800080
(1675525485.426976) vcan0 055#F8F70828B2749C80
(1675525485.427051) vcan0 065#20E508F801EE2A02
(1675525485.427125) vcan0 070#000005F82AE20D00
(1675525485.427268) vcan0 075#0000000000005458
(1675525485.427342) vcan0 080#17508000C2002C00
(1675525485.427415) vcan0 0B0#528302A3E3C152A3
(1675525485.427488) vcan0 145#F972D880FC4810A1
(1675525485.427633) vcan0 1B0#00C0000004B000FC
(1675525485.427846) vcan0 1B5#FF3CEDEAF5E0FFEF
(1675525485.427997) vcan0 1D8#363339343234E043
(1675525485.428072) vcan0 1E0#0028534300B917E0
(1675525485.428145) vcan0 288#F1DF40BF00000080
(1675525485.428976) vcan0 290#0000000000000000
(1675525485.431795) vcan0 2C0#669C00000000A0F1
(1675525485.431869) vcan0 2C5#12E766EC1FE50070
(1675525485.431943) vcan0 010#000000002FB031F8
(1675525485.432086) vcan0 1D0#0000000000000061
(1675525485.432164) vcan0 0E0#E27342C000809900
(1675525485.432853) vcan0 008#6680DC16B3800080
(1675525485.433890) vcan0 210#08E080A0BC69BB4D
(1675525485.435015) vcan0 0F5#A7A0ACA07F43F200
(1675525485.436035) vcan0 120#F7A0D3A07FF85589
(1675525485.437144) vcan0 130#87FD1DD32000F111
(1675525485.437203) vcan0 150#A920FA07F9F72AC0
(1675525485.437282) vcan0 125#E5E77FE4C1D0D735
(1675525485.439463) vcan0 010#000000002FB031F8
(1675525485.440480) vcan0 072#F000FF3F0078A038
(1675525485.441568) vcan0 330#2800000000000000
(1675525485.445450) vcan0 360#6D9C00D3B343A001
(1675525485.445524) vcan0 008#6880EC12A5800080
(1675525485.445668) vcan0 055#F8F70828B2749C80
(1675525485.445739) vcan0 065#21E508F801EE2A02
(1675525485.446504) vcan0 070#000005F82AE20D00
(1675525485.446648) vcan0 075#0000000000005458
(1675525485.446722) vcan0 080#17508000C2002C00
(1675525485.446796) vcan0 0B0#528302A3E3C152A3
(1675525485.446869) vcan0 145#F962D980FC4810A1
(1675525485.447631) vcan0 1B0#00C0000002B000FC
(1675525485.447705) vcan0 1B5#FF5102F400E0FFEF
(1675525485.447780) vcan0 1D8#363339343234E043
(1675525485.447852) vcan0 1E0#0028530300B917E0
(1675525485.448692) vcan0 28C#00000000002EFEA4
(1675525485.448767) vcan0 2B5#4B3F1B6293A66B47
(1675525485.451519) vcan0 2C3#669C00FFFF485450
(1675525485.451593) vcan0 010#000000002FB031F8
(1675525485.451667) vcan0 1D0#0000000000000061
(1675525485.451809) vcan0 291#0000000000000000
(1675525485.451882) vcan0 390#80FF050002125B4F
(1675525485.452576) vcan0 0E0#E2733FC800807C00
(1675525485.452649) vcan0 288#F5DF50AF00000080
(1675525485.453685) vcan0 260#D0FF00AA497487B0
(1675525485.454721) vcan0 072#F000FF3F00788038
(1675525485.455808) vcan0 008#6A80FC00A5800080
(1675525485.455887) vcan0 290#0000000000000000
(1675525485.455965) vcan0 0F5#95A0A4A07F47E202
(1675525485.456981) vcan0 120#EEA0E9A07FF75589
(1675525485.458285) vcan0 130#8FFD1DD320F0F111
(1675525485.458374) vcan0 150#9C20F917F7F727C0
(1675525485.458454) vcan0 125#E5E47FE4C1D0D735
(1675525485.459325) vcan0 010#000000002FB031F9
(1675525485.460415) vcan0 210#08E080A0BC69BB4D
(1675525485.463237) vcan0 2A9#8C260082C0000084
(1675525485.464326) vcan0 008#6A800C068F800080
(1675525485.465460) vcan0 1B0#00C0000003B000FC
(1675525485.466495) vcan0 055#F8F70828B2749C80
(1675525485.466569) vcan0 065#1EE508F8FEED2A02
(1675525485.466644) vcan0 070#000005F82AE20D00
(1675525485.466787) vcan0 075#0000000000005458
(1675525485.467684) vcan0 080#17508000C2002C00
(1675525485.467761) vcan0 0B0#528302A3E3C152A3
(1675525485.467834) vcan0 145#F952DA80FC4810A1
(1675525485.467908) vcan0 1B5#FF6717FF0BE0FFEF
(1675525485.468051) vcan0 1D8#363339343234E043
(1675525485.468753) vcan0 1E0#002C434300B917E0
(1675525485.469791) vcan0 010#000000002FB031F8
(1675525485.470826) vcan0 072#F000FF3F0078A038
(1675525485.472276) vcan0 1D0#0000000000000A61
(1675525485.472350) vcan0 0E0#E2733DD000805E00
(1675525485.475230) vcan0 350#A200000000000080
(1675525485.475308) vcan0 008#6A801CF68F800080
(1675525485.476398) vcan0 0F5#AAA0AAA07F4BD205
(1675525485.476476) vcan0 120#CAA0CFA07FFB5589
(1675525485.476555) vcan0 130#97FF1DCF20E4EF11
(1675525485.476704) vcan0 150#AA20FA27F5F709C0
(1675525485.477505) vcan0 3CA#00000000520000C8
(1675525485.477582) vcan0 288#E9DF50AF00000080
(1675525485.477661) vcan0 125#E5E27FE4C1D0D735
(1675525485.478531) vcan0 010#000000002FB031F8
(1675525485.479621) vcan0 291#0000000000000000
(1675525485.482094) vcan0 260#D0FF00AA497487B0
(1675525485.484981) vcan0 008#6A802C0A6B800080
(1675525485.485138) vcan0 072#F000FF3F00788038
(1675525485.486161) vcan0 210#08E08020BC69BB45
(1675525485.486237) vcan0 055#F8F70828B2749C80
(1675525485.486380) vcan0 065#1CE508F8FEED2A02
(1675525485.486455) vcan0 070#000005F82AE20D00
(1675525485.486528) vcan0 075#0000000000005458
(1675525485.487220) vcan0 080#18508000C2002C00
(1675525485.487364) vcan0 0B0#528302A3E2C152A3
(1675525485.487439) vcan0 145#F942DB80FC4810A1
(1675525485.487512) vcan0 1B0#00C0000003B000FC
(1675525485.488342) vcan0 1B5#FF7C2C0915E0FFEF
(1675525485.488417) vcan0 1D8#363339343234E043
(1675525485.488491) vcan0 1E0#0030334300B917E0
(1675525485.488566) vcan0 28C#00000000002EFEA4
(1675525485.491192) vcan0 290#0000000000000000
(1675525485.491264) vcan0 2B5#4B3F1B6293A66B47
(1675525485.491339) vcan0 2C0#669C00010000A0F1
(1675525485.491413) vcan0 2C3#669C00FFFF495450
(1675525485.491558) vcan0 2C5#11E766EC21E50070
(1675525485.491632) vcan0 340#8000000000000000
(1675525485.491705) vcan0 3AF#0000000000000020
(1675525485.491780) vcan0 010#000000002FB031F8
(1675525485.491922) vcan0 1D0#0000000000000061
(1675525485.492274) vcan0 0E0#E2733CD800803F00
(1675525485.493308) vcan0 008#6D803C055D800080
(1675525485.494412) vcan0 0F5#A5A0B9A07F4FC208
(1675525485.495514) vcan0 120#CAA0D0A07FF65589
(1675525485.496605) vcan0 130#9FFD1DCF20D4F411
(1675525485.496683) vcan0 150#AF20F537F4F7F4C0
(1675525485.497989) vcan0 125#E5E27FE4C1D0D735
(1675525485.499089) vcan0 010#000000002FB031F8
(1675525485.500249) vcan0 072#F000FF3F0078A038
(1675525485.503000) vcan0 2A9#8C26009BC0000084
(1675525485.503078) vcan0 288#E5DF50AF00000080
(1675525485.504023) vcan0 008#6D804C034F800080
(1675525485.505240) vcan0 055#F8F70828B2749C80
(1675525485.506275) vcan0 065#1CE508F800EE2A02
(1675525485.506350) vcan0 070#000005F82AE20D00
(1675525485.506424) vcan0 075#0000000000005458
(1675525485.506566) vcan0 080#18508000C2002C00
(1675525485.506642) vcan0 0B0#528302A3E2C152A3
(1675525485.507334) vcan0 145#F932DC80FC4810A1
(1675525485.507409) vcan0 1B0#00C0000002B000FC
(1675525485.507552) vcan0 1B5#FF91421420E0FFEF
(1675525485.507626) vcan0 1D8#363339343234E043
(1675525485.508388) vcan0 1E0#0030330300B917E0
(1675525485.508540) vcan0 370#0727C0007603CB1F
(1675525485.510812) vcan0 010#000000002FB031F8
(1675525485.510887) vcan0 1D0#0000000000000061
(1675525485.511854) vcan0 210#08E080A0BC69BB4D
(1675525485.511996) vcan0 291#0000000000000000
(1675525485.512072) vcan0 0E0#E2733AE000802100
(1675525485.514756) vcan0 260#D0FF00AA497487B0
(1675525485.514865) vcan0 008#6D805C0240800080
(1675525485.515885) vcan0 072#F000FF3F00788038
(1675525485.515965) vcan0 290#0000000000000000
(1675525485.516044) vcan0 3B0#00FC703C7CB0C400
(1675525485.516192) vcan0 0F5#A1A0B0A07F53B20A
(1675525485.516996) vcan0 120#E9A0DCA07FFC5589
(1675525485.517073) vcan0 130#A7FF1DCF20C4FA11
(1675525485.517152) vcan0 150#A820F647F2F7EBC0
(1675525485.517229) vcan0 3C8#669C008E882C008E
(1675525485.517315) vcan0 125#E5E27FE4C1D0D735
(1675525485.518043) vcan0 010#000000002FB031F8
(1675525485.519135) vcan0 330#2800000000000000
(1675525485.521530) vcan0 008#6D806CF240800080
(1675525485.525342) vcan0 055#F8F70828B2749C80
(1675525485.525418) vcan0 065#1DE508F800EE2A02
(1675525485.526385) vcan0 070#000005F82AE20D00
(1675525485.526459) vcan0 075#0000000000005458
(1675525485.526602) vcan0 080#18508000C2002C00
(1675525485.526678) vcan0 0B0#528302A3E3C152A3
(1675525485.527439) vcan0 145#F922DD80FC4810A1
(1675525485.527582) vcan0 1B0#00C0000005B000FC
(1675525485.527655) vcan0 1B5#FFA6571E2AE0FFEF
(1675525485.527730) vcan0 1D8#363339343234E043
(1675525485.527805) vcan0 1E0#0034234300B917E0
(1675525485.528565) vcan0 288#D5DF50AF00000080
(1675525485.528661) vcan0 28C#00000000002EFEA4
(1675525485.528737) vcan0 2B5#4B3F1B6293A66C47
(1675525485.528811) vcan0 2C3#669C00FFFF495450
(1675525485.530944) vcan0 010#000000002FB031F8
(1675525485.531017) vcan0 072#F000FF3F0078A038
(1675525485.531161) vcan0 1D0#0000000000000061
(1675525485.531991) vcan0 0E0#E2733DE80080FE00
(1675525485.534603) vcan0 008#6F807CEE32800080
(1675525485.535659) vcan0 210#08E080A0BC69BB45
(1675525485.535736) vcan0 0F5#9EA0A5A07F57A20D
(1675525485.536754) vcan0 120#DEA0DEA07FFC5589
(1675525485.536831) vcan0 130#AFFF1DCF20B4FD11
(1675525485.536910) vcan0 150#A120F157F0F7E2C0
(1675525485.537784) vcan0 125#E5DF7FE4C1D0D735
(1675525485.540536) vcan0 010#000000002FB031F9
(1675525485.540614) vcan0 291#0000000000000000
(1675525485.540699) vcan0 2A9#8C26008AC0000084
(1675525485.541646) vcan0 260#D0FF0055497487B0
(1675525485.542666) vcan0 072#F000FF3F00788038
(1675525485.543755) vcan0 360#6D9C00D3B343A001
(1675525485.544774) vcan0 008#71808CCE40800080
(1675525485.545884) vcan0 055#F8F70828B2749C80
(1675525485.548774) vcan0 065#1CE508F800EE2A02
(1675525485.548847) vcan0 070#000005F82AE20D00
(1675525485.548989) vcan0 075#0000000000005458
(1675525485.549064) vcan0 080#18508000C2002C00
(1675525485.549139) vcan0 0B0#528302A3E3C152A3
(1675525485.549213) vcan0 145#F912DE80FC4810A1
(1675525485.549356) vcan0 1B0#00C0000002B000FC
(1675525485.549431) vcan0 1B5#FFBB6C2935E0FFEF
(1675525485.549504) vcan0 1D8#363339343234E043
(1675525485.549578) vcan0 1E0#0038134300B917E0
(1675525485.549730) vcan0 290#0000000000000000
(1675525485.549806) vcan0 2C0#669C00010000A0F1
(1675525485.549880) vcan0 2C5#11E766EC1DE50070
(1675525485.549955) vcan0 010#000000002FB031F8
(1675525485.550921) vcan0 1D0#0000000000000A61
(1675525485.552367) vcan0 390#80FF0500020E5C6F
(1675525485.552442) vcan0 0E0#E27344F00080D700
(1675525485.552584) vcan0 288#CCDF609F00000080
(1675525485.553415) vcan0 008#71809CCC32800080
(1675525485.554519) vcan0 0F5#9EA0A1A07F5B9210
(1675525485.555589) vcan0 120#C4A0CFA07FF75589
(1675525485.556751) vcan0 130#B7FF1DCA20A9FA11
(1675525485.556830) vcan0 150#9F20F167EFF7D4C0
(1675525485.557846) vcan0 125#E5DC7FE4C1D0D735
(1675525485.560524) vcan0 010#000000002FB031F8
(1675525485.560674) vcan0 072#F000FF3F0078A038
(1675525485.561628) vcan0 210#08E080A0BC69BB45
(1675525485.561706) vcan0 3D0#960F6100D11480C3
(1675525485.562724) vcan0 350#A200000000000080
(1675525485.563741) vcan0 008#7480ACAB40800080
(1675525485.564834) vcan0 055#F8F70828B2749C80
(1675525485.565873) vcan0 065#1CE508F800EE2A02
(1675525485.565946) vcan0 070#000005F82AE20D00
(1675525485.568835) vcan0 075#0000000000005458
(1675525485.568908) vcan0 080#18508000C2002C00
(1675525485.568984) vcan0 0B0#528302A3E3C152A3
(1675525485.569056) vcan0 145#F902DF80FC4810A1
(1675525485.569201) vcan0 1B0#00C0000002B000FC
(1675525485.569275) vcan0 1B5#FFD181333FE0FFEF
(1675525485.569350) vcan0 1D8#363339343234E043
(1675525485.569423) vcan0 1E0#0038130300B917E0
(1675525485.569497) vcan0 28C#00000000002EFEA4
(1675525485.569648) vcan0 2B5#4B3F1B6293A66B47
(1675525485.569723) vcan0 2C3#669C00FFFF4A5450
(1675525485.569797) vcan0 340#8000000000000000
(1675525485.569871) vcan0 010#000000002FB031F8
(1675525485.570976) vcan0 1D0#0000000000000061
(1675525485.571052) vcan0 291#0000000000000000
(1675525485.573800) vcan0 0E0#E27343F80080B800
(1675525485.573874) vcan0 260#D0FF0055497487B0
(1675525485.574858) vcan0 008#7480BCA932800080
(1675525485.575950) vcan0 290#0000000000000000
(1675525485.576029) vcan0 072#F000FF3F00788038
(1675525485.576107) vcan0 0F5#9EA0B0A07F5F8212
(1675525485.577052) vcan0 120#D0A0C7A07FF65589
(1675525485.577136) vcan0 130#BFFD1DCA2099FD11
(1675525485.577207) vcan0 150#A720ED77EDF7BCC0
(1675525485.577285) vcan0 288#D5DF609F00000080
(1675525485.578105) vcan0 125#E5D97FE4C1D0D735
(1675525485.579123) vcan0 010#000000002FB031F8
(1675525485.580284) vcan0 2A9#8C260093C0000084
(1675525485.582672) vcan0 008#7680CC8247800080
(1675525485.585537) vcan0 055#F8F70828B2749C80
(1675525485.585611) vcan0 065#1DE508F801EE2A02
(1675525485.586577) vcan0 070#000005F82AE20D00
(1675525485.586722) vcan0 075#0000000000005458
(1675525485.586795) vcan0 080#17508000C2002C00
(1675525485.586870) vcan0 0B0#528302A3E3C152A3
(1675525485.586943) vcan0 145#F9F2D080FC4810A1
(1675525485.587705) vcan0 1B0#00C0000005B000FC
(1675525485.587779) vcan0 1B5#FFE6973E4AE0FFEF
(1675525485.587851) vcan0 1D8#363339343234E043
(1675525485.587926) vcan0 1E0#003C034300B917E0
(1675525485.588070) vcan0 210#08E080A0BC69BB4D
(1675525485.588771) vcan0 010#000000002FB031F8
(1675525485.589873) vcan0 072#F000FF3F0078A038
(1675525485.590977) vcan0 1D0#0000000000000061
(1675525485.592290) vcan0 0E0#E2733EC000809D00
(1675525485.593392) vcan0 008#7680DC7247800080
(1675525485.596162) vcan0 0F5#8AA093A07F637215
(1675525485.596240) vcan0 120#C7A0D6A07FFB5589
(1675525485.597185) vcan0 130#C7FD1DCA2089FD11
(1675525485.597263) vcan0 150#8E20EE87ECF7C5C0
(1675525485.597414) vcan0 3CA#00000000530000C8
(1675525485.597490) vcan0 125#E5D67FE4C1D0D735
(1675525485.598294) vcan0 010#000000002FB031F8
(1675525485.599310) vcan0 291#0000000000000000
(1675525485.600472) vcan0 330#2800000000000000
(1675525485.601563) vcan0 288#D9DF609F00000080
(1675525485.602582) vcan0 260#D0FF0055497487B0
(1675525485.604976) vcan0 072#F000FF3F00788038
(1675525485.605121) vcan0 008#7880EC5156800080
(1675525485.606091) vcan0 055#F8F70828B2749C80
(1675525485.606163) vcan0 065#1DE508F800EE2A02
(1675525485.608916) vcan0 070#000005F82AE20D00
(1675525485.608991) vcan0 075#0000000000005458
(1675525485.609065) vcan0 080#17508000C2002C00
(1675525485.609207) vcan0 0B0#528302A3E3C152A3
(1675525485.609281) vcan0 145#F9E2D180FC4810A1
(1675525485.609355) vcan0 1B0#00C0000005B000FC
(1675525485.609432) vcan0 1B5#FFFBAC4954E0FFEF
(1675525485.609574) vcan0 1D8#363339343234E043
(1675525485.609648) vcan0 1E0#0000F34300B917E0
(1675525485.609720) vcan0 28C#00000000002EFEA4
(1675525485.609795) vcan0 290#0000000000000000
(1675525485.609938) vcan0 2B5#4B3F1B6293A66B47
(1675525485.610020) vcan0 2C0#669C00000000A0F1
(1675525485.610093) vcan0 2C3#669C00FFFF4A5450
(1675525485.610168) vcan0 2C5#11E766EC1CE50070
(1675525485.611890) vcan0 370#0727C0007603CB1F
(1675525485.611964) vcan0 3AF#0000000000000020
(1675525485.612038) vcan0 3E0#000000D934808092
(1675525485.612180) vcan0 010#000000002FB031F8
(1675525485.612254) vcan0 1D0#0000000000000061
(1675525485.612329) vcan0 210#08E080A0BC69BB45
(1675525485.612403) vcan0 0E0#E2733DC800807E00
(1675525485.612959) vcan0 008#7880FC4156800080
(1675525485.613994) vcan0 0F5#8CA095A07F676218
(1675525485.615074) vcan0 120#EDA0D3A07FF35589
(1675525485.616237) vcan0 130#CFFD1DCA2079FD11
(1675525485.617326) vcan0 150#9020F297ECF7B3C0
(1675525485.617407) vcan0 125#E5D37FE4C1D0D735
(1675525485.619731) vcan0 010#000000002FB031F9
(1675525485.620750) vcan0 072#F000FF3F0078A038
(1675525485.620829) vcan0 2A9#8C26008AC0000084
(1675525485.624666) vcan0 008#7A800C364F800080
(1675525485.625794) vcan0 055#F8F70828B2749C80
(1675525485.625871) vcan0 065#1BE508F8FFED2A02
(1675525485.625944) vcan0 070#000005F82AE20D00
(1675525485.626087) vcan0 075#0000000000005458
(1675525485.626848) vcan0 080#18508000C2002C00
(1675525485.626922) vcan0 0B0#528302A3E3C152A3
(1675525485.627065) vcan0 145#F9D2D280FC4810A1
(1675525485.627141) vcan0 1B0#00C0000000B000FC
(1675525485.627901) vcan0 1B5#FF10C1535FE0FFEF
(1675525485.628045) vcan0 1D8#363339343234E043
(1675525485.628120) vcan0 1E0#0000F30300B917E0
(1675525485.628193) vcan0 288#D9DF609F00000080
(1675525485.629032) vcan0 010#000000002FB031F8
(1675525485.630067) vcan0 1D0#0000000000000A61
(1675525485.631376) vcan0 291#0000000000000000
(1675525485.632480) vcan0 0E0#E27343D000805800
(1675525485.635245) vcan0 260#D0FF00AA497487B0
(1675525485.635317) vcan0 008#7D801C155D800080
(1675525485.635461) vcan0 072#F000FF3F00788038
(1675525485.635534) vcan0 210#08E08020BC69BB4D
(1675525485.636296) vcan0 290#0000000000000000
(1675525485.636439) vcan0 3B0#00D870387CB0C400
(1675525485.636513) vcan0 0F5#8CA095A07F6B521A
(1675525485.636588) vcan0 120#B9A0DAA07FF75589
(1675525485.636660) vcan0 130#D7FD1DCA2069FD11
(1675525485.637422) vcan0 150#9020F2A7EBF7A3C0
(1675525485.637497) vcan0 3C8#669C008E882C008E
(1675525485.637572) vcan0 125#E5D17FE4C1D0D735
(1675525485.638478) vcan0 010#000000002FB031F8
(1675525485.640953) vcan0 360#6D9C00D3B343A001
(1675525485.644861) vcan0 008#7F802CFC64800080
(1675525485.645880) vcan0 1B0#00C0000002B000FC
(1675525485.645959) vcan0 055#F8F70828B2749C80
(1675525485.646976) vcan0 065#1BE508F800EE2A02
(1675525485.647054) vcan0 070#000005F82AE20D00
(1675525485.647132) vcan0 075#0000000000005458
(1675525485.647211) vcan0 080#18508000C2002C00
(1675525485.647288) vcan0 0B0#528302A3E3C152A3
(1675525485.648019) vcan0 145#F9C2D380FC4810A1
(1675525485.648094) vcan0 1B5#FF26D65E6AE0FFEF
(1675525485.648173) vcan0 1D8#363339343234E043
(1675525485.648324) vcan0 1E0#0004E34300B917E0
(1675525485.649132) vcan0 28C#00000000002EFEA4
(1675525485.649203) vcan0 2B5#4B3F1C6293A66B47
(1675525485.649289) vcan0 2C3#669C00FFFF4B5450
(1675525485.652043) vcan0 340#8000000000000000
(1675525485.652121) vcan0 010#000000002FB031F8
(1675525485.652199) vcan0 072#F000FF3F0078A038
(1675525485.652277) vcan0 1D0#0000000000000061
(1675525485.652354) vcan0 390#80FF0500020A5D4F
(1675525485.652505) vcan0 0E0#E27345D800803600
(1675525485.652582) vcan0 288#BCDF708F00000080
(1675525485.653094) vcan0 350#A200000000000080
(1675525485.654185) vcan0 008#7F803CEC64800080
(1675525485.655260) vcan0 0F5#A1A0AAA07F6F421D
(1675525485.656297) vcan0 120#C4A0BBA07FF75589
(1675525485.656440) vcan0 130#DFFD1DC4205FFD11
(1675525485.659123) vcan0 150#A520EAB7EBF77EC0
(1675525485.659267) vcan0 125#E5CE7FE4C1D0D735
(1675525485.660233) vcan0 010#000000002FB031F8
(1675525485.661279) vcan0 210#08E080A0BC69BB4D
(1675525485.661354) vcan0 291#0000000000000000
(1675525485.661498) vcan0 2A9#8C260082C0000084
(1675525485.662327) vcan0 260#D0FF00AA497487B0
(1675525485.663431) vcan0 008#81804CDA64800080
(1675525485.664467) vcan0 055#F8F70828B2749C80
(1675525485.665573) vcan0 065#19E508F8FEED2A02
(1675525485.665652) vcan0 070#000005F82AE20D00
(1675525485.668406) vcan0 075#0000000000005458
(1675525485.668486) vcan0 080#18508000C2002C00
(1675525485.668564) vcan0 0B0#528301A3E3C152A3
(1675525485.668642) vcan0 072#F000FF3F00788038
(1675525485.668719) vcan0 145#F9B2D480FC4810A1
(1675525485.668872) vcan0 1B0#00C0000003B000FC
(1675525485.668948) vcan0 1B5#FF3BEB6874E0FFEF
(1675525485.669026) vcan0 1D8#363339343234E043
(1675525485.669135) vcan0 1E0#0008D34300B917E0
(1675525485.669203) vcan0 290#0000000000000000
(1675525485.669280) vcan0 2C0#669C00000000A0F1
(1675525485.669359) vcan0 2C5#11E766EC1BE50070
(1675525485.669509) vcan0 581#FFFFFFFFFFFF0081
(1675525485.670527) vcan0 010#000000002FB031F8
(1675525485.671620) vcan0 0E0#E27345E000801600
(1675525485.673143) vcan0 1D0#0000000000000061
(1675525485.673222) vcan0 400#0101010101010224
(1675525485.673298) vcan0 405#0000000000000027
(1675525485.674171) vcan0 008#83805CB973800080
(1675525485.675313) vcan0 0F5#8CA09BA07F733220
(1675525485.676417) vcan0 120#C1A0C1A07FF55589
(1675525485.676490) vcan0 130#E7FD1DC12052FA11
(1675525485.676566) vcan0 150#9320EAC7EAF780C0
(1675525485.677464) vcan0 288#C8DF708F00000080
(1675525485.677547) vcan0 125#E5CC7FE4C1D0D735
(1675525485.681392) vcan0 010#000000002FB031F8
(1675525485.682429) vcan0 072#F000FF3F0078A038
(1675525485.683533) vcan0 330#2800000000000000
(1675525485.684568) vcan0 008#83806CBF5D800080
(1675525485.685656) vcan0 055#F8F70828B2749C80
(1675525485.685735) vcan0 065#19E508F800EE2A02
(1675525485.688487) vcan0 070#000005F82AE20D00
(1675525485.688565) vcan0 075#0000000000005458
(1675525485.688644) vcan0 080#18508000C2002C00
(1675525485.688792) vcan0 0B0#528301A3E3C152A3
(1675525485.688871) vcan0 145#F9A2D580FC4810A1
(1675525485.688949) vcan0 1B0#00C0000003B000FC
(1675525485.689027) vcan0 1B5#FF5001737FE0FFEF
(1675525485.689104) vcan0 1D8#363339343234E043
(1675525485.689183) vcan0 1E0#0008D30300B917E0
(1675525485.689344) vcan0 210#08E080A0BC69BB45
(1675525485.689421) vcan0 28C#00000000002EFEA4
(1675525485.689499) vcan0 2B5#4B3F1B6293A66C47
(1675525485.689577) vcan0 2C3#669C00FFFF4B5450
(1675525485.689654) vcan0 010#000000002FB031F8
(1675525485.690745) vcan0 1D0#0000000000000061
(1675525485.693498) vcan0 0E0#E27341E80080FA00
(1675525485.693573) vcan0 291#0000000000000000
(1675525485.693651) vcan0 260#D0FF00AA497487B0
(1675525485.694523) vcan0 008#83807CAF5D800080
(1675525485.695722) vcan0 290#0000000000000000
(1675525485.695795) vcan0 072#F000FF3F00788038
(1675525485.696762) vcan0 0F5#8FA09EA07F772222
(1675525485.696836) vcan0 120#EDA0DFA07FF85589
(1675525485.696980) vcan0 130#EFFD1DC12042FA11
(1675525485.697054) vcan0 150#9620EBD7EAF76DC0
(1675525485.697824) vcan0 125#E5CC7FE4C1D0D735
(1675525485.698927) vcan0 010#000000002FB031F9
(1675525485.699963) vcan0 2A9#8C26009BC0000084
(1675525485.702439) vcan0 288#B8DF708F00000080
(1675525485.705226) vcan0 008#86808CAA4F800080
(1675525485.705378) vcan0 055#F8F70828B2749C80
(1675525485.705455) vcan0 065#19E508F800EE2A02
(1675525485.706329) vcan0 070#000005F82AE20D00
(1675525485.706406) vcan0 075#0000000000005458
(1675525485.706484) vcan0 080#18508000C2002C00
(1675525485.706635) vcan0 0B0#528301A3E3C152A3
(1675525485.707365) vcan0 145#F992D680FC4810A1
(1675525485.707514) vcan0 1B0#00C0000001B000FC
(1675525485.707592) vcan0 1B5#FF65167D89E0FFEF
(1675525485.707669) vcan0 1D8#363339343234E043
(1675525485.708473) vcan0 1E0#000CC34300B917E0
(1675525485.708559) vcan0 370#0727C0007603CB1F
(1675525485.709651) vcan0 010#000000002FB031F8
(1675525485.710671) vcan0 072#F000FF3F0078A038
(1675525485.712047) vcan0 1D0#0000000000000A61
(1675525485.712125) vcan0 210#08E080A0BC69BB4D
(1675525485.712202) vcan0 0E0#E27341F00080DA00
(1675525485.714667) vcan0 008#86809C8C5D800080
(1675525485.715776) vcan0 0F5#84A098A07F7B1225
(1675525485.716865) vcan0 120#ACA0C4A07FF75589
(1675525485.716943) vcan0 130#F7FD1DC12032FA11
(1675525485.717021) vcan0 150#8D20E7E7E9F766C0
(1675525485.717172) vcan0 3CA#00000000540000C8
(1675525485.717972) vcan0 125#E5C97FE4C1D0D735
(1675525485.718992) vcan0 010#000000002FB031F8
(1675525485.720083) vcan0 291#0000000000000000
(1675525485.721104) vcan0 425#0000000000000000
(1675525485.723865) vcan0 260#D0FF00AA497487B0
(1675525485.724993) vcan0 072#F000FF3F00788038
(1675525485.725071) vcan0 008#8680AC8A4F800080
(1675525485.726090) vcan0 055#F8F70828B2749C80
(1675525485.726169) vcan0 065#1BE508F802EE2A02
(1675525485.726247) vcan0 070#000005F82AE20D00
(1675525485.728853) vcan0 075#0000000000005458
(1675525485.728930) vcan0 080#18508000C2002C00
(1675525485.729082) vcan0 0B0#528301A3E3C152A3
(1675525485.729160) vcan0 145#F982D780FC4810A1
(1675525485.729237) vcan0 1B0#00C0000002B000FC
(1675525485.729315) vcan0 1B5#FF7A2B8894E0FFEF
(1675525485.729394) vcan0 1D8#363339343234E043
(1675525485.729472) vcan0 1E0#0010B34300B917E0
(1675525485.729551) vcan0 288#B8DF708F00000080
(1675525485.729628) vcan0 28C#00000000002EFEA4
(1675525485.729714) vcan0 290#0000000000000000
(1675525485.729868) vcan0 2B5#4B3F1B6293A66B47
(1675525485.729944) vcan0 2C0#669C00000000A0F1
(1675525485.730025) vcan0 2C3#669C00FFFF4C5450
(1675525485.730101) vcan0 2C5#11E766EC19E50070
(1675525485.732933) vcan0 340#8000000000000000
(1675525485.733014) vcan0 3AF#0000000000000020
(1675525485.733091) vcan0 010#000000002FB031F8
(1675525485.733170) vcan0 1D0#0000000000000061
(1675525485.733246) vcan0 0E0#E27341F80080BA00
(1675525485.734047) vcan0 008#8680BC8940800080
(1675525485.735069) vcan0 210#08E080A0BC69BB45
(1675525485.736160) vcan0 0F5#8FA0A1A07F7F0228
(1675525485.736239) vcan0 120#B9A0CCA07FF35589
(1675525485.737111) vcan0 130#FFFF1DB9202AF411
(1675525485.737261) vcan0 150#9820E7F7E9F74BC0
(1675525485.737356) vcan0 125#E5C97FE4C1D0D735
(1675525485.738231) vcan0 010#000000002FB031F8
(1675525485.739249) vcan0 072#F000FF3F0078A038
(1675525485.740340) vcan0 2A9#8C260082C0000084
(1675525485.742801) vcan0 350#A200000000000080
(1675525485.745632) vcan0 360#6D9C00D3B343A001
(1675525485.745709) vcan0 008#8680CC8E2B800080
(1675525485.745789) vcan0 055#F8F70828B2749C80
(1675525485.745940) vcan0 065#1BE508F802EE2A02
(1675525485.746018) vcan0 070#000005F82AE20D00
(1675525485.746674) vcan0 075#0000000000005458
(1675525485.746751) vcan0 080#18508000C2002C00
(1675525485.746829) vcan0 0B0#528302A3E3C152A3
(1675525485.746907) vcan0 145#F972D880FC4810A1
(1675525485.747780) vcan0 1B0#00C0000002B000FC
(1675525485.747857) vcan0 1B5#FF9040929EE0FFEF
(1675525485.747945) vcan0 1D8#363339343234E043
(1675525485.748023) vcan0 1E0#0010B30300B917E0
(1675525485.748826) vcan0 010#000000002FB031F8
(1675525485.749914) vcan0 1D0#0000000000000061
(1675525485.752736) vcan0 291#0000000000000000
(1675525485.752815) vcan0 390#80FF050002065E4F
(1675525485.752893) vcan0 0E0#E27341C000809A00
(1675525485.752971) vcan0 288#BCDF807F00000080
(1675525485.753843) vcan0 260#D0FF0055497487B0
(1675525485.754864) vcan0 072#F000FF3F00788038
(1675525485.754942) vcan0 008#8680DC7E2B800080
(1675525485.755959) vcan0 3B0#00D870387CB0C600
(1675525485.756036) vcan0 290#0000000000000000
(1675525485.756188) vcan0 0F5#81A08FA07F43F22A
(1675525485.756267) vcan0 120#B9A0C4A07FF75589
(1675525485.756994) vcan0 130#87FF1DB9201AF411
(1675525485.757080) vcan0 150#8820E507E8F74BC0
(1675525485.759898) vcan0 3C8#669C008E882C008E
(1675525485.759978) vcan0 125#E5C97FE4C1D0D735
(1675525485.760994) vcan0 010#000000002FB031F8
(1675525485.761072) vcan0 210#08E080A0BC69BB45
(1675525485.761151) vcan0 330#2800000000000000
(1675525485.762023) vcan0 3D0#960F6100D11480C3
(1675525485.763112) vcan0 008#8680EC7D1C800080
(1675525485.764129) vcan0 430#2808280000002DC6
(1675525485.765294) vcan0 055#F8F70828B2749C80
(1675525485.766312) vcan0 065#1CE508F800EE2A02
(1675525485.766462) vcan0 070#000005F82AE20D00
(1675525485.769068) vcan0 075#0000000000005458
(1675525485.769218) vcan0 080#18508000C2002C00
(1675525485.769297) vcan0 0B0#528302A3E3C152A3
(1675525485.769375) vcan0 145#F962D980FC4810A1
(1675525485.769462) vcan0 1B0#00C0000003B000FC
(1675525485.769539) vcan0 1B5#FFA5569DA9E0FFEF
(1675525485.769618) vcan0 1D8#363339343234E043
(1675525485.769769) vcan0 1E0#0014A34300B917E0
(1675525485.769844) vcan0 28C#00000000002EFEA4
(1675525485.769924) vcan0 2B5#4B3F1C6293A66B47
(1675525485.770001) vcan0 2C3#669C00FFFF4C5450
(1675525485.770224) vcan0 010#000000002FB031F8
(1675525485.771240) vcan0 072#F000FF3F0078A038
(1675525485.771319) vcan0 1D0#0000000000000061
(1675525485.772409) vcan0 0E0#E27344C800807700
(1675525485.775240) vcan0 008#8680FC6623800080
(1675525485.776329) vcan0 0F5#7EA08FA07F47E22D
(1675525485.776407) vcan0 120#D9A0CDA07FF25589
(1675525485.776558) vcan0 130#8FFF1DB9200AFA11
(1675525485.777431) vcan0 150#8720E717E8F73CC0
(1675525485.777516) vcan0 125#E5C97FE4C1D0D735
(1675525485.777668) vcan0 288#BCDF807F00000080
(1675525485.778469) vcan0 010#000000002FB031F9
(1675525485.779557) vcan0 291#0000000000000000
(1675525485.780720) vcan0 2A9#8C26009BC0000084
(1675525485.783038) vcan0 260#D0FF0055497487B0
(1675525485.785864) vcan0 008#86800C5623800080
(1675525485.786012) vcan0 072#F000FF3F00788038
(1675525485.786092) vcan0 055#F8F70828B2749C80
(1675525485.786171) vcan0 065#1AE508F8FFED2A02
(1675525485.786248) vcan0 070#000005F82AE20D00
(1675525485.786977) vcan0 075#0000000000005458
(1675525485.787055) vcan0 080#18508000C2002C00
(1675525485.787131) vcan0 0B0#528302A3E2C152A3
(1675525485.787209) vcan0 145#F952DA80FC4810A1
(1675525485.787359) vcan0 1B0#00C0000002B000FC
(1675525485.788024) vcan0 1B5#FFBA6BA7B3E0FFEF
(1675525485.788103) vcan0 1D8#363339343234E043
(1675525485.788253) vcan0 1E0#0018934300B917E0
(1675525485.788331) vcan0 210#08E08020BC69BB4D
(1675525485.789133) vcan0 290#0000000000000000
(1675525485.790656) vcan0 2C0#669C00000000A0F1
(1675525485.790734) vcan0 2C5#11E766EC1CE50070
(1675525485.790812) vcan0 010#000000002FB031F8
(1675525485.790890) vcan0 1D0#0000000000000A61
(1675525485.791690) vcan0 0E0#E27344D000805700
(1675525485.792783) vcan0 008#88801C4423800080
(1675525485.796620) vcan0 0F5#7BA093A07F4BD230
(1675525485.796697) vcan0 120#B7A0B6A07FF55589
(1675525485.796775) vcan0 130#97FF1DB720FCF711
(1675525485.796853) vcan0 150#8720E627E8F72CC0
(1675525485.797725) vcan0 125#E5C67FE4C1D0D735
(1675525485.798750) vcan0 010#000000002FB031F8
(1675525485.799839) vcan0 072#F000FF3F0078A038
(1675525485.800931) vcan0 288#B4DF807F00000080
(1675525485.803320) vcan0 008#88802C3423800080
(1675525485.806147) vcan0 055#F8F70828B2749C80
(1675525485.806225) vcan0 065#18E508F8FFED2A02
(1675525485.806378) vcan0 070#000005F82AE20D00
(1675525485.806456) vcan0 075#0000000000005458
(1675525485.806533) vcan0 080#18508000C2002C00
(1675525485.807261) vcan0 0B0#528301A3E2C152A3
(1675525485.807341) vcan0 145#F942DB80FC4810A1
(1675525485.807418) vcan0 1B0#00C0000002B000FC
(1675525485.807498) vcan0 1B5#FFCF80B2BEE0FFEF
(1675525485.807573) vcan0 1D8#363339343234E043
(1675525485.808303) vcan0 1E0#0018930300B917E0
(1675525485.808380) vcan0 28C#00000000002EFEA4
(1675525485.808479) vcan0 2B5#4B401C6293A66B48
(1675525485.808558) vcan0 2C3#669C00FFFF4D5450
(1675525485.809359) vcan0 340#8000000000000000
(1675525485.812327) vcan0 370#0727C0007603CB1F
(1675525485.812405) vcan0 010#000000002FB031F8
(1675525485.812481) vcan0 1D0#0000000000000061
(1675525485.812560) vcan0 210#08E080A0BC69BB45
(1675525485.812709) vcan0 291#0000000000000000
(1675525485.812787) vcan0 0E0#E27348D800803300
(1675525485.813372) vcan0 260#D0FF0055497487B0
(1675525485.814463) vcan0 008#88803C3215800080
(1675525485.815491) vcan0 072#F000FF3F00788038
(1675525485.815568) vcan0 290#0000000000000000
(1675525485.816584) vcan0 0F5#97A0A1A07F4FC232
(1675525485.816663) vcan0 120#A9A0C1A07FF15589
(1675525485.816811) vcan0 130#9FFF1DB720ECF711
(1675525485.816898) vcan0 150#9C20E637E8F707C0
(1675525485.817626) vcan0 125#E5C67FE4C1D0D735
(1675525485.820086) vcan0 010#000000002FB031F8
(1675525485.821175) vcan0 2A9#8C260082C0000084
(1675525485.825087) vcan0 008#8A804C1223800080
(1675525485.826176) vcan0 055#F8F70828B2749C80
(1675525485.826255) vcan0 065#1AE508F801EE2A02
(1675525485.826332) vcan0 070#000005F82AE20D00
(1675525485.826408) vcan0 075#0000000000005458
(1675525485.826486) vcan0 080#18508000C2002C00
(1675525485.827287) vcan0 0B0#528301A3E2C152A3
(1675525485.827437) vcan0 145#F932DC80FC4810A1
(1675525485.827515) vcan0 1B0#00C0000005B000FC
(1675525485.827593) vcan0 1B5#FFE495BCC8E0FFEF
(1675525485.828394) vcan0 1D8#363339343234E043
(1675525485.828472) vcan0 1E0#001C834300B917E0
(1675525485.828556) vcan0 288#A3DF807F00000080
(1675525485.829427) vcan0 010#000000002FB031F8
(1675525485.830518) vcan0 072#F000FF3F0078A038
(1675525485.831823) vcan0 1D0#0000000000000061
(1675525485.831974) vcan0 0E0#E2734AE000801100
(1675525485.834869) vcan0 350#A200000000000080
(1675525485.834949) vcan0 008#8A805C0223800080
(1675525485.835026) vcan0 210#08E080A0BC69BB4D
(1675525485.835971) vcan0 0F5#86A09AA07F53B235
(1675525485.836049) vcan0 120#C1A0B0A07FF15589
(1675525485.837067) vcan0 130#A7FD1DB620DDFD11
(1675525485.837219) vcan0 150#8F20E047E8F704C0
(1675525485.837296) vcan0 3CA#00000000550000C8
(1675525485.837375) vcan0 125#E5C67FE4C1D0D735
(1675525485.838102) vcan0 010#000000002FB031F8
(1675525485.839194) vcan0 291#0000000000000000
(1675525485.840364) vcan0 330#2800000000000000
(1675525485.842682) vcan0 260#D0FF00AA497487B0
(1675525485.845506) vcan0 072#F000FF3F00788038
(1675525485.845656) vcan0 008#8A806CF223800080
(1675525485.845735) vcan0 360#6D9C00D3B343A001
(1675525485.845814) vcan0 055#F8F70828B2749C80
(1675525485.845891) vcan0 065#17E508F8FFED2A02
(1675525485.846617) vcan0 070#000005F82AE20D00
(1675525485.846695) vcan0 075#0000000000005458
(1675525485.846774) vcan0 080#18508000C2002C00
(1675525485.846851) vcan0 0B0#528301A3E2C152A3
(1675525485.847651) vcan0 145#F922DD80FC4810A1
(1675525485.847802) vcan0 1B0#00C0000003B000FC
(1675525485.847880) vcan0 1B5#FFF9AAC7D3E0FFEF
(1675525485.847959) vcan0 1D8#363339343234E043
(1675525485.848036) vcan0 1E0#0020734300B917E0
(1675525485.848774) vcan0 28C#00000000002EFEA4
(1675525485.851597) vcan0 290#0000000000000000
(1675525485.851675) vcan0 2B5#4B401C6293A66B48
(1675525485.851752) vcan0 2C0#669C00000000A0F1
(1675525485.851902) vcan0 2C3#669C00FFFF4D5450
(1675525485.851981) vcan0 2C5#11E766EC1AE50070
(1675525485.852060) vcan0 3AF#0000000000000020
(1675525485.852137) vcan0 010#000000002FB031F8
(1675525485.852214) vcan0 1D0#0000000000000061
(1675525485.852365) vcan0 390#80FF050002025F4F
(1675525485.852442) vcan0 0E0#E2734CE80080EF00
(1675525485.852665) vcan0 288#B4DF906F00000080
(1675525485.853826) vcan0 008#8D807CDF23800080
(1675525485.854919) vcan0 0F5#82A095A07F57A237
(1675525485.855935) vcan0 120#C1A0CCA07FF35589
(1675525485.857025) vcan0 130#AFFD1DB620CDFF11
(1675525485.858413) vcan0 150#8B20E557E8F7F8C0
(1675525485.858490) vcan0 125#E5C37FE4C1D0D735
(1675525485.859509) vcan0 010#000000002FB031F9
(1675525485.860526) vcan0 072#F000FF3F0078A038
(1675525485.863419) vcan0 210#08E080A0BC69BB4D
(1675525485.863497) vcan0 2A9#8C26008AC0000084
(1675525485.864443) vcan0 008#8D808CC032800080
(1675525485.865534) vcan0 055#F8F70828B2749C80
(1675525485.865613) vcan0 065#17E508F8FFED2A02
(1675525485.865690) vcan0 070#000005F82AE20D00
(1675525485.866707) vcan0 075#0000000000005458
(1675525485.866787) vcan0 080#18508000C2002C00
(1675525485.866864) vcan0 0B0#528301A3E2C152A3
(1675525485.866943) vcan0 145#F912DE80FC4810A1
(1675525485.867740) vcan0 1B0#00C0000002B000FC
(1675525485.867820) vcan0 1B5#FF0FBFD1DEE0FFEF
(1675525485.867905) vcan0 1D8#363339343234E043
(1675525485.868055) vcan0 1E0#0020730300B917E0
(1675525485.868858) vcan0 010#000000002FB031F8
(1675525485.871248) vcan0 1D0#0000000000000A61
(1675525485.871326) vcan0 291#0000000000000000
(1675525485.872272) vcan0 0E0#E2734BF00080D000
(1675525485.875131) vcan0 260#D0FF00AA497487B0
(1675525485.875210) vcan0 008#8D809CC61C800080
(1675525485.876228) vcan0 290#0000000000000000
(1675525485.876306) vcan0 072#F000FF3F00788038
(1675525485.876457) vcan0 0F5#6DA08CA07F5B923A
(1675525485.877259) vcan0 120#C1A0C1A07FF15589
(1675525485.877335) vcan0 130#B7FD1DB620BDFF11
(1675525485.877486) vcan0 125#E5C37FE4C1D0D735
(1675525485.877564) vcan0 150#7D20E667E8F7F6C0
(1675525485.877642) vcan0 288#B4DF906F00000080
(1675525485.878381) vcan0 3B0#00D870387CB0C400
(1675525485.878461) vcan0 3C8#669C008E882C008E
(1675525485.879477) vcan0 010#000000002FB031F8
(1675525485.881871) vcan0 008#8F80AC9E32800080
(1675525485.885708) vcan0 210#08E080A0BC69BB45
(1675525485.885785) vcan0 055#F8F70828B2749C80
(1675525485.885864) vcan0 065#16E508F800EE2A02
(1675525485.886808) vcan0 070#000005F82AE20D00
(1675525485.886886) vcan0 075#0000000000005458
(1675525485.886963) vcan0 080#18508000C2002C00
(1675525485.887042) vcan0 0B0#528301A3E3C152A3
(1675525485.887121) vcan0 145#F902DF80FC4810A1
(1675525485.887849) vcan0 1B0#00C0000003B000FC
(1675525485.887926) vcan0 1B5#FF24D5DCE8E0FFEF
(1675525485.888078) vcan0 1D8#363339343234E043
(1675525485.888156) vcan0 1E0#0024634300B917E0
(1675525485.888249) vcan0 28C#00000000002EFEA4
(1675525485.888906) vcan0 2B5#4B401B6293A66B48
(1675525485.889055) vcan0 2C3#669C00FFFF4D5450
(1675525485.890292) vcan0 340#8000000000000000
(1675525485.890370) vcan0 010#000000002FB031F8
(1675525485.891317) vcan0 072#F000FF3F0078A038
(1675525485.891395) vcan0 1D0#0000000000000061
(1675525485.892414) vcan0 0E0#E2734BF80080B000
(1675525485.895204) vcan0 008#8F80BC8E32800080
(1675525485.896368) vcan0 0F5#82A08FA07F5F823D
(1675525485.896446) vcan0 120#9EA0B3A07FED5589
(1675525485.896524) vcan0 130#BFFD1DB320B0FD11
(1675525485.897469) vcan0 150#8920EA77E8F7DAC0
(1675525485.897547) vcan0 125#E5C07FE4C1D0D735
(1675525485.898492) vcan0 010#000000002FB031F8
(1675525485.899583) vcan0 291#0000000000000000
(1675525485.900682) vcan0 2A9#8C260093C0000084
(1675525485.901698) vcan0 288#A8DF906F00000080
(1675525485.904090) vcan0 260#D0FF00AA497487B0
(1675525485.906902) vcan0 008#9180CC6E40800080
(1675525485.906981) vcan0 072#F000FF3F00788038
(1675525485.907059) vcan0 055#F8F70828B2749C80
(1675525485.907136) vcan0 065#1CE508F803EE2A02
(1675525485.907216) vcan0 070#000005F82AE20D00
(1675525485.907366) vcan0 075#0000000000005458
(1675525485.907444) vcan0 080#18508000C2002C00
(1675525485.907522) vcan0 0B0#528301A3E3C152A3
(1675525485.907600) vcan0 145#F9F2D080FC4810A1
(1675525485.907678) vcan0 1B0#00C0000003B000FC
(1675525485.907975) vcan0 1B5#FF39EAE6F3E0FFEF
(1675525485.908053) vcan0 1D8#363339343234E043
(1675525485.908131) vcan0 1E0#0028534300B917E0
(1675525485.908219) vcan0 290#0000000000000000
(1675525485.909021) vcan0 2C0#669C00000000A0F1
(1675525485.911847) vcan0 2C5#11E766EC18E50070
(1675525485.911996) vcan0 370#0727C0007603CB1F
(1675525485.912075) vcan0 3E0#000000D934808092
(1675525485.912152) vcan0 010#000000002FB031F8
(1675525485.912230) vcan0 1D0#0000000000000061
(1675525485.912309) vcan0 210#08E080A0BC69BB4D
(1675525485.912460) vcan0 0E0#E2734CC000808F00
(1675525485.912971) vcan0 008#9180DC5E40800080
(1675525485.914062) vcan0 0F5#74A095A07F63723F
(1675525485.915082) vcan0 120#AAA0B3A07FF35589
(1675525485.916173) vcan0 130#C7FD1DB320A0FD11
(1675525485.917264) vcan0 150#8520E287E8F7CEC0
(1675525485.917414) vcan0 125#E5BD7FE4C1D0D735
(1675525485.919660) vcan0 010#000000002FB031F8
(1675525485.920758) vcan0 072#F000FF3F0078A038
(1675525485.920835) vcan0 330#2800000000000000
(1675525485.921781) vcan0 400#0102A20101026101
(1675525485.921860) vcan0 405#2AF85D57111B6701
(1675525485.924686) vcan0 350#A200000000000080
(1675525485.924761) vcan0 008#9180EC5C32800080
(1675525485.925711) vcan0 055#F8F70828B2749C80
(1675525485.925789) vcan0 065#1BE508F801EE2A02
(1675525485.925865) vcan0 070#000005F82AE20D00
(1675525485.926740) vcan0 075#0000000000005458
(1675525485.926891) vcan0 080#18508000C2002C00
(1675525485.926968) vcan0 0B0#528302A3E3C152A3
(1675525485.927046) vcan0 145#F9E2D180FC4810A1
(1675525485.927846) vcan0 1B0#00C0000003B000FC
(1675525485.927924) vcan0 1B5#FF4EFFF1FDE0FFEF
(1675525485.928002) vcan0 1D8#363339343234E043
(1675525485.928088) vcan0 1E0#0028530300B917E0
(1675525485.928165) vcan0 288#A8DF906F00000080
(1675525485.928894) vcan0 28C#00000000002EFEA4
(1675525485.930418) vcan0 2B5#4B401B6293A66B47
(1675525485.930496) vcan0 2C3#669C00FFFF4E5450
(1675525485.931514) vcan0 010#000000002FB031F8
(1675525485.931592) vcan0 1D0#0000000000000061
(1675525485.931670) vcan0 291#0000000000000000
(1675525485.931748) vcan0 0E0#E2734FC800806C00
(1675525485.932550) vcan0 260#D0FF0055497487B0
(1675525485.936750) vcan0 008#9180FC3E40800080
(1675525485.936830) vcan0 072#F000FF3F00788038
(1675525485.936906) vcan0 210#08E08020BC69BB45
(1675525485.936985) vcan0 290#0000000000000000
(1675525485.937136) vcan0 0F5#7BA08FA07F676242
(1675525485.937214) vcan0 120#B3A0C1A07FEF5589
(1675525485.937299) vcan0 130#CFFD1DB32090FF11
(1675525485.937378) vcan0 150#8520E297E8F7BEC0
(1675525485.937455) vcan0 125#E5BD7FE4C1D0D735
(1675525485.937895) vcan0 010#000000002FB031F9
(1675525485.938912) vcan0 2A9#8C26008AC0000084
(1675525485.939930) vcan0 360#6D9C00D3B343A001
(1675525485.943840) vcan0 008#93800C2C40800080
(1675525485.944860) vcan0 055#F8F70828B2749C80
(1675525485.945965) vcan0 065#18E508F8FFED2A02
(1675525485.946039) vcan0 070#000005F82AE20D00
(1675525485.946183) vcan0 075#0000000000005458
(1675525485.947081) vcan0 080#18508000C2002C00
(1675525485.947154) vcan0 0B0#528302A3E3C152A3
(1675525485.947229) vcan0 145#F9D2D280FC4810A1
(1675525485.947302) vcan0 1B0#00C0000003B000FC
(1675525485.947447) vcan0 1B5#FF6314FB08E0FFEF
(1675525485.948091) vcan0 1D8#363339343234E043
(1675525485.950846) vcan0 1E0#002C434300B917E0
(1675525485.950989) vcan0 010#000000002FB031F8
(1675525485.951062) vcan0 072#F000FF3F0078A038
(1675525485.951136) vcan0 1D0#0000000000000A61
(1675525485.951211) vcan0 390#80FF0500023E504F
(1675525485.951973) vcan0 0E0#E2734BD000805000
(1675525485.952046) vcan0 288#A3DFA05F00000080
(1675525485.953013) vcan0 008#93801C1C40800080
(1675525485.954050) vcan0 0F5#74A087A07F6B5245
(1675525485.955131) vcan0 120#C1A0C8A07FEC5589
(1675525485.956222) vcan0 130#D7FD1DB32080FF11
(1675525485.957238) vcan0 150#7D20E3A7E8F7B6C0
(1675525485.958617) vcan0 3CA#00000000560000C8
(1675525485.958695) vcan0 125#E5BB7FE4C1D0D735
(1675525485.961660) vcan0 010#000000002FB031F8
(1675525485.961749) vcan0 210#08E080A0BC69BB45
(1675525485.961826) vcan0 291#0000000000000000
(1675525485.961904) vcan0 3D0#960F6100D11480C3
(1675525485.962705) vcan0 260#D0FF0055497487B0
(1675525485.963793) vcan0 008#96802C0940800080
(1675525485.964884) vcan0 072#F000FF3F00788038
(1675525485.965976) vcan0 055#F8F70828B2749C80
(1675525485.966053) vcan0 065#16E508F8FEED2A02
(1675525485.966131) vcan0 070#000005F82AE20D00
(1675525485.966283) vcan0 075#0000000000005458
(1675525485.967083) vcan0 080#18508000C2002C00
(1675525485.967161) vcan0 0B0#528301A3E3C152A3
(1675525485.967239) vcan0 145#F9C2D380FC4810A1
(1675525485.967319) vcan0 1B0#00C0000001B000FC
(1675525485.969923) vcan0 1B5#FF78290612E0FFEF
(1675525485.970000) vcan0 1D8#363339343234E043
(1675525485.970085) vcan0 1E0#0030334300B917E0
(1675525485.970165) vcan0 28C#00000000002EFEA4
(1675525485.970242) vcan0 290#0000000000000000
(1675525485.970393) vcan0 2B5#4B401B6293A66B48
(1675525485.970469) vcan0 2C0#669C00010000A0F1
(1675525485.970547) vcan0 2C3#669C00FFFF4E5450
(1675525485.970623) vcan0 2C5#11E766EC1AE50070
(1675525485.970702) vcan0 340#8000000000000000
(1675525485.970780) vcan0 3AF#0000000000000020
(1675525485.971002) vcan0 010#000000002FB031F8
(1675525485.971081) vcan0 1D0#0000000000000061
(1675525485.972026) vcan0 0E0#E2734DD800802E00
(1675525485.973114) vcan0 008#96803CF940800080
(1675525485.976013) vcan0 0F5#86A092A07F6F4247
(1675525485.976092) vcan0 120#A9A0BCA07FED5589
(1675525485.977107) vcan0 130#DFFD1DB32070FF11
(1675525485.977195) vcan0 150#8B20E5B7E7F798C0
(1675525485.977274) vcan0 125#E5B87FE4C1D0D735
(1675525485.977351) vcan0 288#A8DFA05F00000080
(1675525485.978224) vcan0 010#000000002FB031F8
(1675525485.979241) vcan0 072#F000FF3F0078A038
(1675525485.980331) vcan0 2A9#8C260093C0000084
(1675525485.982721) vcan0 008#98804CE740800080
(1675525485.983810) vcan0 055#F8F70828B2769C80
(1675525485.986633) vcan0 065#17E508F800EE2A02
(1675525485.986710) vcan0 070#000005F82AE20D00
(1675525485.986788) vcan0 075#0000000000005458
(1675525485.986867) vcan0 080#18508000C2002C00
(1675525485.986945) vcan0 0B0#528301A3E3C152A3
(1675525485.987094) vcan0 145#F9B2D480FC4810A1
(1675525485.987679) vcan0 1B0#00C0000003B000FC
(1675525485.987757) vcan0 1B5#FF8D3F101DE0FFEF
(1675525485.987842) vcan0 1D8#363339343234E043
(1675525485.987993) vcan0 1E0#0030330300B917E0
(1675525485.988070) vcan0 210#08E080A0BC69BB4D
(1675525485.988798) vcan0 010#000000002FB031F8
(1675525485.989889) vcan0 1D0#0000000000000061
(1675525485.990977) vcan0 291#0000000000000000
(1675525485.992064) vcan0 0E0#E2734DE000800E00
(1675525485.994905) vcan0 260#D0FF0055497487B0
(1675525485.994984) vcan0 072#F000FF3F00788038
(1675525485.995065) vcan0 008#98805CD740800080
(1675525485.995142) vcan0 3B0#00D870387CB0C400
(1675525485.996016) vcan0 290#0000000000000000
(1675525485.996095) vcan0 0F5#86A09EA07F73324A
(1675525485.996171) vcan0 120#ADA0A7A07FED5589
(1675525485.997044) vcan0 130#E7FD1DAC2067FD11
(1675525485.997122) vcan0 150#9120DFC7E7F782C0
(1675525485.997209) vcan0 125#E5B67FE4C1D0D735
(1675525485.997286) vcan0 3C8#669C008E882C008E
(1675525485.998159) vcan0 010#000000002FB031F8
(1675525485.999247) vcan0 330#2800000000000000
(1675525486.001636) vcan0 288#A3DFA05F00000080
(1675525486.005417) vcan0 008#98806CC740800080
(1675525486.005567) vcan0 055#F8F70828B2769C80
(1675525486.005646) vcan0 065#18E508F801EE2A02
(1675525486.006517) vcan0 070#000005F82AE20D00
(1675525486.006596) vcan0 075#0000000000005458
(1675525486.006675) vcan0 080#18508000C2002C00
(1675525486.006825) vcan0 0B0#528301A3E3C152A3
(1675525486.006903) vcan0 145#F9A2D580FC4810A1
(1675525486.007556) vcan0 1B0#00C0000003B000FC
(1675525486.007708) vcan0 1B5#FFA3541B27E0FFEF
(1675525486.007785) vcan0 1D8#363339343234E043
(1675525486.007873) vcan0 1E0#0034234300B917E0
(1675525486.008746) vcan0 28C#00000000002EFEA4
(1675525486.008824) vcan0 2B5#4B401B6293A66B48
(1675525486.008901) vcan0 2C3#669C00FFFF4F5450
(1675525486.011507) vcan0 370#0727C0007603CB1F
(1675525486.011586) vcan0 010#000000002FB031F8
(1675525486.011663) vcan0 072#F000FF3F0078A038
(1675525486.011813) vcan0 1D0#0000000000000061
(1675525486.011890) vcan0 210#08E080A0BC69BB45
(1675525486.011968) vcan0 0E0#E2734DE80080EE00
(1675525486.012627) vcan0 350#A200000000000080
(1675525486.013643) vcan0 008#9A807CB540800080
(1675525486.014733) vcan0 0F5#7BA08AA07F77224D
(1675525486.015842) vcan0 120#BCA0B6A07FF25589
(1675525486.016932) vcan0 130#EFFD1DAC2057FD11
(1675525486.017010) vcan0 150#8220E0D7E6F781C0
(1675525486.018323) vcan0 125#E5B67FE4C1D0D735
(1675525486.019341) vcan0 010#000000002FB031F9
(1675525486.020430) vcan0 291#0000000000000000
(1675525486.021518) vcan0 2A9#8C26008AC0000084
(1675525486.024415) vcan0 260#D0FF0055497487B0
(1675525486.025435) vcan0 008#9A808CA540800080
(1675525486.025513) vcan0 072#F000FF3F00788038
(1675525486.025664) vcan0 055#F8F70828B2749C80
(1675525486.025742) vcan0 065#16E508F8FFED2B02
(1675525486.026543) vcan0 070#000005F82BE20D00
(1675525486.026621) vcan0 075#0000000000005458
(1675525486.026697) vcan0 080#18508000C2002C00
(1675525486.026777) vcan0 0B0#528301A3E3C152A3
(1675525486.026855) vcan0 145#F992D680FC4810A1
(1675525486.027581) vcan0 1B0#00C0000003B000FC
(1675525486.027659) vcan0 1B5#FFB8692532E0FFEF
(1675525486.027746) vcan0 1D8#363339343234E043
(1675525486.027897) vcan0 1E0#0038134300B917E0
(1675525486.028698) vcan0 288#ACDFA05F00000080
(1675525486.031519) vcan0 290#0000000000000000
(1675525486.031597) vcan0 2C0#669C00000000A0F1
(1675525486.031675) vcan0 2C5#11E765EC19E50070
(1675525486.031753) vcan0 010#000000002FB031F8
(1675525486.031904) vcan0 1D0#0000000000000A61
(1675525486.031981) vcan0 0E0#E2734AF00080D100
(1675525486.032565) vcan0 008#9A809C9540800080
(1675525486.033653) vcan0 210#08E080A0BC69BB4D
(1675525486.034834) vcan0 0F5#78A07BA07F7B124F
(1675525486.035853) vcan0 120#B6A0BFA07FEC5589
(1675525486.036944) vcan0 130#F7FD1DAC2047FD11
(1675525486.038250) vcan0 150#7920E3E7E5F77AC0
(1675525486.038402) vcan0 125#E5B37FE4C1D0D735
(1675525486.039283) vcan0 010#000000002FB031F8
(1675525486.040373) vcan0 072#F000FF3F0078A038
(1675525486.044277) vcan0 360#6D9C00D3B343A001
(1675525486.045440) vcan0 008#9D80AC6C56800080
(1675525486.045518) vcan0 055#F8F70828B2769C80
(1675525486.045596) vcan0 065#15E508F8FFED2B02
(1675525486.046542) vcan0 070#000005F82BE20D00
(1675525486.046620) vcan0 075#0000000000005458
(1675525486.046699) vcan0 080#18508000C2002C00
(1675525486.046775) vcan0 0B0#528301A3E3C152A3
(1675525486.047576) vcan0 145#F982D780FC4810A1
(1675525486.047654) vcan0 1B0#00C0000002B000FC
(1675525486.047802) vcan0 1B5#FFCD7E303CE0FFEF
(1675525486.047882) vcan0 1D8#363339343234E043
(1675525486.047959) vcan0 1E0#0038130300B917E0
(1675525486.048689) vcan0 28C#00000000002EFEA4
(1675525486.048775) vcan0 2B5#4B401B6293A66B48
(1675525486.051525) vcan0 2C3#669C00FFFF4F5450
(1675525486.051602) vcan0 340#8000000000000000
(1675525486.051681) vcan0 010#000000002FB031F8
(1675525486.051757) vcan0 1D0#0000000000000061
(1675525486.051906) vcan0 291#0000000000000000
(1675525486.051984) vcan0 390#80FF0500023A514F
(1675525486.052061) vcan0 0E0#E2734DF80080AE00
(1675525486.052573) vcan0 288#B0DFB04F00000080
(1675525486.053660) vcan0 260#D0FF00AA497487B0
(1675525486.054750) vcan0 008#9F80BC5A56800080
(1675525486.055846) vcan0 072#F000FF3F00788038
(1675525486.055922) vcan0 290#0000000000000000
(1675525486.056000) vcan0 0F5#6DA07FA07F7F0252
(1675525486.058606) vcan0 120#9EA0B0A07FE95589
(1675525486.058756) vcan0 130#FFFD1DAC2037FD11
(1675525486.058842) vcan0 150#7620E0F7E5F76DC0
(1675525486.058920) vcan0 125#E5AD7FE4C1D0D735
(1675525486.059720) vcan0 010#000000002FB031F8
(1675525486.060739) vcan0 210#08E080A0BC69BB4D
(1675525486.061900) vcan0 2A9#8C260082C0000084
(1675525486.062989) vcan0 008#A180CC4856800080
(1675525486.064078) vcan0 055#F8F70928B2789C80
(1675525486.065096) vcan0 065#18E508F801EE2B02
(1675525486.066184) vcan0 070#000005F82CE20D00
(1675525486.066263) vcan0 075#0000000000005458
(1675525486.069008) vcan0 080#19508000C2002C00
(1675525486.069087) vcan0 0B0#528301A3E3C152A3
(1675525486.069164) vcan0 145#F972D880FC4810A1
(1675525486.069316) vcan0 1B0#00C0000002B000FC
(1675525486.069393) vcan0 1B5#FFE2933A47E0FFEF
(1675525486.069469) vcan0 1D8#363339343234E043
(1675525486.069556) vcan0 1E0#003C034300B917E0
(1675525486.070067) vcan0 010#000000002FB031F8
(1675525486.071156) vcan0 072#F000FF3F0078A038
(1675525486.071233) vcan0 1D0#0000000000000061
(1675525486.072247) vcan0 0E0#E2734CC000808F00
(1675525486.073409) vcan0 008#A180DC3856800080
(1675525486.076161) vcan0 0F5#82A093A07F43F255
(1675525486.076240) vcan0 120#93A0B0A07FF05589
(1675525486.076317) vcan0 130#87FD1DAC2027FD11
(1675525486.077264) vcan0 150#8B20E207E4F748C0
(1675525486.077341) vcan0 3CA#00000000400000C8
(1675525486.077420) vcan0 125#E5AD7FE4C1D0D735
(1675525486.077499) vcan0 288#97DFB04F00000080
(1675525486.078297) vcan0 010#000000002FB031F8
(1675525486.079386) vcan0 291#0000000000000000
(1675525486.080476) vcan0 330#2800000000000000
(1675525486.081502) vcan0 260#D0FF00AA497487B0
(1675525486.083965) vcan0 008#A380EC2D4F800080
(1675525486.084985) vcan0 072#F000FF3F00788038
(1675525486.086075) vcan0 055#F8F70928B2799C80
(1675525486.086153) vcan0 065#1BE508F802EE2B02
(1675525486.088973) vcan0 070#000005F82DE20D00
(1675525486.089132) vcan0 075#0000000000005458
(1675525486.089202) vcan0 080#19508000C2002C00
(1675525486.089279) vcan0 0B0#528301A3E3C152A3
(1675525486.089359) vcan0 145#F962D980FC4810A1
(1675525486.089436) vcan0 1B0#00C0000003B000FC
(1675525486.089513) vcan0 1B5#FFF7A84551E0FFEF
(1675525486.089664) vcan0 1D8#363339343234E043
(1675525486.089740) vcan0 1E0#0000F34300B917E0
(1675525486.089818) vcan0 210#08E08020BC69BB45
(1675525486.089896) vcan0 28C#00000000002EFEA4
(1675525486.089994) vcan0 290#0000000000000000
(1675525486.090073) vcan0 2B5#4B401B6293A66C49
(1675525486.090150) vcan0 2C0#669C00010000A0F1
(1675525486.090300) vcan0 2C3#669C00FFFF505450
(1675525486.092041) vcan0 2C5#11E765EC16E50070
(1675525486.092117) vcan0 3AF#0000000000000020
(1675525486.092268) vcan0 010#000000002FB031F8
(1675525486.092347) vcan0 1D0#0000000000000061
(1675525486.092424) vcan0 0E0#E2734CC800806F00
(1675525486.093151) vcan0 008#A380FC1D4F800080
(1675525486.094167) vcan0 0F5#70A082A07F47E257
(1675525486.095263) vcan0 120#B0A0B7A07FED5589
(1675525486.096352) vcan0 130#8FFD1DA4201FFA11
(1675525486.097370) vcan0 150#7920E017E3F74AC0
(1675525486.097448) vcan0 125#E5AA7FE4C1D0D735
(1675525486.099836) vcan0 010#000000002FB031F9
(1675525486.100934) vcan0 072#F000FF3F0078A038
(1675525486.101011) vcan0 2A9#8C26009BC0000084
(1675525486.103759) vcan0 288#A3DFB04F00000080
(1675525486.103836) vcan0 350#A200000000000080
(1675525486.104855) vcan0 008#A6800C0A4F800080
(1675525486.105874) vcan0 055#F8F70928B27F9C81
(1675525486.105951) vcan0 065#1AE509F800EE2C02
(1675525486.106102) vcan0 070#000005F82EE20D00
(1675525486.106976) vcan0 075#0000000000005458
(1675525486.107053) vcan0 080#1A508000C2002C00
(1675525486.107132) vcan0 0B0#528302A3E3C152A3
(1675525486.107209) vcan0 145#F952DA80FC4810A1
(1675525486.108009) vcan0 1B0#00C0000003B000FC
(1675525486.108159) vcan0 1B5#FF0CBD4F5CE0FFEF
(1675525486.108238) vcan0 1D8#363339343234E043
(1675525486.108315) vcan0 1E0#0000F30300B917E0
(1675525486.108401) vcan0 370#0727C0007603CB1F
(1675525486.110428) vcan0 010#000000002FB031F8
(1675525486.111517) vcan0 1D0#0000000000000A61
(1675525486.111596) vcan0 210#08E080A0BC69BC4D
(1675525486.111674) vcan0 291#0000000000000000
(1675525486.111752) vcan0 0E0#E2734AD000805100
(1675525486.114355) vcan0 260#D0FF00AA497487B0
(1675525486.115520) vcan0 008#A6801CFA4F800080
(1675525486.115598) vcan0 072#F000FF3F00788038
(1675525486.115677) vcan0 290#0000000000000000
(1675525486.116619) vcan0 3B0#00FC703C7CB0C402
(1675525486.116697) vcan0 0F5#78A082A07F4BD25A
(1675525486.116777) vcan0 120#CCA0BFA07FEC5589
(1675525486.116855) vcan0 130#97FD1DA4200FFA11
(1675525486.116934) vcan0 150#7D20E027E3F736C0
(1675525486.117589) vcan0 125#E5A77FE4C1D0D735
(1675525486.117748) vcan0 3C8#669C008E882C008E
(1675525486.118693) vcan0 010#000000002FB031F8
(1675525486.121080) vcan0 008#A6802CEA4F800080
(1675525486.124993) vcan0 055#F8F70A28B2819C80
(1675525486.126082) vcan0 065#15E509F8FDED2E02
(1675525486.126159) vcan0 070#000005F831E20D00
(1675525486.126237) vcan0 075#0000000000005458
(1675525486.126315) vcan0 080#1C508000C2002C00
(1675525486.127114) vcan0 0B0#528301A3E2C152A3
(1675525486.127264) vcan0 145#F942DB80FC4810A1
(1675525486.127340) vcan0 1B0#00C0000001B000FC
(1675525486.127418) vcan0 1B5#FF21D35A66E0FFEF
(1675525486.128219) vcan0 1D8#363339343234E043
(1675525486.128297) vcan0 1E0#0004E34300B917E0
(1675525486.128376) vcan0 288#9FDFB04F00000080
(1675525486.128452) vcan0 28C#00000000002EFEA4
(1675525486.128614) vcan0 2B5#4B411B6293A66C4C
(1675525486.129410) vcan0 2C3#669C00FFFF505450
(1675525486.130645) vcan0 340#8000000000000000
(1675525486.130724) vcan0 010#000000002FB031F8
(1675525486.130801) vcan0 072#F000FF3F0078A038
(1675525486.131673) vcan0 1D0#0000000000000061
(1675525486.131751) vcan0 0E0#E2734BD800803000
(1675525486.134641) vcan0 008#A8803CD156800080
(1675525486.135733) vcan0 210#08E080A0BC69BB45
(1675525486.135812) vcan0 0F5#70A08CA07F4FC25D
(1675525486.136825) vcan0 120#98A0B0A07FED5589
(1675525486.136904) vcan0 130#9FFD1DA420FFFA11
(1675525486.137054) vcan0 150#7E20DF37E2F725C0
(1675525486.137133) vcan0 125#E5A47FE4C1D0D735
(1675525486.137859) vcan0 010#000000002FB031F8
(1675525486.138948) vcan0 291#0000000000000000
(1675525486.140046) vcan0 2A9#8C260082C0000084
(1675525486.142435) vcan0 260#D0FF0055497487B0
(1675525486.145259) vcan0 072#F000FF3F00788038
(1675525486.145337) vcan0 008#A8804CC84F800080
(1675525486.145488) vcan0 360#6D9C00D3B343A001
(1675525486.145564) vcan0 055#F8F70B28B2889C81
(1675525486.146364) vcan0 065#15E509F8FFED3102
(1675525486.146443) vcan0 070#000005F834E20D00
(1675525486.146519) vcan0 075#0000000000005458
(1675525486.146597) vcan0 080#1E508000C2002C00
(1675525486.146747) vcan0 0B0#528301A3E2C152A3
(1675525486.147402) vcan0 145#F932DC80FC4810A1
(1675525486.147552) vcan0 1B0#00C0000002B000FC
(1675525486.147631) vcan0 1B5#FF37E86471E0FFEF
(1675525486.147708) vcan0 1D8#363339343234E043
(1675525486.148506) vcan0 1E0#0008D34300B917E0
(1675525486.148595) vcan0 290#0000000000000000
(1675525486.149971) vcan0 2C0#669C00000000A0F1
(1675525486.150120) vcan0 2C5#12E765EC15E50070
(1675525486.151064) vcan0 010#000000002FB031F8
(1675525486.151143) vcan0 1D0#0000000000000061
(1675525486.151221) vcan0 390#80FF05000236526F
(1675525486.152165) vcan0 0E0#E2734BE000801000
(1675525486.152243) vcan0 288#8BDFC03F00000080
(1675525486.153188) vcan0 008#AA805CB64F800080
(1675525486.155722) vcan0 0F5#7BA08FA07F53B25F
(1675525486.156740) vcan0 120#9EA098A07FF05589
(1675525486.156817) vcan0 130#A7FD1D9E20F5F711
(1675525486.156969) vcan0 150#8520DC47E1F70EC0
(1675525486.157046) vcan0 125#E5A27FE4C1D0D735
(1675525486.160589) vcan0 010#000000002FB031F8
(1675525486.161676) vcan0 072#F000FF3F0078A038
(1675525486.161763) vcan0 210#08E080A0BC69BB45
(1675525486.161840) vcan0 330#2800000000000000
(1675525486.161917) vcan0 3D0#960F6100D11480C3
(1675525486.162719) vcan0 008#AC806CB340800080
(1675525486.163809) vcan0 055#F8F70B28B28A9C80
(1675525486.164829) vcan0 065#17E50AF801EE3402
(1675525486.165918) vcan0 070#000005F835E20D00
(1675525486.165997) vcan0 075#0000000000005458
(1675525486.168742) vcan0 080#1E508000C2002C00
(1675525486.168819) vcan0 0B0#528301A3E2C152A3
(1675525486.168897) vcan0 145#F922DD80FC4810A1
(1675525486.168975) vcan0 1B0#00C0000001B000FC
(1675525486.169134) vcan0 1B5#FF4CFD6F7BE0FFEF
(1675525486.169203) vcan0 1D8#363339343234E043
(1675525486.169281) vcan0 1E0#0008D30300B917E0
(1675525486.169359) vcan0 28C#00000000002EFEA4
(1675525486.169444) vcan0 2B5#4B411B6293A66E52
(1675525486.169523) vcan0 2C3#669C00FFFF515450
(1675525486.169819) vcan0 010#000000002FB031F8
(1675525486.170907) vcan0 1D0#0000000000000061
(1675525486.171921) vcan0 0E0#E2734CE80080EF00
(1675525486.172071) vcan0 291#0000000000000000
(1675525486.172149) vcan0 400#020B011601010102
(1675525486.174902) vcan0 405#6D9C003B00333A02
(1675525486.174980) vcan0 260#D0FF0055497487B0
(1675525486.175056) vcan0 008#AC807C944F800080
(1675525486.175927) vcan0 290#0000000000000000
(1675525486.176005) vcan0 0F5#69A07BA07F57A262
(1675525486.176083) vcan0 120#A4A0A4A07FED5589
(1675525486.177025) vcan0 072#F000FF3F00788038
(1675525486.177104) vcan0 130#AFFD1D9E20E5F711
(1675525486.177182) vcan0 150#7220D857E1F711C0
(1675525486.177269) vcan0 125#E5A27FE4C1D0D735
(1675525486.178070) vcan0 288#93DFC03F00000080
(1675525486.179156) vcan0 010#000000002FB031F9
(1675525486.180244) vcan0 2A9#8C26008AC0000084
(1675525486.182706) vcan0 008#AC808C9340800080
(1675525486.185526) vcan0 055#F8F70B28B28F9C80
(1675525486.185603) vcan0 065#1AE50AF802EE3402
(1675525486.186619) vcan0 070#000005F838E20D00
(1675525486.186697) vcan0 075#0000000000005458
(1675525486.186775) vcan0 080#20508000C2002C00
(1675525486.186853) vcan0 0B0#528301A3E2C152A3
(1675525486.187653) vcan0 145#F912DE80FC4810A1
(1675525486.187802) vcan0 1B0#00C0000003B000FC
(1675525486.187881) vcan0 1B5#FF61127986E0FFEF
(1675525486.187959) vcan0 1D8#363339343234E043
(1675525486.188036) vcan0 1E0#000CC34300B917E0
(1675525486.188772) vcan0 210#08E080A0BC69BB4D
(1675525486.189788) vcan0 010#000000002FB031F8
(1675525486.190876) vcan0 072#F000FF3F0078A038
(1675525486.191965) vcan0 1D0#0000000000000A61
(1675525486.193269) vcan0 0E0#E27349F00080D200
(1675525486.194358) vcan0 350#A200000000000080
(1675525486.195422) vcan0 008#AF809C8040800080
(1675525486.198311) vcan0 0F5#62A078A07F5B9264
(1675525486.198385) vcan0 120#C4A0B3A07FF25589
(1675525486.198459) vcan0 130#B7FD1D9E20D5FD11
(1675525486.198533) vcan0 150#6D20DB67E0F706C0
(1675525486.198608) vcan0 3CA#00000000510000C8
(1675525486.198751) vcan0 125#E5A07FE4C1D0D735
(1675525486.199307) vcan0 010#000000002FB031F8
(1675525486.200409) vcan0 291#0000000000000000
(1675525486.201514) vcan0 288#8BDFC03F00000080
(1675525486.202570) vcan0 260#D0FF0055497487B0
(1675525486.203675) vcan0 072#F000FF3F00788038
(1675525486.204640) vcan0 008#AF80AC7040800080
(1675525486.205798) vcan0 055#F8F70C28B2939C80
(1675525486.205876) vcan0 065#1AE50BF800EE3702
(1675525486.208625) vcan0 070#000005F83BE20D00
(1675525486.208702) vcan0 075#0000000000005458
(1675525486.208854) vcan0 080#22508000C2002C00
(1675525486.208931) vcan0 0B0#528302A3E2C152A3
(1675525486.209010) vcan0 145#F902DF80FC4810A1
(1675525486.209089) vcan0 1B0#00C0000001B000FC
(1675525486.209167) vcan0 1B5#FF76278490E0FFEF
(1675525486.209318) vcan0 1D8#363339343234E043
(1675525486.209396) vcan0 1E0#0010B34300B917E0
(1675525486.209472) vcan0 28C#00000000002EFEA4
(1675525486.209551) vcan0 290#0000000000000000
(1675525486.209636) vcan0 2B5#4B411B6293A66F57
(1675525486.209717) vcan0 2C0#669C00000000A0F1
(1675525486.209794) vcan0 2C3#669C00FFFF515450
(1675525486.209943) vcan0 2C5#13E765EC18E50070
(1675525486.212694) vcan0 340#8000000000000000
(1675525486.212772) vcan0 370#0727C0007603CB1F
(1675525486.212848) vcan0 3AF#0000000000000020
(1675525486.212925) vcan0 3E0#000000D934808092
(1675525486.213003) vcan0 010#000000002FB031F8
(1675525486.213155) vcan0 1D0#0000000000000061
(1675525486.213232) vcan0 210#08E080A0BC69BB45
(1675525486.213310) vcan0 0E0#E27348F80080B300
(1675525486.213750) vcan0 008#AF80BC6040800080
(1675525486.214841) vcan0 0F5#5BA07BA07F5F8267
(1675525486.215860) vcan0 120#8AA0B3A07FEE5589
(1675525486.216950) vcan0 130#BFFD1D9E20C5FD11
(1675525486.217036) vcan0 150#6B20D877DFF7F8C0
(1675525486.217114) vcan0 125#E5A07FE4C1D0D735
(1675525486.218061) vcan0 010#000000002FB031F8
(1675525486.220451) vcan0 072#F000FF3F0078A038
(1675525486.221543) vcan0 2A9#8C260093C0000084
(1675525486.225448) vcan0 008#AF80CC5040800080
(1675525486.225598) vcan0 055#F8F70D28B29A9C81
(1675525486.225676) vcan0 065#1DE50CF800EE3902
(1675525486.226548) vcan0 070#000005F840E20D00
(1675525486.226627) vcan0 075#0000000000005458
(1675525486.226703) vcan0 080#25508000C2002C00
(1675525486.226855) vcan0 0B0#528302A3E2C152A3
(1675525486.226931) vcan0 145#F9F2D080FC4810A1
(1675525486.227588) vcan0 1B0#00C0000001B000FC
(1675525486.227737) vcan0 1B5#FF8B3C8E9BE0FFEF
(1675525486.227815) vcan0 1D8#363339343234E043
(1675525486.227913) vcan0 1E0#0010B30300B917E0
(1675525486.228715) vcan0 288#7ADFC03F00000080
(1675525486.229731) vcan0 010#000000002FB031F8
(1675525486.230820) vcan0 1D0#0000000000000061
(1675525486.232126) vcan0 291#0000000000000000
(1675525486.232202) vcan0 0E0#E27344C000809700
(1675525486.235131) vcan0 260#D0FF00AA497487B0
(1675525486.235210) vcan0 008#AF80DC552B800080
(1675525486.235361) vcan0 072#F000FF3F00788038
(1675525486.235438) vcan0 210#07E08020BC69BB4D
(1675525486.236164) vcan0 290#0000000000000000
(1675525486.236243) vcan0 3B0#00D870387CB0C400
(1675525486.236321) vcan0 0F5#74A089A07F63726A
(1675525486.236472) vcan0 120#98A09EA07FF35589
(1675525486.237271) vcan0 130#C7FF1D9E20B5FD11
(1675525486.237348) vcan0 150#7E20D387DEF7D5C0
(1675525486.237435) vcan0 125#E5A07FE4C1D0D735
(1675525486.237587) vcan0 3C8#669C008E882C008E
(1675525486.238385) vcan0 010#000000002FB031F8
(1675525486.239404) vcan0 330#2800000000000000
(1675525486.241793) vcan0 360#6D9C00D3B343A001
(1675525486.245701) vcan0 008#AF80EC541C800080
(1675525486.245780) vcan0 055#F8F70E28B29E9C81
(1675525486.245856) vcan0 065#1BE50CF8FFED3D02
(1675525486.245933) vcan0 070#000005F843E20D00
(1675525486.246737) vcan0 075#0000000000005458
(1675525486.246885) vcan0 080#26508000C2002C00
(1675525486.246965) vcan0 0B0#528302A3E2C152A3
(1675525486.247042) vcan0 145#F9E2D180FC4810A1
(1675525486.247841) vcan0 1B0#00C0000004B000FC
(1675525486.247918) vcan0 1B5#FFA05199A5E0FFEF
(1675525486.247997) vcan0 1D8#363339343234E043
(1675525486.248083) vcan0 1E0#0014A34300B917E0
(1675525486.248234) vcan0 28C#00000000002EFEA4
(1675525486.248890) vcan0 2B5#4B411B6293A6705F
(1675525486.249038) vcan0 2C3#669C00FFFF525450
(1675525486.251788) vcan0 010#000000002FB031F8
(1675525486.251866) vcan0 072#F000FF3F0078A038
(1675525486.251943) vcan0 1D0#0000000000000061
(1675525486.252021) vcan0 390#80FF05000232534F
(1675525486.252098) vcan0 0E0#E27344C800807700
(1675525486.252827) vcan0 288#87DFD02F00000080
(1675525486.253915) vcan0 008#AF80FC441C800080
(1675525486.254935) vcan0 0F5#66A07BA07F67626C
(1675525486.256098) vcan0 120#9EA0ACA07FED5589
(1675525486.257115) vcan0 130#CFFF1D9E20A5FF11
(1675525486.257192) vcan0 150#7020D797DEF7D3C0
(1675525486.258567) vcan0 125#E5A07FE4C1D0D735
(1675525486.259520) vcan0 010#000000002FB031F9
(1675525486.260682) vcan0 210#07E080A0BC69BB4D
(1675525486.261770) vcan0 291#0000000000000000
(1675525486.264662) vcan0 2A9#8C26008AC0000084
(1675525486.264739) vcan0 260#D0FF00AA497487B0
(1675525486.264839) vcan0 008#AF800C341C800080
(1675525486.265714) vcan0 072#F000FF3F00788038
(1675525486.265790) vcan0 055#F8F70E28B2A39C81
(1675525486.265869) vcan0 065#1CE50DF800EE4102
(1675525486.266018) vcan0 070#000005F845E20D00
(1675525486.266820) vcan0 075#0000000000005458
(1675525486.266897) vcan0 080#28508000C2002C00
(1675525486.266976) vcan0 0B0#528302A3E2C152A3
(1675525486.267053) vcan0 145#F9D2D280FC4810A1
(1675525486.267131) vcan0 1B0#00C0000002B000FC
(1675525486.267858) vcan0 1B5#FFB566A3B0E0FFEF
(1675525486.267944) vcan0 1D8#363339343234E043
(1675525486.268023) vcan0 1E0#0018934300B917E0
(1675525486.270771) vcan0 290#0000000000000000
(1675525486.270920) vcan0 2C0#669C00000000A0F1
(1675525486.270998) vcan0 2C5#15E765EB1BE50070
(1675525486.271076) vcan0 010#000000002FB031F8
(1675525486.271153) vcan0 1D0#0000000000000A61
(1675525486.271880) vcan0 0E0#E27344D000805700
(1675525486.272970) vcan0 008#AF801C320E800080
(1675525486.273985) vcan0 0F5#6FA07FA07F6B526F
(1675525486.275076) vcan0 120#BBA0B9A07FF15589
(1675525486.276165) vcan0 130#D7FF1D9E2095FF11
(1675525486.277180) vcan0 150#7720D4A7DDF7BCC0
(1675525486.278558) vcan0 125#E5A07FE4C1D0D735
(1675525486.278635) vcan0 288#87DFD02F00000080
(1675525486.281528) vcan0 010#000000002FB031F8
(1675525486.281616) vcan0 072#F000FF3F0078A038
(1675525486.282630) vcan0 350#A200000000000080
(1675525486.283720) vcan0 008#AF802C220E800080
(1675525486.284738) vcan0 210#07E080A0BC69BB45
(1675525486.285917) vcan0 055#F8F70F28B2A79C80
(1675525486.285996) vcan0 065#1AE50EF800EE4502
(1675525486.286073) vcan0 070#000005F848E20D00
(1675525486.286946) vcan0 075#0000000000005458
(1675525486.287025) vcan0 080#29508000C2002C00
(1675525486.287175) vcan0 0B0#528303A3E2C152A3
(1675525486.287252) vcan0 145#F9C2D380FC4810A1
(1675525486.287331) vcan0 1B0#00C0000003B000FC
(1675525486.288059) vcan0 1B5#FFCA7CAEBAE0FFEF
(1675525486.288137) vcan0 1D8#363339343234E043
(1675525486.290885) vcan0 1E0#0018930300B917E0
(1675525486.290962) vcan0 28C#00000000002EFEA4
(1675525486.291050) vcan0 2B5#4B411B6293A67263
(1675525486.291128) vcan0 2C3#669C00FFFF525450
(1675525486.291206) vcan0 340#8000000000000000
(1675525486.291356) vcan0 010#000000002FB031F8
(1675525486.291435) vcan0 1D0#0000000000000061
(1675525486.291511) vcan0 291#0000000000000000
(1675525486.291950) vcan0 0E0#E27343D800803800
(1675525486.293112) vcan0 260#D0FF00AA497487B0
(1675525486.294200) vcan0 072#F000FF3F00788038
(1675525486.295221) vcan0 008#AF803C120E800080
(1675525486.295298) vcan0 290#0000000000000000
(1675525486.298048) vcan0 0F5#69A086A07F6F4272
